(946688569.010000) can0 001#0000000000000000
(946688569.010000) can0 002#D503000000000000
(946688569.020000) can0 001#0000000000000000
(946688569.020000) can0 002#D503000000000000
(946688569.020000) can0 18FF1515#0000000300010000
(946688569.020000) can0 400#0000276828640000
(946688569.020000) can0 401#007F000000000000
(946688569.040000) can0 001#0000000000000000
(946688569.040000) can0 002#D503000000000000
(946688569.040000) can0 18FF1515#0000000300010000
(946688569.040000) can0 400#0100276028660000
(946688569.040000) can0 401#017E000000000000
(946688569.050000) can0 001#0000000000000000
(946688569.050000) can0 002#D503000000000000
(946688569.060000) can0 001#0000000000000000
(946688569.060000) can0 002#D503000000000000
(946688569.060000) can0 18FF1515#0000000300010000
(946688569.060000) can0 400#0000276127680000
(946688569.060000) can0 401#007E000000000000
(946688569.070000) can0 001#0000000000000000
(946688569.070000) can0 002#D503000000000000
(946688569.090000) can0 001#0000000000000000
(946688569.090000) can0 002#D503000000000000
(946688569.090000) can0 18FF1515#0000000300010000
(946688569.090000) can0 400#0000286728610000
(946688569.090000) can0 401#007E000000000000
(946688569.110000) can0 001#0000000000000000
(946688569.110000) can0 002#D503000000000000
(946688569.110000) can0 18FF01EA#0A007D007D007D50
(946688569.110000) can0 18FF02EA#0A007D007D007D50
(946688569.110000) can0 19B50001#8CA0960000000000
(946688569.110000) can0 19B50008#8286840000000000
(946688569.110000) can0 19B50100#9696969696969696
(946688569.110000) can0 19B50800#8484848484848484
(946688569.120000) can0 18FF1515#0000000300010000
(946688569.120000) can0 400#0000286427680000
(946688569.120000) can0 401#017E000000000000
(946688569.130000) can0 001#0000000000000000
(946688569.130000) can0 002#D503000000000000
(946688569.140000) can0 001#0000000000000000
(946688569.140000) can0 002#D503000000000000
(946688569.140000) can0 18FF1515#0000000300010000
(946688569.140000) can0 400#0000286628610000
(946688569.140000) can0 401#007E000000000000
(946688569.150000) can0 001#0000000000000000
(946688569.150000) can0 002#D503000000000000
(946688569.160000) can0 001#0000000000000000
(946688569.160000) can0 002#D503000000000000
(946688569.160000) can0 18FF1515#0000000300010000
(946688569.160000) can0 400#0000276828630000
(946688569.160000) can0 401#007F000000000000
(946688569.170000) can0 001#0000000000000000
(946688569.170000) can0 002#D503000000000000
(946688569.180000) can0 001#0000000000000000
(946688569.180000) can0 002#D503000000000000
(946688569.180000) can0 18FF1515#0000000300010000
(946688569.180000) can0 400#0000276028640000
(946688569.180000) can0 401#007E000000000000
(946688569.190000) can0 001#0000000000000000
(946688569.190000) can0 002#D503000000000000
(946688569.200000) can0 001#0000000000000000
(946688569.200000) can0 002#D503000000000000
(946688569.200000) can0 18FF1515#0000000300010000
(946688569.200000) can0 400#0000275F27600000
(946688569.200000) can0 401#017E000000000000
(946688569.210000) can0 001#0000000000000000
(946688569.210000) can0 002#D503000000000000
(946688569.210000) can0 18FF01EA#0A007D007D007D50
(946688569.210000) can0 18FF02EA#0A007D007D007D50
(946688569.210000) can0 19B50001#8CA0960000000000
(946688569.210000) can0 19B50008#8286840000000000
(946688569.210000) can0 19B50100#9696969696969696
(946688569.210000) can0 19B50800#8484848484848484
(946688569.220000) can0 001#0000000000000000
(946688569.220000) can0 002#D503000000000000
(946688569.220000) can0 18FF1515#0000000300010000
(946688569.220000) can0 400#0000276528620000
(946688569.220000) can0 401#007E000000000000
(946688569.230000) can0 001#0000000000000000
(946688569.230000) can0 002#D503000000000000
(946688569.240000) can0 001#0000000000000000
(946688569.240000) can0 002#D503000000000000
(946688569.240000) can0 18FF1515#0000000300010000
(946688569.240000) can0 400#0100286828600000
(946688569.240000) can0 401#017E000000000000
(946688569.260000) can0 001#0000000000000000
(946688569.260000) can0 002#D503000000000000
(946688569.270000) can0 001#0000000000000000
(946688569.270000) can0 002#D503000000000000
(946688569.270000) can0 18FF1515#0000000300010000
(946688569.270000) can0 400#0001286328630000
(946688569.270000) can0 401#017F000000000000
(946688569.280000) can0 001#0000000000000000
(946688569.280000) can0 002#D503000000000000
(946688569.290000) can0 001#0000000000000000
(946688569.290000) can0 002#D503000000000000
(946688569.290000) can0 18FF1515#0000000300010000
(946688569.290000) can0 400#0000286527680000
(946688569.290000) can0 401#017E000000000000
(946688569.300000) can0 001#0000000000000000
(946688569.300000) can0 002#D503000000000000
(946688569.310000) can0 001#0000000000000000
(946688569.310000) can0 002#D503000000000000
(946688569.310000) can0 18FF1515#0000000300010000
(946688569.310000) can0 400#0100276328620000
(946688569.310000) can0 401#017E000000000000
(946688569.310000) can0 18FF01EA#0A007D007D007D50
(946688569.310000) can0 18FF02EA#0A007D007D007D50
(946688569.310000) can0 19B50001#8CA0960000000000
(946688569.310000) can0 19B50008#8286840000000000
(946688569.310000) can0 19B50100#9696969696969696
(946688569.310000) can0 19B50800#8484848484848484
(946688569.320000) can0 001#0000000000000000
(946688569.320000) can0 002#D503000000000000
(946688569.330000) can0 001#0000000000000000
(946688569.330000) can0 002#D503000000000000
(946688569.330000) can0 18FF1515#0000000300010000
(946688569.330000) can0 400#0000286127670000
(946688569.330000) can0 401#007E000000000000
(946688569.340000) can0 001#0000000000000000
(946688569.340000) can0 002#D503000000000000
(946688569.350000) can0 001#0000000000000000
(946688569.350000) can0 002#D503000000000000
(946688569.350000) can0 18FF1515#0000000300010000
(946688569.350000) can0 400#0000276628600000
(946688569.350000) can0 401#017E000000000000
(946688569.360000) can0 001#0000000000000000
(946688569.360000) can0 002#D503000000000000
(946688569.370000) can0 001#0000000000000000
(946688569.370000) can0 002#D503000000000000
(946688569.370000) can0 18FF1515#0000000300010000
(946688569.370000) can0 400#0000286028660000
(946688569.370000) can0 401#017F000000000000
(946688569.380000) can0 001#0000000000000000
(946688569.380000) can0 002#D503000000000000
(946688569.390000) can0 001#0000000000000000
(946688569.390000) can0 002#D503000000000000
(946688569.390000) can0 18FF1515#0000000300010000
(946688569.390000) can0 400#0000276328630000
(946688569.390000) can0 401#017E000000000000
(946688569.400000) can0 001#0000000000000000
(946688569.400000) can0 002#D503000000000000
(946688569.410000) can0 001#0000000000000000
(946688569.410000) can0 002#D503000000000000
(946688569.410000) can0 18FF1515#0000000300010000
(946688569.410000) can0 400#0000286827680000
(946688569.410000) can0 401#017F000000000000
(946688569.410000) can0 18FF01EA#0A007D007D007D50
(946688569.410000) can0 18FF02EA#0A007D007D007D50
(946688569.410000) can0 19B50001#8CA0960000000000
(946688569.410000) can0 19B50008#8286840000000000
(946688569.410000) can0 19B50100#9696969696969696
(946688569.410000) can0 19B50800#8484848484848484
(946688569.420000) can0 001#0000000000000000
(946688569.420000) can0 002#D503000000000000
(946688569.430000) can0 001#0000000000000000
(946688569.430000) can0 002#D503000000000000
(946688569.430000) can0 18FF1515#0000000300010000
(946688569.430000) can0 400#0000285F27650000
(946688569.430000) can0 401#007F000000000000
(946688569.440000) can0 001#0000000000000000
(946688569.440000) can0 002#D503000000000000
(946688569.450000) can0 001#0000000000000000
(946688569.450000) can0 002#D503000000000000
(946688569.450000) can0 18FF1515#0000000300010000
(946688569.450000) can0 400#00002765285F0000
(946688569.450000) can0 401#007E000000000000
(946688569.460000) can0 001#0000000000000000
(946688569.460000) can0 002#D503000000000000
(946688569.470000) can0 001#0000000000000000
(946688569.470000) can0 002#D503000000000000
(946688569.470000) can0 18FF1515#0000000300010000
(946688569.470000) can0 400#0001286128640000
(946688569.470000) can0 401#007E000000000000
(946688569.480000) can0 001#0000000000000000
(946688569.480000) can0 002#D503000000000000
(946688569.490000) can0 001#0000000000000000
(946688569.490000) can0 002#D503000000000000
(946688569.490000) can0 18FF1515#0000000300010000
(946688569.490000) can0 400#0000286027620000
(946688569.490000) can0 401#007F000000000000
(946688569.510000) can0 001#0000000000000000
(946688569.510000) can0 002#D503000000000000
(946688569.510000) can0 18FF01EA#0A007D007D007D50
(946688569.510000) can0 18FF02EA#0A007D007D007D50
(946688569.510000) can0 19B50001#8CA0960000000000
(946688569.510000) can0 19B50008#8286840000000000
(946688569.510000) can0 19B50100#9696969696969696
(946688569.510000) can0 19B50800#8484848484848484
(946688569.520000) can0 001#0000000000000000
(946688569.520000) can0 002#D503000000000000
(946688569.520000) can0 18FF1515#0000000300010000
(946688569.520000) can0 400#0000286428630000
(946688569.520000) can0 401#017F000000000000
(946688569.529999) can0 001#0000000000000000
(946688569.529999) can0 002#D503000000000000
(946688569.539999) can0 001#0000000000000000
(946688569.539999) can0 002#D503000000000000
(946688569.539999) can0 18FF1515#0000000300010000
(946688569.539999) can0 400#0000276127610000
(946688569.539999) can0 401#007F000000000000
(946688569.549999) can0 001#0000000000000000
(946688569.549999) can0 002#D503000000000000
(946688569.559999) can0 001#0000000000000000
(946688569.559999) can0 002#D503000000000000
(946688569.559999) can0 18FF1515#0000000300010000
(946688569.559999) can0 400#0001276128670000
(946688569.559999) can0 401#007E000000000000
(946688569.569999) can0 001#0000000000000000
(946688569.569999) can0 002#D503000000000000
(946688569.579999) can0 001#0000000000000000
(946688569.579999) can0 002#D503000000000000
(946688569.579999) can0 18FF1515#0000000300010000
(946688569.579999) can0 400#0001275F27600000
(946688569.579999) can0 401#007F000000000000
(946688569.589999) can0 001#0000000000000000
(946688569.589999) can0 002#D503000000000000
(946688569.599999) can0 001#0000000000000000
(946688569.599999) can0 002#D503000000000000
(946688569.599999) can0 18FF1515#0000000300010000
(946688569.599999) can0 400#0000286327630000
(946688569.599999) can0 401#017E000000000000
(946688569.599999) can0 18FF1080#0000000000000000
(946688569.599999) can0 18FF1180#0000000000000000
(946688569.599999) can0 18FF1280#0000000000000000
(946688569.599999) can0 18FFE180#0000000000000000
(946688569.599999) can0 18FFE280#0000000000000000
(946688569.609999) can0 001#0000000000000000
(946688569.609999) can0 002#D503000000000000
(946688569.609999) can0 18FF01EA#0A007D007D007D50
(946688569.609999) can0 18FF02EA#0A007D007D007D50
(946688569.609999) can0 19B50001#8CA0960000000000
(946688569.609999) can0 19B50008#8286840000000000
(946688569.609999) can0 19B50100#9696969696969696
(946688569.609999) can0 19B50800#8484848484848484
(946688569.619999) can0 001#0000000000000000
(946688569.619999) can0 002#D503000000000000
(946688569.619999) can0 18FF1515#0000000300010000
(946688569.619999) can0 400#0100286727660000
(946688569.619999) can0 401#007E000000000000
(946688569.629999) can0 001#0000000000000000
(946688569.629999) can0 002#D503000000000000
(946688569.639999) can0 001#0000000000000000
(946688569.639999) can0 002#D503000000000000
(946688569.639999) can0 18FF1515#0000000300010000
(946688569.639999) can0 400#0000276428640000
(946688569.639999) can0 401#007E000000000000
(946688569.649999) can0 001#0000000000000000
(946688569.649999) can0 002#D503000000000000
(946688569.659999) can0 001#0000000000000000
(946688569.659999) can0 002#D503000000000000
(946688569.659999) can0 18FF1515#0000000300010000
(946688569.659999) can0 400#0001276327670000
(946688569.659999) can0 401#007F000000000000
(946688569.669999) can0 001#0000000000000000
(946688569.669999) can0 002#D503000000000000
(946688569.679999) can0 001#0000000000000000
(946688569.679999) can0 002#D503000000000000
(946688569.679999) can0 18FF1515#0000000300010000
(946688569.679999) can0 400#0000286727600000
(946688569.679999) can0 401#007E000000000000
(946688569.689999) can0 001#0000000000000000
(946688569.689999) can0 002#D503000000000000
(946688569.699999) can0 001#0000000000000000
(946688569.699999) can0 002#D503000000000000
(946688569.699999) can0 18FF1515#0000000300010000
(946688569.699999) can0 400#0001276628610000
(946688569.699999) can0 401#017E000000000000
(946688569.709999) can0 001#0000000000000000
(946688569.709999) can0 002#D503000000000000
(946688569.709999) can0 18FF01EA#0A007D007D007D50
(946688569.709999) can0 18FF02EA#0A007D007D007D50
(946688569.709999) can0 19B50001#8CA0960000000000
(946688569.709999) can0 19B50008#8286840000000000
(946688569.709999) can0 19B50100#9696969696969696
(946688569.709999) can0 19B50800#8484848484848484
(946688569.719999) can0 001#0000000000000000
(946688569.719999) can0 002#D503000000000000
(946688569.719999) can0 18FF1515#0000000300010000
(946688569.719999) can0 400#0001275F27680000
(946688569.719999) can0 401#007E000000000000
(946688569.729999) can0 001#0000000000000000
(946688569.729999) can0 002#D503000000000000
(946688569.739999) can0 001#0000000000000000
(946688569.739999) can0 002#D503000000000000
(946688569.739999) can0 18FF1515#0000000300010000
(946688569.739999) can0 400#00002768285F0000
(946688569.739999) can0 401#007E000000000000
(946688569.749999) can0 001#0000000000000000
(946688569.749999) can0 002#D503000000000000
(946688569.759999) can0 001#0000000000000000
(946688569.759999) can0 002#D503000000000000
(946688569.759999) can0 18FF1515#0000000300010000
(946688569.759999) can0 400#00012864285F0000
(946688569.759999) can0 401#007E000000000000
(946688569.769999) can0 001#0000000000000000
(946688569.769999) can0 002#D503000000000000
(946688569.779999) can0 001#0000000000000000
(946688569.779999) can0 002#D503000000000000
(946688569.779999) can0 18FF1515#0000000300010000
(946688569.779999) can0 400#0001286627680000
(946688569.779999) can0 401#007F000000000000
(946688569.789999) can0 001#0000000000000000
(946688569.789999) can0 002#D503000000000000
(946688569.799999) can0 001#0000000000000000
(946688569.799999) can0 002#D503000000000000
(946688569.799999) can0 18FF1515#0000000300010000
(946688569.799999) can0 400#0000286527610000
(946688569.799999) can0 401#007E000000000000
(946688569.809999) can0 001#0000000000000000
(946688569.809999) can0 002#D503000000000000
(946688569.809999) can0 18FF01EA#0A007D007D007D50
(946688569.809999) can0 18FF02EA#0A007D007D007D50
(946688569.809999) can0 19B50001#8CA0960000000000
(946688569.809999) can0 19B50008#8286840000000000
(946688569.809999) can0 19B50100#9696969696969696
(946688569.809999) can0 19B50800#8484848484848484
(946688569.819999) can0 001#0000000000000000
(946688569.819999) can0 002#D503000000000000
(946688569.819999) can0 18FF1515#0000000300010000
(946688569.819999) can0 400#0100286828650000
(946688569.819999) can0 401#007E000000000000
(946688569.829999) can0 001#0000000000000000
(946688569.829999) can0 002#D503000000000000
(946688569.839999) can0 001#0000000000000000
(946688569.839999) can0 002#D503000000000000
(946688569.839999) can0 18FF1515#0000000300010000
(946688569.839999) can0 400#0101286628680000
(946688569.839999) can0 401#007F000000000000
(946688569.849999) can0 001#0000000000000000
(946688569.849999) can0 002#D503000000000000
(946688569.859999) can0 001#0000000000000000
(946688569.859999) can0 002#D503000000000000
(946688569.859999) can0 18FF1515#0000000300010000
(946688569.859999) can0 400#0000285F27650000
(946688569.859999) can0 401#017F000000000000
(946688569.869999) can0 001#0000000000000000
(946688569.869999) can0 002#D503000000000000
(946688569.879999) can0 001#0000000000000000
(946688569.879999) can0 002#D503000000000000
(946688569.879999) can0 18FF1515#0000000300010000
(946688569.879999) can0 400#0000286728680000
(946688569.879999) can0 401#007E000000000000
(946688569.889999) can0 001#0000000000000000
(946688569.889999) can0 002#D503000000000000
(946688569.899999) can0 001#0000000000000000
(946688569.899999) can0 002#D503000000000000
(946688569.899999) can0 18FF1515#0000000300010000
(946688569.899999) can0 400#0100276427600000
(946688569.899999) can0 401#007F000000000000
(946688569.909999) can0 001#0000000000000000
(946688569.909999) can0 002#D503000000000000
(946688569.909999) can0 18FF01EA#0A007D007D007D50
(946688569.909999) can0 18FF02EA#0A007D007D007D50
(946688569.909999) can0 19B50001#8CA0960000000000
(946688569.909999) can0 19B50008#8286840000000000
(946688569.909999) can0 19B50100#9696969696969696
(946688569.909999) can0 19B50800#8484848484848484
(946688569.919999) can0 001#0000000000000000
(946688569.919999) can0 002#D503000000000000
(946688569.919999) can0 18FF1515#0000000300010000
(946688569.919999) can0 400#0000276228610000
(946688569.919999) can0 401#007F000000000000
(946688569.929999) can0 001#0000000000000000
(946688569.929999) can0 002#D503000000000000
(946688569.939999) can0 001#0000000000000000
(946688569.939999) can0 002#D503000000000000
(946688569.939999) can0 18FF1515#0000000300010000
(946688569.939999) can0 400#00002761275F0000
(946688569.939999) can0 401#017E000000000000
(946688569.949999) can0 001#0000000000000000
(946688569.949999) can0 002#D503000000000000
(946688569.959999) can0 001#0000000000000000
(946688569.959999) can0 002#D503000000000000
(946688569.959999) can0 18FF1515#0000000300010000
(946688569.959999) can0 400#0000286828600000
(946688569.959999) can0 401#007F000000000000
(946688569.969999) can0 001#0000000000000000
(946688569.969999) can0 002#D503000000000000
(946688569.979999) can0 001#0000000000000000
(946688569.979999) can0 002#D503000000000000
(946688569.979999) can0 18FF1515#0000000300010000
(946688569.979999) can0 400#0100286827630000
(946688569.979999) can0 401#017F000000000000
(946688569.989999) can0 001#0000000000000000
(946688569.989999) can0 002#D503000000000000
(946688569.999999) can0 001#0000000000000000
(946688569.999999) can0 002#D503000000000000
(946688569.999999) can0 18FF1515#0000000300010000
(946688569.999999) can0 400#0000276127640000
(946688569.999999) can0 401#007F000000000000
(946688570.009999) can0 001#0000000000000000
(946688570.009999) can0 002#D503000000000000
(946688570.009999) can0 18FF01EA#0A007D007D007D50
(946688570.009999) can0 18FF02EA#0A007D007D007D50
(946688570.009999) can0 19B50001#8CA0960000000000
(946688570.009999) can0 19B50008#8286840000000000
(946688570.009999) can0 19B50100#9696969696969696
(946688570.009999) can0 19B50800#8484848484848484
(946688570.019999) can0 001#0000000000000000
(946688570.019999) can0 002#D503000000000000
(946688570.019999) can0 18FF1515#0000000300010000
(946688570.019999) can0 400#0001286828640000
(946688570.019999) can0 401#007E000000000000
(946688570.029999) can0 001#0000000000000000
(946688570.029999) can0 002#D503000000000000
(946688570.039999) can0 001#0000000000000000
(946688570.039999) can0 002#D503000000000000
(946688570.039999) can0 18FF1515#0000000300010000
(946688570.039999) can0 400#01002762285F0000
(946688570.039999) can0 401#007F000000000000
(946688570.049999) can0 001#0000000000000000
(946688570.049999) can0 002#D503000000000000
(946688570.059999) can0 001#0000000000000000
(946688570.059999) can0 002#D503000000000000
(946688570.059999) can0 18FF1515#0000000300010000
(946688570.059999) can0 400#0001286327600000
(946688570.059999) can0 401#007F000000000000
(946688570.069999) can0 001#0000000000000000
(946688570.069999) can0 002#D503000000000000
(946688570.079999) can0 001#0000000000000000
(946688570.079999) can0 002#D503000000000000
(946688570.079999) can0 18FF1515#0000000300010000
(946688570.079999) can0 400#0000286528680000
(946688570.079999) can0 401#017E000000000000
(946688570.089999) can0 001#0000000000000000
(946688570.089999) can0 002#D503000000000000
(946688570.099999) can0 001#0000000000000000
(946688570.099999) can0 002#D503000000000000
(946688570.099999) can0 18FF1515#0000000300010000
(946688570.099999) can0 400#00002767285F0000
(946688570.099999) can0 401#017F000000000000
(946688570.109999) can0 001#0000000000000000
(946688570.109999) can0 002#D503000000000000
(946688570.109999) can0 18FF01EA#0A007D007D007D50
(946688570.109999) can0 18FF02EA#0A007D007D007D50
(946688570.109999) can0 19B50001#8CA0960000000000
(946688570.109999) can0 19B50008#8286840000000000
(946688570.109999) can0 19B50100#9696969696969696
(946688570.109999) can0 19B50800#8484848484848484
(946688570.119999) can0 001#0000000000000000
(946688570.119999) can0 002#D503000000000000
(946688570.119999) can0 18FF1515#0000000300010000
(946688570.119999) can0 400#00002766275F0000
(946688570.119999) can0 401#007F000000000000
(946688570.129999) can0 001#0000000000000000
(946688570.129999) can0 002#D503000000000000
(946688570.139999) can0 001#0000000000000000
(946688570.139999) can0 002#D503000000000000
(946688570.139999) can0 18FF1515#0000000300010000
(946688570.139999) can0 400#0000276728610000
(946688570.139999) can0 401#007E000000000000
(946688570.149999) can0 001#0000000000000000
(946688570.149999) can0 002#D503000000000000
(946688570.159999) can0 001#0000000000000000
(946688570.159999) can0 002#D503000000000000
(946688570.159999) can0 18FF1515#0000000300010000
(946688570.159999) can0 400#0000286227630000
(946688570.159999) can0 401#007F000000000000
(946688570.169999) can0 001#0000000000000000
(946688570.169999) can0 002#D503000000000000
(946688570.179999) can0 001#0000000000000000
(946688570.179999) can0 002#D503000000000000
(946688570.179999) can0 18FF1515#0000000300010000
(946688570.179999) can0 400#0100276227670000
(946688570.179999) can0 401#007F000000000000
(946688570.189999) can0 001#0000000000000000
(946688570.189999) can0 002#D503000000000000
(946688570.199999) can0 001#0000000000000000
(946688570.199999) can0 002#D503000000000000
(946688570.199999) can0 18FF1515#0000000300010000
(946688570.199999) can0 400#0001276528600000
(946688570.199999) can0 401#007F000000000000
(946688570.199999) can0 18FF1080#0000000000000000
(946688570.199999) can0 18FF1180#0000000000000000
(946688570.199999) can0 18FF1280#0000000000000000
(946688570.199999) can0 18FFE180#0000000000000000
(946688570.199999) can0 18FFE280#0000000000000000
(946688570.209999) can0 001#0000000000000000
(946688570.209999) can0 002#D503000000000000
(946688570.209999) can0 18FF01EA#0A007D007D007D50
(946688570.209999) can0 18FF02EA#0A007D007D007D50
(946688570.209999) can0 19B50001#8CA0960000000000
(946688570.209999) can0 19B50008#8286840000000000
(946688570.209999) can0 19B50100#9696969696969696
(946688570.209999) can0 19B50800#8484848484848484
(946688570.219999) can0 001#0000000000000000
(946688570.219999) can0 002#D503000000000000
(946688570.219999) can0 18FF1515#0000000300010000
(946688570.219999) can0 400#0001285F28640000
(946688570.219999) can0 401#007E000000000000
(946688570.229999) can0 001#0000000000000000
(946688570.229999) can0 002#D503000000000000
(946688570.239999) can0 001#0000000000000000
(946688570.239999) can0 002#D503000000000000
(946688570.239999) can0 18FF1515#0000000300010000
(946688570.239999) can0 400#00012863285F0000
(946688570.239999) can0 401#007E000000000000
(946688570.249999) can0 001#0000000000000000
(946688570.249999) can0 002#D503000000000000
(946688570.259999) can0 001#0000000000000000
(946688570.259999) can0 002#D503000000000000
(946688570.259999) can0 18FF1515#0000000300010000
(946688570.259999) can0 400#0001286727610000
(946688570.259999) can0 401#007E000000000000
(946688570.269999) can0 001#0000000000000000
(946688570.269999) can0 002#D503000000000000
(946688570.279999) can0 001#0000000000000000
(946688570.279999) can0 002#D503000000000000
(946688570.279999) can0 18FF1515#0000000300010000
(946688570.279999) can0 400#0001285F28620000
(946688570.279999) can0 401#007F000000000000
(946688570.289999) can0 001#0000000000000000
(946688570.289999) can0 002#D503000000000000
(946688570.299999) can0 001#0000000000000000
(946688570.299999) can0 002#D503000000000000
(946688570.299999) can0 18FF1515#0000000300010000
(946688570.299999) can0 400#0000276327650000
(946688570.299999) can0 401#007F000000000000
(946688570.309999) can0 001#0000000000000000
(946688570.309999) can0 002#D503000000000000
(946688570.309999) can0 18FF01EA#0A007D007D007D50
(946688570.309999) can0 18FF02EA#0A007D007D007D50
(946688570.309999) can0 19B50001#8CA0960000000000
(946688570.309999) can0 19B50008#8286840000000000
(946688570.309999) can0 19B50100#9696969696969696
(946688570.309999) can0 19B50800#8484848484848484
(946688570.319999) can0 001#0000000000000000
(946688570.319999) can0 002#D503000000000000
(946688570.319999) can0 18FF1515#0000000300010000
(946688570.319999) can0 400#0100286627620000
(946688570.319999) can0 401#007E000000000000
(946688570.329999) can0 001#0000000000000000
(946688570.329999) can0 002#D503000000000000
(946688570.339999) can0 001#0000000000000000
(946688570.339999) can0 002#D503000000000000
(946688570.339999) can0 18FF1515#0000000300010000
(946688570.339999) can0 400#00002764285F0000
(946688570.339999) can0 401#007E000000000000
(946688570.349999) can0 001#0000000000000000
(946688570.349999) can0 002#D503000000000000
(946688570.359999) can0 001#0000000000000000
(946688570.359999) can0 002#D503000000000000
(946688570.359999) can0 18FF1515#0000000300010000
(946688570.359999) can0 400#0000276827680000
(946688570.359999) can0 401#007F000000000000
(946688570.369999) can0 001#0000000000000000
(946688570.369999) can0 002#D503000000000000
(946688570.379999) can0 001#0000000000000000
(946688570.379999) can0 002#D503000000000000
(946688570.379999) can0 18FF1515#0000000300010000
(946688570.379999) can0 400#0101276228680000
(946688570.379999) can0 401#017F000000000000
(946688570.389999) can0 001#0000000000000000
(946688570.389999) can0 002#D503000000000000
(946688570.399999) can0 001#0000000000000000
(946688570.399999) can0 002#D503000000000000
(946688570.399999) can0 18FF1515#0000000300010000
(946688570.399999) can0 400#0100276227650000
(946688570.399999) can0 401#007E000000000000
(946688570.409999) can0 001#0000000000000000
(946688570.409999) can0 002#D503000000000000
(946688570.409999) can0 18FF01EA#0A007D007D007D50
(946688570.409999) can0 18FF02EA#0A007D007D007D50
(946688570.409999) can0 19B50001#8CA0960000000000
(946688570.409999) can0 19B50008#8286840000000000
(946688570.409999) can0 19B50100#9696969696969696
(946688570.409999) can0 19B50800#8484848484848484
(946688570.419999) can0 001#0000000000000000
(946688570.419999) can0 002#D503000000000000
(946688570.419999) can0 18FF1515#0000000300010000
(946688570.419999) can0 400#0000276127630000
(946688570.419999) can0 401#007F000000000000
(946688570.429999) can0 001#0000000000000000
(946688570.429999) can0 002#D503000000000000
(946688570.439999) can0 001#0000000000000000
(946688570.439999) can0 002#D503000000000000
(946688570.439999) can0 18FF1515#0000000300010000
(946688570.439999) can0 400#0100276528610000
(946688570.439999) can0 401#007F000000000000
(946688570.449999) can0 001#0000000000000000
(946688570.449999) can0 002#D503000000000000
(946688570.459999) can0 001#0000000000000000
(946688570.459999) can0 002#D503000000000000
(946688570.459999) can0 18FF1515#0000000300010000
(946688570.459999) can0 400#0100276328680000
(946688570.459999) can0 401#007F000000000000
(946688570.469999) can0 001#0000000000000000
(946688570.469999) can0 002#D503000000000000
(946688570.479999) can0 001#0000000000000000
(946688570.479999) can0 002#D503000000000000
(946688570.479999) can0 18FF1515#0000000300010000
(946688570.479999) can0 400#0000286427660000
(946688570.479999) can0 401#007E000000000000
(946688570.489999) can0 001#0000000000000000
(946688570.489999) can0 002#D503000000000000
(946688570.499999) can0 001#0000000000000000
(946688570.499999) can0 002#D503000000000000
(946688570.499999) can0 18FF1515#0000000300010000
(946688570.499999) can0 400#00012764275F0000
(946688570.499999) can0 401#007F000000000000
(946688570.509999) can0 001#0000000000000000
(946688570.509999) can0 002#D503000000000000
(946688570.509999) can0 18FF01EA#0A007D007D007D50
(946688570.509999) can0 18FF02EA#0A007D007D007D50
(946688570.509999) can0 19B50001#8CA0960000000000
(946688570.509999) can0 19B50008#8286840000000000
(946688570.509999) can0 19B50100#9696969696969696
(946688570.509999) can0 19B50800#8484848484848484
(946688570.519999) can0 001#0000000000000000
(946688570.519999) can0 002#D503000000000000
(946688570.519999) can0 18FF1515#0000000300010000
(946688570.519999) can0 400#0000286528650000
(946688570.519999) can0 401#007E000000000000
(946688570.529999) can0 001#0000000000000000
(946688570.529999) can0 002#D503000000000000
(946688570.539999) can0 001#0000000000000000
(946688570.539999) can0 002#D503000000000000
(946688570.539999) can0 18FF1515#0000000300010000
(946688570.539999) can0 400#0100276527660000
(946688570.539999) can0 401#007E000000000000
(946688570.549999) can0 001#0000000000000000
(946688570.549999) can0 002#D503000000000000
(946688570.559999) can0 001#0000000000000000
(946688570.559999) can0 002#D503000000000000
(946688570.559999) can0 18FF1515#0000000300010000
(946688570.559999) can0 400#0101276328630000
(946688570.559999) can0 401#007E000000000000
(946688570.569999) can0 001#0000000000000000
(946688570.569999) can0 002#D503000000000000
(946688570.579998) can0 001#0000000000000000
(946688570.579998) can0 002#D503000000000000
(946688570.579998) can0 18FF1515#0000000300010000
(946688570.579998) can0 400#0100286527650000
(946688570.579998) can0 401#017E000000000000
(946688570.589998) can0 001#0000000000000000
(946688570.589998) can0 002#D503000000000000
(946688570.599998) can0 001#0000000000000000
(946688570.599998) can0 002#D503000000000000
(946688570.599998) can0 18FF1515#0000000300010000
(946688570.599998) can0 400#0000286628630000
(946688570.599998) can0 401#007E000000000000
(946688570.609998) can0 001#0000000000000000
(946688570.609998) can0 002#D503000000000000
(946688570.609998) can0 18FF01EA#0A007D007D007D50
(946688570.609998) can0 18FF02EA#0A007D007D007D50
(946688570.609998) can0 19B50001#8CA0960000000000
(946688570.609998) can0 19B50008#8286840000000000
(946688570.609998) can0 19B50100#9696969696969696
(946688570.609998) can0 19B50800#8484848484848484
(946688570.619998) can0 001#0000000000000000
(946688570.619998) can0 002#D503000000000000
(946688570.619998) can0 18FF1515#0000000300010000
(946688570.619998) can0 400#0001276028660000
(946688570.619998) can0 401#017F000000000000
(946688570.629998) can0 001#0000000000000000
(946688570.629998) can0 002#D503000000000000
(946688570.639998) can0 001#0000000000000000
(946688570.639998) can0 002#D503000000000000
(946688570.639998) can0 18FF1515#0000000300010000
(946688570.639998) can0 400#0000276027600000
(946688570.639998) can0 401#007F000000000000
(946688570.649998) can0 001#0000000000000000
(946688570.649998) can0 002#D503000000000000
(946688570.659998) can0 001#0000000000000000
(946688570.659998) can0 002#D503000000000000
(946688570.659998) can0 18FF1515#0000000300010000
(946688570.659998) can0 400#0000276628630000
(946688570.659998) can0 401#007F000000000000
(946688570.669998) can0 001#0000000000000000
(946688570.669998) can0 002#D503000000000000
(946688570.679998) can0 001#0000000000000000
(946688570.679998) can0 002#D503000000000000
(946688570.679998) can0 18FF1515#0000000300010000
(946688570.679998) can0 400#0001286227650000
(946688570.679998) can0 401#007E000000000000
(946688570.689998) can0 001#0000000000000000
(946688570.689998) can0 002#D503000000000000
(946688570.699998) can0 001#0000000000000000
(946688570.699998) can0 002#D503000000000000
(946688570.699998) can0 18FF1515#0000000300010000
(946688570.699998) can0 400#0100276027610000
(946688570.699998) can0 401#007F000000000000
(946688570.709998) can0 001#0000000000000000
(946688570.709998) can0 002#D503000000000000
(946688570.709998) can0 18FF01EA#0A007D007D007D50
(946688570.709998) can0 18FF02EA#0A007D007D007D50
(946688570.709998) can0 19B50001#8CA0960000000000
(946688570.709998) can0 19B50008#8286840000000000
(946688570.709998) can0 19B50100#9696969696969696
(946688570.709998) can0 19B50800#8484848484848484
(946688570.719998) can0 001#0000000000000000
(946688570.719998) can0 002#D503000000000000
(946688570.719998) can0 18FF1515#0000000300010000
(946688570.719998) can0 400#0000286227630000
(946688570.719998) can0 401#007E000000000000
(946688570.729998) can0 001#0000000000000000
(946688570.729998) can0 002#D503000000000000
(946688570.739998) can0 001#0000000000000000
(946688570.739998) can0 002#D503000000000000
(946688570.739998) can0 18FF1515#0000000300010000
(946688570.739998) can0 400#0100286627610000
(946688570.739998) can0 401#007F000000000000
(946688570.749998) can0 001#0000000000000000
(946688570.749998) can0 002#D503000000000000
(946688570.759998) can0 001#0000000000000000
(946688570.759998) can0 002#D503000000000000
(946688570.759998) can0 18FF1515#0000000300010000
(946688570.759998) can0 400#0000276228600000
(946688570.759998) can0 401#017F000000000000
(946688570.769998) can0 001#0000000000000000
(946688570.769998) can0 002#D503000000000000
(946688570.779998) can0 001#0000000000000000
(946688570.779998) can0 002#D503000000000000
(946688570.779998) can0 18FF1515#0000000300010000
(946688570.779998) can0 400#0101276128650000
(946688570.779998) can0 401#007E000000000000
(946688570.789998) can0 001#0000000000000000
(946688570.789998) can0 002#D503000000000000
(946688570.799998) can0 001#0000000000000000
(946688570.799998) can0 002#D503000000000000
(946688570.799998) can0 18FF1515#0000000300010000
(946688570.799998) can0 400#0000286827630000
(946688570.799998) can0 401#017E000000000000
(946688570.799998) can0 18FF1080#0000000000000000
(946688570.799998) can0 18FF1180#0000000000000000
(946688570.799998) can0 18FF1280#0000000000000000
(946688570.799998) can0 18FFE180#0000000000000000
(946688570.799998) can0 18FFE280#0000000000000000
(946688570.809998) can0 001#0000000000000000
(946688570.809998) can0 002#D503000000000000
(946688570.809998) can0 18FF01EA#0A007D007D007D50
(946688570.809998) can0 18FF02EA#0A007D007D007D50
(946688570.809998) can0 19B50001#8CA0960000000000
(946688570.809998) can0 19B50008#8286840000000000
(946688570.809998) can0 19B50100#9696969696969696
(946688570.809998) can0 19B50800#8484848484848484
(946688570.819998) can0 001#0000000000000000
(946688570.819998) can0 002#D503000000000000
(946688570.819998) can0 18FF1515#0000000300010000
(946688570.819998) can0 400#0100276627630000
(946688570.819998) can0 401#007F000000000000
(946688570.829998) can0 001#0000000000000000
(946688570.829998) can0 002#D503000000000000
(946688570.839998) can0 001#0000000000000000
(946688570.839998) can0 002#D503000000000000
(946688570.839998) can0 18FF1515#0000000300010000
(946688570.839998) can0 400#00002767285F0000
(946688570.839998) can0 401#007F000000000000
(946688570.849998) can0 001#0000000000000000
(946688570.849998) can0 002#D503000000000000
(946688570.859998) can0 001#0000000000000000
(946688570.859998) can0 002#D503000000000000
(946688570.859998) can0 18FF1515#0000000300010000
(946688570.859998) can0 400#0000276628600000
(946688570.859998) can0 401#017E000000000000
(946688570.869998) can0 001#0000000000000000
(946688570.869998) can0 002#D503000000000000
(946688570.879998) can0 001#0000000000000000
(946688570.879998) can0 002#D503000000000000
(946688570.879998) can0 18FF1515#0000000300010000
(946688570.879998) can0 400#0100276827660000
(946688570.879998) can0 401#007F000000000000
(946688570.889998) can0 001#0000000000000000
(946688570.889998) can0 002#D503000000000000
(946688570.899998) can0 001#0000000000000000
(946688570.899998) can0 002#D503000000000000
(946688570.899998) can0 18FF1515#0000000300010000
(946688570.899998) can0 400#0001276228610000
(946688570.899998) can0 401#007E000000000000
(946688570.909998) can0 001#0000000000000000
(946688570.909998) can0 002#D503000000000000
(946688570.909998) can0 18FF01EA#0A007D007D007D50
(946688570.909998) can0 18FF02EA#0A007D007D007D50
(946688570.909998) can0 19B50001#8CA0960000000000
(946688570.909998) can0 19B50008#8286840000000000
(946688570.909998) can0 19B50100#9696969696969696
(946688570.909998) can0 19B50800#8484848484848484
(946688570.919998) can0 001#0000000000000000
(946688570.919998) can0 002#D503000000000000
(946688570.919998) can0 18FF1515#0000000300010000
(946688570.919998) can0 400#0000276628620000
(946688570.919998) can0 401#007E000000000000
(946688570.929998) can0 001#0000000000000000
(946688570.929998) can0 002#D503000000000000
(946688570.939998) can0 001#0000000000000000
(946688570.939998) can0 002#D503000000000000
(946688570.939998) can0 18FF1515#0000000300010000
(946688570.939998) can0 400#0100286127600000
(946688570.939998) can0 401#007F000000000000
(946688570.949998) can0 001#0000000000000000
(946688570.949998) can0 002#D503000000000000
(946688570.959998) can0 001#0000000000000000
(946688570.959998) can0 002#D503000000000000
(946688570.959998) can0 18FF1515#0000000300010000
(946688570.959998) can0 400#0000276727660000
(946688570.959998) can0 401#017E000000000000
(946688570.969998) can0 001#0000000000000000
(946688570.969998) can0 002#D503000000000000
(946688570.979998) can0 001#0000000000000000
(946688570.979998) can0 002#D503000000000000
(946688570.979998) can0 18FF1515#0000000300010000
(946688570.979998) can0 400#0100286827610000
(946688570.979998) can0 401#017F000000000000
(946688570.989998) can0 001#0000000000000000
(946688570.989998) can0 002#D503000000000000
(946688571.009998) can0 001#0000000000000000
(946688571.009998) can0 002#D503000000000000
(946688571.009998) can0 18FF1515#0000000300010000
(946688571.009998) can0 400#0000276227660000
(946688571.009998) can0 401#007E000000000000
(946688571.019998) can0 18FF01EA#0A007D007D007D50
(946688571.019998) can0 18FF02EA#0A007D007D007D50
(946688571.019998) can0 19B50001#8CA0960000000000
(946688571.019998) can0 19B50008#8286840000000000
(946688571.019998) can0 19B50100#9696969696969696
(946688571.019998) can0 19B50800#8484848484848484
(946688571.029998) can0 001#0000000000000000
(946688571.029998) can0 002#D503000000000000
(946688571.039998) can0 18FF1515#0000000300010000
(946688571.039998) can0 400#0001276627600000
(946688571.039998) can0 401#017F000000000000
(946688571.049998) can0 001#0000000000000000
(946688571.049998) can0 002#D503000000000000
(946688571.069998) can0 001#0000000000000000
(946688571.069998) can0 002#D503000000000000
(946688571.069998) can0 18FF1515#0000000300010000
(946688571.069998) can0 400#0101286527600000
(946688571.069998) can0 401#007E000000000000
(946688571.089998) can0 001#0000000000000000
(946688571.089998) can0 002#D503000000000000
(946688571.099998) can0 18FF1515#0000000300010000
(946688571.099998) can0 400#0000276027660000
(946688571.099998) can0 401#007F000000000000
(946688571.109998) can0 001#0000000000000000
(946688571.109998) can0 002#D503000000000000
(946688571.129998) can0 001#0000000000000000
(946688571.129998) can0 002#D503000000000000
(946688571.129998) can0 18FF1515#0000000300010000
(946688571.129998) can0 400#0000276728680000
(946688571.129998) can0 401#017F000000000000
(946688571.129998) can0 18FF01EA#0A007D007D007D50
(946688571.129998) can0 18FF02EA#0A007D007D007D50
(946688571.129998) can0 19B50001#8CA0960000000000
(946688571.129998) can0 19B50008#8286840000000000
(946688571.129998) can0 19B50100#9696969696969696
(946688571.129998) can0 19B50800#8484848484848484
(946688571.149998) can0 001#0000000000000000
(946688571.149998) can0 002#D503000000000000
(946688571.159998) can0 18FF1515#0000000300010000
(946688571.159998) can0 400#0000276028660000
(946688571.159998) can0 401#007F000000000000
(946688571.169998) can0 001#0000000000000000
(946688571.169998) can0 002#D503000000000000
(946688571.189998) can0 001#0000000000000000
(946688571.189998) can0 002#D503000000000000
(946688571.189998) can0 18FF1515#0000000300010000
(946688571.189998) can0 400#00002765285F0000
(946688571.189998) can0 401#007E000000000000
(946688571.209998) can0 001#0000000000000000
(946688571.209998) can0 002#D503000000000000
(946688571.219998) can0 18FF1515#0000000300010000
(946688571.219998) can0 400#0000276328610000
(946688571.219998) can0 401#017F000000000000
(946688571.229998) can0 001#0000000000000000
(946688571.229998) can0 002#D503000000000000
(946688571.239998) can0 18FF01EA#0A007D007D007D50
(946688571.239998) can0 18FF02EA#0A007D007D007D50
(946688571.239998) can0 19B50001#8CA0960000000000
(946688571.239998) can0 19B50008#8286840000000000
(946688571.239998) can0 19B50100#9696969696969696
(946688571.239998) can0 19B50800#8484848484848484
(946688571.249998) can0 001#0000000000000000
(946688571.249998) can0 002#D503000000000000
(946688571.249998) can0 18FF1515#0000000300010000
(946688571.249998) can0 400#0000276227640000
(946688571.249998) can0 401#007E000000000000
(946688571.269998) can0 001#0000000000000000
(946688571.269998) can0 002#D503000000000000
(946688571.279998) can0 18FF1515#0000000300010000
(946688571.279998) can0 400#0000276127610000
(946688571.279998) can0 401#017F000000000000
(946688571.289998) can0 001#0000000000000000
(946688571.289998) can0 002#D503000000000000
(946688571.309998) can0 001#0000000000000000
(946688571.309998) can0 002#D503000000000000
(946688571.309998) can0 18FF1515#0000000300010000
(946688571.309998) can0 400#0001286027640000
(946688571.309998) can0 401#007F000000000000
(946688571.329998) can0 001#0000000000000000
(946688571.329998) can0 002#D503000000000000
(946688571.339998) can0 18FF1515#0000000300010000
(946688571.339998) can0 400#0000286527620000
(946688571.339998) can0 401#007E000000000000
(946688571.349998) can0 001#0000000000000000
(946688571.349998) can0 002#D503000000000000
(946688571.349998) can0 18FF01EA#0A007D007D007D50
(946688571.349998) can0 18FF02EA#0A007D007D007D50
(946688571.349998) can0 19B50001#8CA0960000000000
(946688571.349998) can0 19B50008#8286840000000000
(946688571.349998) can0 19B50100#9696969696969696
(946688571.349998) can0 19B50800#8484848484848484
(946688571.369998) can0 001#0000000000000000
(946688571.369998) can0 002#D503000000000000
(946688571.369998) can0 18FF1515#0000000300010000
(946688571.369998) can0 400#0000276028660000
(946688571.369998) can0 401#007F000000000000
(946688571.389998) can0 001#0000000000000000
(946688571.389998) can0 002#D503000000000000
(946688571.399998) can0 18FF1515#0000000300010000
(946688571.399998) can0 400#0000276328630000
(946688571.399998) can0 401#007E000000000000
(946688571.409998) can0 001#0000000000000000
(946688571.409998) can0 002#D503000000000000
(946688571.409998) can0 18FF1080#0000000000000000
(946688571.409998) can0 18FF1180#0000000000000000
(946688571.409998) can0 18FF1280#0000000000000000
(946688571.409998) can0 18FFE180#0000000000000000
(946688571.409998) can0 18FFE280#0000000000000000
(946688571.429998) can0 001#0000000000000000
(946688571.429998) can0 002#D503000000000000
(946688571.429998) can0 18FF1515#0000000300010000
(946688571.429998) can0 400#0000276727630000
(946688571.429998) can0 401#017F000000000000
(946688571.449998) can0 001#0000000000000000
(946688571.449998) can0 002#D503000000000000
(946688571.459998) can0 18FF1515#0000000300010000
(946688571.459998) can0 400#0000286328640000
(946688571.459998) can0 401#017F000000000000
(946688571.459998) can0 18FF01EA#0A007D007D007D50
(946688571.459998) can0 18FF02EA#0A007D007D007D50
(946688571.459998) can0 19B50001#8CA0960000000000
(946688571.459998) can0 19B50008#8286840000000000
(946688571.459998) can0 19B50100#9696969696969696
(946688571.459998) can0 19B50800#8484848484848484
(946688571.469998) can0 001#0000000000000000
(946688571.469998) can0 002#D503000000000000
(946688571.489998) can0 001#0000000000000000
(946688571.489998) can0 002#D503000000000000
(946688571.489998) can0 18FF1515#0000000300010000
(946688571.489998) can0 400#0001286427650000
(946688571.489998) can0 401#007F000000000000
(946688571.509998) can0 001#0000000000000000
(946688571.509998) can0 002#D503000000000000
(946688571.519998) can0 18FF1515#0000000300010000
(946688571.519998) can0 400#0000276028680000
(946688571.519998) can0 401#017E000000000000
(946688571.529998) can0 001#0000000000000000
(946688571.529998) can0 002#D503000000000000
(946688571.549998) can0 001#0000000000000000
(946688571.549998) can0 002#D503000000000000
(946688571.549998) can0 18FF1515#0000000300010000
(946688571.549998) can0 400#0000276427660000
(946688571.549998) can0 401#017E000000000000
(946688571.569998) can0 001#0000000000000000
(946688571.569998) can0 002#D503000000000000
(946688571.569998) can0 18FF01EA#0A007D007D007D50
(946688571.569998) can0 18FF02EA#0A007D007D007D50
(946688571.569998) can0 19B50001#8CA0960000000000
(946688571.569998) can0 19B50008#8286840000000000
(946688571.569998) can0 19B50100#9696969696969696
(946688571.569998) can0 19B50800#8484848484848484
(946688571.579998) can0 18FF1515#0000000300010000
(946688571.579998) can0 400#0100286127650000
(946688571.579998) can0 401#007E000000000000
(946688571.589998) can0 001#0000000000000000
(946688571.589998) can0 002#D503000000000000
(946688571.609998) can0 001#0000000000000000
(946688571.609998) can0 002#D503000000000000
(946688571.609998) can0 18FF1515#0000000300010000
(946688571.609998) can0 400#0001276327650000
(946688571.609998) can0 401#007E000000000000
(946688571.629997) can0 001#0000000000000000
(946688571.629997) can0 002#D503000000000000
(946688571.639997) can0 18FF1515#0000000300010000
(946688571.639997) can0 400#0100286827640000
(946688571.639997) can0 401#017E000000000000
(946688571.649997) can0 001#0000000000000000
(946688571.649997) can0 002#D503000000000000
(946688571.669997) can0 001#0000000000000000
(946688571.669997) can0 002#D503000000000000
(946688571.669997) can0 18FF1515#0000000300010000
(946688571.669997) can0 400#0100286527650000
(946688571.669997) can0 401#017F000000000000
(946688571.679997) can0 18FF01EA#0A007D007D007D50
(946688571.679997) can0 18FF02EA#0A007D007D007D50
(946688571.679997) can0 19B50001#8CA0960000000000
(946688571.679997) can0 19B50008#8286840000000000
(946688571.679997) can0 19B50100#9696969696969696
(946688571.679997) can0 19B50800#8484848484848484
(946688571.689997) can0 001#0000000000000000
(946688571.689997) can0 002#D503000000000000
(946688571.699997) can0 18FF1515#0000000300010000
(946688571.699997) can0 400#0000286327680000
(946688571.699997) can0 401#007E000000000000
(946688571.709997) can0 001#0000000000000000
(946688571.709997) can0 002#D503000000000000
(946688571.729997) can0 001#0000000000000000
(946688571.729997) can0 002#D503000000000000
(946688571.729997) can0 18FF1515#0000000300010000
(946688571.729997) can0 400#0001286828630000
(946688571.729997) can0 401#007F000000000000
(946688571.749997) can0 001#0000000000000000
(946688571.749997) can0 002#D503000000000000
(946688571.759997) can0 18FF1515#0000000300010000
(946688571.759997) can0 400#0000276227620000
(946688571.759997) can0 401#007E000000000000
(946688571.769997) can0 001#0000000000000000
(946688571.769997) can0 002#D503000000000000
(946688571.789997) can0 001#0000000000000000
(946688571.789997) can0 002#D503000000000000
(946688571.789997) can0 18FF1515#0000000300010000
(946688571.789997) can0 400#0000286227620000
(946688571.789997) can0 401#007F000000000000
(946688571.789997) can0 18FF01EA#0A007D007D007D50
(946688571.789997) can0 18FF02EA#0A007D007D007D50
(946688571.789997) can0 19B50001#8CA0960000000000
(946688571.789997) can0 19B50008#8286840000000000
(946688571.789997) can0 19B50100#9696969696969696
(946688571.789997) can0 19B50800#8484848484848484
(946688571.809997) can0 001#0000000000000000
(946688571.809997) can0 002#D503000000000000
(946688571.819997) can0 18FF1515#0000000300010000
(946688571.819997) can0 400#0000276028660000
(946688571.819997) can0 401#007F000000000000
(946688571.829997) can0 001#0000000000000000
(946688571.829997) can0 002#D503000000000000
(946688571.849997) can0 001#0000000000000000
(946688571.849997) can0 002#D503000000000000
(946688571.849997) can0 18FF1515#0000000300010000
(946688571.849997) can0 400#00002763275F0000
(946688571.849997) can0 401#007F000000000000
(946688571.869997) can0 001#0000000000000000
(946688571.869997) can0 002#D503000000000000
(946688571.879997) can0 18FF1515#0000000300010000
(946688571.879997) can0 400#0000276127620000
(946688571.879997) can0 401#007E000000000000
(946688571.889997) can0 001#0000000000000000
(946688571.889997) can0 002#D503000000000000
(946688571.899997) can0 18FF01EA#0A007D007D007D50
(946688571.899997) can0 18FF02EA#0A007D007D007D50
(946688571.899997) can0 19B50001#8CA0960000000000
(946688571.899997) can0 19B50008#8286840000000000
(946688571.899997) can0 19B50100#9696969696969696
(946688571.899997) can0 19B50800#8484848484848484
(946688571.909997) can0 001#0000000000000000
(946688571.909997) can0 002#D503000000000000
(946688571.909997) can0 18FF1515#0000000300010000
(946688571.909997) can0 400#0001286028610000
(946688571.909997) can0 401#007F000000000000
(946688571.929997) can0 001#0000000000000000
(946688571.929997) can0 002#D503000000000000
(946688571.939997) can0 18FF1515#0000000300010000
(946688571.939997) can0 400#0000276328630000
(946688571.939997) can0 401#017F000000000000
(946688571.949997) can0 001#0000000000000000
(946688571.949997) can0 002#D503000000000000
(946688571.969997) can0 001#0000000000000000
(946688571.969997) can0 002#D503000000000000
(946688571.969997) can0 18FF1515#0000000300010000
(946688571.969997) can0 400#0000285F27680000
(946688571.969997) can0 401#017E000000000000
(946688571.989997) can0 001#0000000000000000
(946688571.989997) can0 002#D503000000000000
(946688571.999997) can0 18FF1515#0000000300010000
(946688571.999997) can0 400#0000275F28650000
(946688571.999997) can0 401#017F000000000000
(946688572.009997) can0 001#0000000000000000
(946688572.009997) can0 002#D503000000000000
(946688572.009997) can0 18FF01EA#0A007D007D007D50
(946688572.009997) can0 18FF02EA#0A007D007D007D50
(946688572.009997) can0 19B50001#8CA0960000000000
(946688572.009997) can0 19B50008#8286840000000000
(946688572.009997) can0 19B50100#9696969696969696
(946688572.009997) can0 19B50800#8484848484848484
(946688572.019997) can0 18FF1080#0000000000000000
(946688572.019997) can0 18FF1180#0000000000000000
(946688572.019997) can0 18FF1280#0000000000000000
(946688572.019997) can0 18FFE180#0000000000000000
(946688572.019997) can0 18FFE280#0000000000000000
(946688572.029997) can0 001#4D00000000000000
(946688572.029997) can0 002#D503000001000000
(946688572.029997) can0 18FF1515#0000000309010009
(946688572.029997) can0 400#0100276128630000
(946688572.029997) can0 401#007E000000000000
(946688572.049997) can0 001#9400000000000000
(946688572.049997) can0 002#D503000003000000
(946688572.059997) can0 18FF1515#0000000316010016
(946688572.059997) can0 400#00002867285F0000
(946688572.059997) can0 401#007E000000000000
(946688572.069997) can0 001#D300000000000000
(946688572.069997) can0 002#D503000007000000
(946688572.089997) can0 001#0D01000000000000
(946688572.089997) can0 002#D50300000C000000
(946688572.089997) can0 18FF1515#0000000321010021
(946688572.089997) can0 400#0000276128670000
(946688572.089997) can0 401#007E000000000000
(946688572.109997) can0 001#4001000000000000
(946688572.109997) can0 002#D503000013000000
(946688572.119997) can0 18FF1515#000000032B01002B
(946688572.119997) can0 400#0201286427600000
(946688572.119997) can0 401#007E000000000000
(946688572.119997) can0 18FF01EA#0A2C7D027E007D50
(946688572.119997) can0 18FF02EA#0A2C7D027E007D50
(946688572.119997) can0 19B50001#8CA0960000000000
(946688572.119997) can0 19B50008#8286840000000000
(946688572.119997) can0 19B50100#9696969696969696
(946688572.119997) can0 19B50800#8484848484848484
(946688572.129997) can0 001#6F01000000000000
(946688572.129997) can0 002#D50300001A000000
(946688572.149997) can0 001#9901000000000000
(946688572.149997) can0 002#D503000022000000
(946688572.149997) can0 18FF1515#0000000333010033
(946688572.149997) can0 400#0001276328640000
(946688572.149997) can0 401#007F000000000000
(946688572.169997) can0 001#BF01000000000000
(946688572.169997) can0 002#D50300002A000000
(946688572.179997) can0 18FF1515#000000033A01003A
(946688572.179997) can0 400#0204286427620000
(946688572.179997) can0 401#007F000000000000
(946688572.189997) can0 001#E001000000000000
(946688572.189997) can0 002#D503000034000000
(946688572.209997) can0 001#FF01000000000000
(946688572.209997) can0 002#D50300003E000000
(946688572.209997) can0 18FF1515#0000000340010040
(946688572.209997) can0 400#0304276827670000
(946688572.209997) can0 401#007F000000000000
(946688572.229997) can0 001#1A02000000000000
(946688572.229997) can0 002#D503000049000000
(946688572.229997) can0 18FF01EA#0A907D957E007D50
(946688572.229997) can0 18FF02EA#0A907D957E007D50
(946688572.229997) can0 19B50001#8CA0960000000000
(946688572.229997) can0 19B50008#8286840000000000
(946688572.229997) can0 19B50100#9696969696969696
(946688572.229997) can0 19B50800#8484848484848484
(946688572.239997) can0 18FF1515#0000000345010045
(946688572.239997) can0 400#0506276527690000
(946688572.239997) can0 401#007F000000000000
(946688572.249997) can0 001#3302000000000000
(946688572.249997) can0 002#D503000054000000
(946688572.269997) can0 001#4902000000000000
(946688572.269997) can0 002#D50300005F000000
(946688572.269997) can0 18FF1515#0000000349010049
(946688572.269997) can0 400#0506286827660000
(946688572.269997) can0 401#007F000000000000
(946688572.289997) can0 001#5C02000000000000
(946688572.289997) can0 002#D50300006B000000
(946688572.299997) can0 18FF1515#000000034D01004D
(946688572.299997) can0 400#0809276528640000
(946688572.299997) can0 401#007F000000000000
(946688572.309997) can0 001#6D02000000000000
(946688572.309997) can0 002#D503000078000000
(946688572.329997) can0 001#7D02000000000000
(946688572.329997) can0 002#D503000084000000
(946688572.329997) can0 18FF1515#0000000350010050
(946688572.329997) can0 400#090B286327670000
(946688572.329997) can0 401#007F000000000000
(946688572.339997) can0 18FF01EA#0A137EE97E007D50
(946688572.339997) can0 18FF02EA#0A137EE97E007D50
(946688572.339997) can0 19B50001#8CA0960000000000
(946688572.339997) can0 19B50008#8286840000000000
(946688572.339997) can0 19B50100#9696969696969696
(946688572.339997) can0 19B50800#8484848484848484
(946688572.349997) can0 001#8B02000000000000
(946688572.349997) can0 002#D503000091000000
(946688572.359997) can0 18FF1515#0000000353010053
(946688572.359997) can0 400#0908276227660000
(946688572.359997) can0 401#007F000000000000
(946688572.369997) can0 001#9702000000000000
(946688572.369997) can0 002#D50300009E000000
(946688572.389997) can0 001#A102000000000000
(946688572.389997) can0 002#D5030000AC000000
(946688572.389997) can0 18FF1515#0000000355010055
(946688572.389997) can0 400#0B0D276427650000
(946688572.389997) can0 401#017E000000000000
(946688572.409997) can0 001#AA02000000000000
(946688572.409997) can0 002#D5030000B9000000
(946688572.419997) can0 18FF1515#0000000357010057
(946688572.419997) can0 400#0D0F2769276A0000
(946688572.419997) can0 401#017E000000000000
(946688572.429997) can0 001#B202000000000000
(946688572.429997) can0 002#D5030000C7000000
(946688572.449997) can0 001#B902000000000000
(946688572.449997) can0 002#D5030000D5000000
(946688572.449997) can0 18FF1515#0000000359010059
(946688572.449997) can0 400#0F0F286927670000
(946688572.449997) can0 401#007F000000000000
(946688572.449997) can0 18FF01EA#0AA77E197F007D50
(946688572.449997) can0 18FF02EA#0AA77E197F007D50
(946688572.449997) can0 19B50001#8CA0960000000000
(946688572.449997) can0 19B50008#8286840000000000
(946688572.449997) can0 19B50100#9696969696969696
(946688572.449997) can0 19B50800#8484848484848484
(946688572.469997) can0 001#BF02000000000000
(946688572.469997) can0 002#D5030000E3000000
(946688572.479997) can0 18FF1515#000000035B01005B
(946688572.479997) can0 400#10122869276A0000
(946688572.479997) can0 401#007E000000000000
(946688572.489997) can0 001#C402000000000000
(946688572.489997) can0 002#D5030000F1000000
(946688572.509997) can0 001#C802000000000000
(946688572.509997) can0 002#D503000000010000
(946688572.509997) can0 18FF1515#000000035C01005C
(946688572.509997) can0 400#1213286A27640000
(946688572.509997) can0 401#007F000000000000
(946688572.529997) can0 001#CB02000000000000
(946688572.529997) can0 002#D50300000E010000
(946688572.539997) can0 18FF1515#000000035D01005D
(946688572.539997) can0 400#1312276D27680000
(946688572.539997) can0 401#007F000000000000
(946688572.549997) can0 001#CE02000000000000
(946688572.549997) can0 002#D50300001C010000
(946688572.559997) can0 18FF01EA#0A427F347F007D50
(946688572.559997) can0 18FF02EA#0A427F347F007D50
(946688572.559997) can0 19B50001#8CA0960000000000
(946688572.559997) can0 19B50008#8286840000000000
(946688572.559997) can0 19B50100#9696969696969696
(946688572.559997) can0 19B50800#8484848484848484
(946688572.569997) can0 001#D002000000000000
(946688572.569997) can0 002#D50300002B010000
(946688572.569997) can0 18FF1515#000000035E01005E
(946688572.569997) can0 400#13172766286B0000
(946688572.569997) can0 401#007F000000000000
(946688572.589997) can0 001#D102000000000000
(946688572.589997) can0 002#D503000039010000
(946688572.599997) can0 18FF1515#000000035F01005F
(946688572.599997) can0 400#1616286528650000
(946688572.599997) can0 401#007F000000000000
(946688572.609997) can0 001#D202000000000000
(946688572.609997) can0 002#D503000048010000
(946688572.629997) can0 001#D202000000000000
(946688572.629997) can0 002#D503000056010000
(946688572.629997) can0 18FF1515#000000035F01005F
(946688572.629997) can0 400#17162867286A0000
(946688572.629997) can0 401#007E000000000000
(946688572.629997) can0 18FF1080#0000000000000000
(946688572.629997) can0 18FF1180#0000000000000000
(946688572.629997) can0 18FF1280#0000000000000000
(946688572.629997) can0 18FFE180#0000000000000000
(946688572.629997) can0 18FFE280#0000000000000000
(946688572.649997) can0 001#D202000000000000
(946688572.649997) can0 002#D503000064010000
(946688572.659997) can0 18FF1515#0000000360010060
(946688572.659997) can0 400#1B1A286A276B0000
(946688572.659997) can0 401#007F000000000000
(946688572.669997) can0 001#D102000000000000
(946688572.669997) can0 002#D503000073010000
(946688572.669997) can0 18FF01EA#0ADF7F437F007D50
(946688572.669997) can0 18FF02EA#0ADF7F437F007D50
(946688572.669997) can0 19B50001#8CA0960000000000
(946688572.669997) can0 19B50008#8286840000000000
(946688572.669997) can0 19B50100#9696969696969696
(946688572.669997) can0 19B50800#8484848484848484
(946688572.689996) can0 001#D002000000000000
(946688572.689996) can0 002#D503000081010000
(946688572.689996) can0 18FF1515#0000000360010060
(946688572.689996) can0 400#191C2869276D0000
(946688572.689996) can0 401#007F000000000000
(946688572.709996) can0 001#CF02000000000000
(946688572.709996) can0 002#D503000090010000
(946688572.719996) can0 18FF1515#0000000361010061
(946688572.719996) can0 400#1D1E276D28660000
(946688572.719996) can0 401#007E000000000000
(946688572.729996) can0 001#CD02000000000000
(946688572.729996) can0 002#D50300009E010000
(946688572.749996) can0 001#CB02000000000000
(946688572.749996) can0 002#D5030000AC010000
(946688572.749996) can0 18FF1515#0000000361010061
(946688572.749996) can0 400#1D1F2767286E0000
(946688572.749996) can0 401#007E000000000000
(946688572.769996) can0 001#C802000000000000
(946688572.769996) can0 002#D5030000BB010000
(946688572.779996) can0 18FF1515#0000000362010062
(946688572.779996) can0 400#211E276B286B0000
(946688572.779996) can0 401#007E000000000000
(946688572.779996) can0 18FF01EA#0A7B804C7F007D50
(946688572.779996) can0 18FF02EA#0A7B804C7F007D50
(946688572.779996) can0 19B50001#8CA0960000000000
(946688572.779996) can0 19B50008#8286840000000000
(946688572.779996) can0 19B50100#9696969696969696
(946688572.779996) can0 19B50800#8484848484848484
(946688572.789996) can0 001#C602000000000000
(946688572.789996) can0 002#D5030000C9010000
(946688572.809996) can0 001#C302000000000000
(946688572.809996) can0 002#D5030000D7010000
(946688572.809996) can0 18FF1515#0000000362010062
(946688572.809996) can0 400#2121286D276A0000
(946688572.809996) can0 401#007F000000000000
(946688572.829996) can0 001#C002000000000000
(946688572.829996) can0 002#D5030000E5010000
(946688572.839996) can0 18FF1515#0000000362010062
(946688572.839996) can0 400#2224286827690000
(946688572.839996) can0 401#007E000000000000
(946688572.849996) can0 001#BC02000000000000
(946688572.849996) can0 002#D5030000F3010000
(946688572.869996) can0 001#B902000000000000
(946688572.869996) can0 002#D503000001020000
(946688572.869996) can0 18FF1515#0000000362010062
(946688572.869996) can0 400#2625296D276A0000
(946688572.869996) can0 401#007F000000000000
(946688572.889996) can0 001#B502000000000000
(946688572.889996) can0 002#D50300000F020000
(946688572.889996) can0 18FF01EA#0A1481517F007D50
(946688572.889996) can0 18FF02EA#0A1481517F007D50
(946688572.889996) can0 19B50001#8CA0960000000000
(946688572.889996) can0 19B50008#8286840000000000
(946688572.889996) can0 19B50100#9696969696969696
(946688572.889996) can0 19B50800#8484848484848484
(946688572.899996) can0 18FF1515#0000000362010062
(946688572.899996) can0 400#2627286B286D0000
(946688572.899996) can0 401#007E000000000000
(946688572.909996) can0 001#B102000000000000
(946688572.909996) can0 002#D50300001D020000
(946688572.929996) can0 001#AD02000000000000
(946688572.929996) can0 002#D50300002B020000
(946688572.929996) can0 18FF1515#0000000363010063
(946688572.929996) can0 400#2827286E276A0000
(946688572.929996) can0 401#007F000000000000
(946688572.949996) can0 001#A902000000000000
(946688572.949996) can0 002#D503000038020000
(946688572.959996) can0 18FF1515#0000000363010063
(946688572.959996) can0 400#2828287128690000
(946688572.959996) can0 401#007E000000000000
(946688572.969996) can0 001#A502000000000000
(946688572.969996) can0 002#D503000046020000
(946688572.989996) can0 001#A002000000000000
(946688572.989996) can0 002#D503000053020000
(946688572.989996) can0 18FF1515#0000000363010063
(946688572.989996) can0 400#2C28286D276C0000
(946688572.989996) can0 401#007E000000000000
(946688572.999996) can0 18FF01EA#0AA881547F007D50
(946688572.999996) can0 18FF02EA#0AA881547F007D50
(946688572.999996) can0 19B50001#8CA0960000000000
(946688572.999996) can0 19B50008#8286840000000000
(946688572.999996) can0 19B50100#9696969696969696
(946688572.999996) can0 19B50800#8484848484848484
(946688573.009996) can0 001#9C02000000000000
(946688573.009996) can0 002#D503000061020000
(946688573.009996) can0 18FF1515#0000000363010063
(946688573.009996) can0 400#2C2D286C28720000
(946688573.009996) can0 401#007F000000000000
(946688573.029996) can0 001#9702000000000000
(946688573.029996) can0 002#D50300006E020000
(946688573.039996) can0 18FF1515#0000000363010063
(946688573.039996) can0 400#2B2B286C286D0000
(946688573.039996) can0 401#007F000000000000
(946688573.049996) can0 001#9202000000000000
(946688573.049996) can0 002#D50300007B020000
(946688573.069996) can0 001#8D02000000000000
(946688573.069996) can0 002#D503000088020000
(946688573.069996) can0 18FF1515#0000000363010063
(946688573.069996) can0 400#2E30286C276F0000
(946688573.069996) can0 401#007E000000000000
(946688573.089996) can0 001#8902000000000000
(946688573.089996) can0 002#D503000095020000
(946688573.099996) can0 18FF1515#0000000363010063
(946688573.099996) can0 400#3031287328700000
(946688573.099996) can0 401#007E000000000000
(946688573.109996) can0 001#8402000000000000
(946688573.109996) can0 002#D5030000A2020000
(946688573.109996) can0 18FF01EA#0A3782557F007D50
(946688573.109996) can0 18FF02EA#0A3782557F007D50
(946688573.109996) can0 19B50001#8CA0960000000000
(946688573.109996) can0 19B50008#8286840000000000
(946688573.109996) can0 19B50100#9696969696969696
(946688573.109996) can0 19B50800#8484848484848484
(946688573.129996) can0 001#7E02000000000000
(946688573.129996) can0 002#D5030000AF020000
(946688573.129996) can0 18FF1515#0000000363010063
(946688573.129996) can0 400#3132277528710000
(946688573.129996) can0 401#007E000000000000
(946688573.149996) can0 001#7902000000000000
(946688573.149996) can0 002#D5030000BC020000
(946688573.159996) can0 18FF1515#0000000363010063
(946688573.159996) can0 400#3334277427740000
(946688573.159996) can0 401#007E000000000000
(946688573.169996) can0 001#7402000000000000
(946688573.169996) can0 002#D5030000C8020000
(946688573.189996) can0 001#6F02000000000000
(946688573.189996) can0 002#D5030000D5020000
(946688573.189996) can0 18FF1515#0000000363010063
(946688573.189996) can0 400#3233277528720000
(946688573.189996) can0 401#007F000000000000
(946688573.209996) can0 001#6A02000000000000
(946688573.209996) can0 002#D5030000E1020000
(946688573.219996) can0 18FF1515#0000000363010063
(946688573.219996) can0 400#37342771286E0000
(946688573.219996) can0 401#007E000000000000
(946688573.219996) can0 18FF01EA#0AC082567F007D50
(946688573.219996) can0 18FF02EA#0AC082567F007D50
(946688573.219996) can0 19B50001#8CA0960000000000
(946688573.219996) can0 19B50008#8286840000000000
(946688573.219996) can0 19B50100#9696969696969696
(946688573.219996) can0 19B50800#8484848484848484
(946688573.229996) can0 001#6402000000000000
(946688573.229996) can0 002#D5030000ED020000
(946688573.239996) can0 18FF1080#0000000000000000
(946688573.239996) can0 18FF1180#0000000000000000
(946688573.239996) can0 18FF1280#0000000000000000
(946688573.239996) can0 18FFE180#0000000000000000
(946688573.239996) can0 18FFE280#0000000000000000
(946688573.249996) can0 001#5F02000000000000
(946688573.249996) can0 002#D5030000FA020000
(946688573.249996) can0 18FF1515#0000000363010063
(946688573.249996) can0 400#3734297228730000
(946688573.249996) can0 401#007F000000000000
(946688573.269996) can0 001#5902000000000000
(946688573.269996) can0 002#D503000006030000
(946688573.279996) can0 18FF1515#0000000363010063
(946688573.279996) can0 400#3737287428750000
(946688573.279996) can0 401#007E000000000000
(946688573.289996) can0 001#5402000000000000
(946688573.289996) can0 002#D503000012030000
(946688573.309996) can0 001#4F02000000000000
(946688573.309996) can0 002#D50300001D030000
(946688573.309996) can0 18FF1515#0000000363010063
(946688573.309996) can0 400#3738277728750000
(946688573.309996) can0 401#017E000000000000
(946688573.329996) can0 001#4902000000000000
(946688573.329996) can0 002#D503000029030000
(946688573.329996) can0 18FF01EA#0A4383577F007D50
(946688573.329996) can0 18FF02EA#0A4383577F007D50
(946688573.329996) can0 19B50001#8CA0960000000000
(946688573.329996) can0 19B50008#8286840000000000
(946688573.329996) can0 19B50100#9696969696969696
(946688573.329996) can0 19B50800#8484848484848484
(946688573.339996) can0 18FF1515#0000000363010063
(946688573.339996) can0 400#3C3A277528710000
(946688573.339996) can0 401#007E000000000000
(946688573.349996) can0 001#4302000000000000
(946688573.349996) can0 002#D503000035030000
(946688573.369996) can0 001#3E02000000000000
(946688573.369996) can0 002#D503000040030000
(946688573.369996) can0 18FF1515#0000000363010063
(946688573.369996) can0 400#3D3C277027730000
(946688573.369996) can0 401#007E000000000000
(946688573.389996) can0 001#3802000000000000
(946688573.389996) can0 002#D50300004C030000
(946688573.399996) can0 18FF1515#0000000363010063
(946688573.399996) can0 400#3C3B277628700000
(946688573.399996) can0 401#007F000000000000
(946688573.409996) can0 001#3302000000000000
(946688573.409996) can0 002#D503000057030000
(946688573.429996) can0 001#2D02000000000000
(946688573.429996) can0 002#D503000062030000
(946688573.429996) can0 18FF1515#0000000363010063
(946688573.429996) can0 400#3C3E277228700000
(946688573.429996) can0 401#017F000000000000
(946688573.439996) can0 18FF01EA#0ABE83577F007D50
(946688573.439996) can0 18FF02EA#0ABE83577F007D50
(946688573.439996) can0 19B50001#8CA0960000000000
(946688573.439996) can0 19B50008#8286840000000000
(946688573.439996) can0 19B50100#9696969696969696
(946688573.439996) can0 19B50800#8484848484848484
(946688573.449996) can0 001#2802000000000000
(946688573.449996) can0 002#D50300006D030000
(946688573.459996) can0 18FF1515#0000000363010063
(946688573.459996) can0 400#3F3F297227730000
(946688573.459996) can0 401#017F000000000000
(946688573.469996) can0 001#2202000000000000
(946688573.469996) can0 002#D503000078030000
(946688573.489996) can0 001#1C02000000000000
(946688573.489996) can0 002#D503000083030000
(946688573.489996) can0 18FF1515#0000000363010063
(946688573.489996) can0 400#3F40287428750000
(946688573.489996) can0 401#007E000000000000
(946688573.509996) can0 001#1702000000000000
(946688573.509996) can0 002#D50300008E030000
(946688573.519996) can0 18FF1515#0000000363010063
(946688573.519996) can0 400#4140277628790000
(946688573.519996) can0 401#007F000000000000
(946688573.529996) can0 001#1102000000000000
(946688573.529996) can0 002#D503000098030000
(946688573.549996) can0 001#0C02000000000000
(946688573.549996) can0 002#D5030000A3030000
(946688573.549996) can0 18FF1515#0000000363010063
(946688573.549996) can0 400#4444287129750000
(946688573.549996) can0 401#007F000000000000
(946688573.549996) can0 18FF01EA#0A3484577F007D50
(946688573.549996) can0 18FF02EA#0A3484577F007D50
(946688573.549996) can0 19B50001#8CA0960000000000
(946688573.549996) can0 19B50008#8286840000000000
(946688573.549996) can0 19B50100#9696969696969696
(946688573.549996) can0 19B50800#8484848484848484
(946688573.569996) can0 001#0602000000000000
(946688573.569996) can0 002#D5030000AD030000
(946688573.579996) can0 18FF1515#0000000363010063
(946688573.579996) can0 400#4343287128720000
(946688573.579996) can0 401#007E000000000000
(946688573.589996) can0 001#0002000000000000
(946688573.589996) can0 002#D5030000B8030000
(946688573.609996) can0 001#FB01000000000000
(946688573.609996) can0 002#D5030000C2030000
(946688573.609996) can0 18FF1515#0000000363010063
(946688573.609996) can0 400#4443277027730000
(946688573.609996) can0 401#007E000000000000
(946688573.629996) can0 001#F501000000000000
(946688573.629996) can0 002#D5030000CC030000
(946688573.639996) can0 18FF1515#0000000363010063
(946688573.639996) can0 400#4546287628770000
(946688573.639996) can0 401#007F000000000000
(946688573.649996) can0 001#F001000000000000
(946688573.649996) can0 002#D5030000D6030000
(946688573.659996) can0 18FF01EA#0AA284577F007D50
(946688573.659996) can0 18FF02EA#0AA284577F007D50
(946688573.659996) can0 19B50001#8CA0960000000000
(946688573.659996) can0 19B50008#8286840000000000
(946688573.659996) can0 19B50100#9696969696969696
(946688573.659996) can0 19B50800#8484848484848484
(946688573.669996) can0 001#EA01000000000000
(946688573.669996) can0 002#D5030000E0030000
(946688573.669996) can0 18FF1515#0000000363010063
(946688573.669996) can0 400#4846297727760000
(946688573.669996) can0 401#007E000000000000
(946688573.689996) can0 001#E501000000000000
(946688573.689996) can0 002#D5030000E9030000
(946688573.699996) can0 18FF1515#0000000363010063
(946688573.699996) can0 400#4749287827750000
(946688573.699996) can0 401#017F000000000000
(946688573.709996) can0 001#DF01000000000000
(946688573.709996) can0 002#D5030000F3030000
(946688573.729995) can0 001#DA01000000000000
(946688573.729995) can0 002#D5030000FC030000
(946688573.729995) can0 18FF1515#0000000363010063
(946688573.729995) can0 400#4A49287927770000
(946688573.729995) can0 401#007E000000000000
(946688573.749995) can0 001#D401000000000000
(946688573.749995) can0 002#D503000006040000
(946688573.759995) can0 18FF1515#0000000363010063
(946688573.759995) can0 400#4C4A277927720000
(946688573.759995) can0 401#007E000000000000
(946688573.769995) can0 001#CF01000000000000
(946688573.769995) can0 002#D50300000F040000
(946688573.769995) can0 18FF01EA#0A0A85577F007D50
(946688573.769995) can0 18FF02EA#0A0A85577F007D50
(946688573.769995) can0 19B50001#8CA0960000000000
(946688573.769995) can0 19B50008#8286840000000000
(946688573.769995) can0 19B50100#9696969696969696
(946688573.769995) can0 19B50800#8484848484848484
(946688573.789995) can0 001#C901000000000000
(946688573.789995) can0 002#D503000018040000
(946688573.789995) can0 18FF1515#0000000363010063
(946688573.789995) can0 400#4C4C2871287A0000
(946688573.789995) can0 401#007E000000000000
(946688573.809995) can0 001#C401000000000000
(946688573.809995) can0 002#D503000021040000
(946688573.819995) can0 18FF1515#0000000363010063
(946688573.819995) can0 400#4E4D277528770000
(946688573.819995) can0 401#007E000000000000
(946688573.829995) can0 001#BF01000000000000
(946688573.829995) can0 002#D50300002A040000
(946688573.849995) can0 001#B901000000000000
(946688573.849995) can0 002#D503000033040000
(946688573.849995) can0 18FF1515#0000000363010063
(946688573.849995) can0 400#4D4D287427730000
(946688573.849995) can0 401#007F000000000000
(946688573.849995) can0 18FF1080#0000000000000000
(946688573.849995) can0 18FF1180#0000000000000000
(946688573.849995) can0 18FF1280#0000000000000000
(946688573.849995) can0 18FFE180#0000000000000000
(946688573.849995) can0 18FFE280#0000000000000000
(946688573.869995) can0 001#B401000000000000
(946688573.869995) can0 002#D50300003C040000
(946688573.879995) can0 18FF1515#0000000363010063
(946688573.879995) can0 400#4C4C287627760000
(946688573.879995) can0 401#007F000000000000
(946688573.879995) can0 18FF01EA#0A6B85577F007D50
(946688573.879995) can0 18FF02EA#0A6B85577F007D50
(946688573.879995) can0 19B50001#8CA0960000000000
(946688573.879995) can0 19B50008#8286840000000000
(946688573.879995) can0 19B50100#9696969696969696
(946688573.879995) can0 19B50800#8484848484848484
(946688573.889995) can0 001#AF01000000000000
(946688573.889995) can0 002#D503000045040000
(946688573.909995) can0 001#A901000000000000
(946688573.909995) can0 002#D50300004D040000
(946688573.909995) can0 18FF1515#0000000363010063
(946688573.909995) can0 400#5150287327750000
(946688573.909995) can0 401#007F000000000000
(946688573.929995) can0 001#A401000000000000
(946688573.929995) can0 002#D503000056040000
(946688573.939995) can0 18FF1515#0000000363010063
(946688573.939995) can0 400#5152297628740000
(946688573.939995) can0 401#007F000000000000
(946688573.949995) can0 001#9F01000000000000
(946688573.949995) can0 002#D50300005E040000
(946688573.969995) can0 001#9A01000000000000
(946688573.969995) can0 002#D503000066040000
(946688573.969995) can0 18FF1515#0000000363010063
(946688573.969995) can0 400#51512778297D0000
(946688573.969995) can0 401#007E000000000000
(946688573.989995) can0 001#9501000000000000
(946688573.989995) can0 002#D50300006E040000
(946688573.989995) can0 18FF01EA#0AC685577F007D50
(946688573.989995) can0 18FF02EA#0AC685577F007D50
(946688573.989995) can0 19B50001#8CA0960000000000
(946688573.989995) can0 19B50008#8286840000000000
(946688573.989995) can0 19B50100#9696969696969696
(946688573.989995) can0 19B50800#8484848484848484
(946688573.999995) can0 18FF1515#0000000363010063
(946688573.999995) can0 400#5252287327730000
(946688573.999995) can0 401#007E000000000000
(946688574.009995) can0 001#9001000000000000
(946688574.009995) can0 002#D503000076040000
(946688574.029995) can0 001#8B01000000000000
(946688574.029995) can0 002#D50300007E040000
(946688574.029995) can0 18FF1515#0000000363010063
(946688574.029995) can0 400#5250297C28740000
(946688574.029995) can0 401#017F000000000000
(946688574.049995) can0 001#8501000000000000
(946688574.049995) can0 002#D503000086040000
(946688574.059995) can0 18FF1515#0000000363010063
(946688574.059995) can0 400#5454287C27770000
(946688574.059995) can0 401#017F000000000000
(946688574.069995) can0 001#8101000000000000
(946688574.069995) can0 002#D50300008E040000
(946688574.089995) can0 001#7C01000000000000
(946688574.089995) can0 002#D503000095040000
(946688574.089995) can0 18FF1515#0000000363010063
(946688574.089995) can0 400#5554287C28770000
(946688574.089995) can0 401#007E000000000000
(946688574.099995) can0 18FF01EA#0A1B86577F007D50
(946688574.099995) can0 18FF02EA#0A1B86577F007D50
(946688574.099995) can0 19B50001#8CA0960000000000
(946688574.099995) can0 19B50008#8286840000000000
(946688574.099995) can0 19B50100#9696969696969696
(946688574.099995) can0 19B50800#8484848484848484
(946688574.109995) can0 001#7701000000000000
(946688574.109995) can0 002#D50300009D040000
(946688574.119995) can0 18FF1515#0000000363010063
(946688574.119995) can0 400#5354277C28770000
(946688574.119995) can0 401#007F000000000000
(946688574.129995) can0 001#7201000000000000
(946688574.129995) can0 002#D5030000A4040000
(946688574.149995) can0 001#6D01000000000000
(946688574.149995) can0 002#D5030000AC040000
(946688574.149995) can0 18FF1515#0000000363010063
(946688574.149995) can0 400#5657277828760000
(946688574.149995) can0 401#007F000000000000
(946688574.169995) can0 001#6801000000000000
(946688574.169995) can0 002#D5030000B3040000
(946688574.179995) can0 18FF1515#0000000363010063
(946688574.179995) can0 400#5655277627740000
(946688574.179995) can0 401#007F000000000000
(946688574.189995) can0 001#6301000000000000
(946688574.189995) can0 002#D5030000BA040000
(946688574.209995) can0 001#5F01000000000000
(946688574.209995) can0 002#D5030000C1040000
(946688574.209995) can0 18FF1515#0000000363010063
(946688574.209995) can0 400#5656277D27750000
(946688574.209995) can0 401#007F000000000000
(946688574.209995) can0 18FF01EA#0A6A86577F007D50
(946688574.209995) can0 18FF02EA#0A6A86577F007D50
(946688574.209995) can0 19B50001#8CA0960000000000
(946688574.209995) can0 19B50008#8286840000000000
(946688574.209995) can0 19B50100#9696969696969696
(946688574.209995) can0 19B50800#8484848484848484
(946688574.229995) can0 001#5A01000000000000
(946688574.229995) can0 002#D5030000C8040000
(946688574.239995) can0 18FF1515#0000000363010063
(946688574.239995) can0 400#5958277528760000
(946688574.239995) can0 401#007F000000000000
(946688574.249995) can0 001#5501000000000000
(946688574.249995) can0 002#D5030000CF040000
(946688574.269995) can0 001#5101000000000000
(946688574.269995) can0 002#D5030000D6040000
(946688574.269995) can0 18FF1515#0000000363010063
(946688574.269995) can0 400#585A297C297D0000
(946688574.269995) can0 401#007E000000000000
(946688574.289995) can0 001#4C01000000000000
(946688574.289995) can0 002#D5030000DC040000
(946688574.299995) can0 18FF1515#0000000363010063
(946688574.299995) can0 400#5A5A2779287E0000
(946688574.299995) can0 401#007E000000000000
(946688574.309995) can0 001#4801000000000000
(946688574.309995) can0 002#D5030000E3040000
(946688574.319995) can0 18FF01EA#0AB486577F007D50
(946688574.319995) can0 18FF02EA#0AB486577F007D50
(946688574.319995) can0 19B50001#8CA0960000000000
(946688574.319995) can0 19B50008#8286840000000000
(946688574.319995) can0 19B50100#9696969696969696
(946688574.319995) can0 19B50800#8484848484848484
(946688574.329995) can0 001#4301000000000000
(946688574.329995) can0 002#D5030000EA040000
(946688574.329995) can0 18FF1515#0000000363010063
(946688574.329995) can0 400#5B5B287928790000
(946688574.329995) can0 401#007E000000000000
(946688574.349995) can0 001#3F01000000000000
(946688574.349995) can0 002#D5030000F0040000
(946688574.359995) can0 18FF1515#0000000363010063
(946688574.359995) can0 400#5B592879297E0000
(946688574.359995) can0 401#007F000000000000
(946688574.369995) can0 001#3B01000000000000
(946688574.369995) can0 002#D5030000F6040000
(946688574.389995) can0 001#3601000000000000
(946688574.389995) can0 002#D5030000FC040000
(946688574.389995) can0 18FF1515#0000000363010063
(946688574.389995) can0 400#5A5C2977287F0000
(946688574.389995) can0 401#007F000000000000
(946688574.409995) can0 001#3201000000000000
(946688574.409995) can0 002#D503000003050000
(946688574.419995) can0 18FF1515#0000000363010063
(946688574.419995) can0 400#5C5D277E297D0000
(946688574.419995) can0 401#007E000000000000
(946688574.429995) can0 001#2E01000000000000
(946688574.429995) can0 002#D503000009050000
(946688574.429995) can0 18FF01EA#0AF886577F007D50
(946688574.429995) can0 18FF02EA#0AF886577F007D50
(946688574.429995) can0 19B50001#8CA0960000000000
(946688574.429995) can0 19B50008#8286840000000000
(946688574.429995) can0 19B50100#9696969696969696
(946688574.429995) can0 19B50800#8484848484848484
(946688574.449995) can0 001#2901000000000000
(946688574.449995) can0 002#D50300000F050000
(946688574.449995) can0 18FF1515#0000000363010063
(946688574.449995) can0 400#5C5F2877287E0000
(946688574.449995) can0 401#007F000000000000
(946688574.459995) can0 18FF1080#0000000000000000
(946688574.459995) can0 18FF1180#0000000000000000
(946688574.459995) can0 18FF1280#0000000000000000
(946688574.459995) can0 18FFE180#0000000000000000
(946688574.459995) can0 18FFE280#0000000000000000
(946688574.469995) can0 001#2501000000000000
(946688574.469995) can0 002#D503000015050000
(946688574.479995) can0 18FF1515#0000000363010063
(946688574.479995) can0 400#5D5F287D297C0000
(946688574.479995) can0 401#007E000000000000
(946688574.489995) can0 001#2101000000000000
(946688574.489995) can0 002#D50300001A050000
(946688574.509995) can0 001#1D01000000000000
(946688574.509995) can0 002#D503000020050000
(946688574.509995) can0 18FF1515#0000000363010063
(946688574.509995) can0 400#5F60287A287C0000
(946688574.509995) can0 401#007F000000000000
(946688574.529995) can0 001#1901000000000000
(946688574.529995) can0 002#D503000026050000
(946688574.539995) can0 18FF1515#0000000363010063
(946688574.539995) can0 400#5D5F2780287E0000
(946688574.539995) can0 401#007E000000000000
(946688574.539995) can0 18FF01EA#0A3787577F007D50
(946688574.539995) can0 18FF02EA#0A3787577F007D50
(946688574.539995) can0 19B50001#8CA0960000000000
(946688574.539995) can0 19B50008#8286840000000000
(946688574.539995) can0 19B50100#9696969696969696
(946688574.539995) can0 19B50800#8484848484848484
(946688574.549995) can0 001#1501000000000000
(946688574.549995) can0 002#D50300002B050000
(946688574.569995) can0 001#1101000000000000
(946688574.569995) can0 002#D503000031050000
(946688574.569995) can0 18FF1515#0000000363010063
(946688574.569995) can0 400#5E5E2780277C0000
(946688574.569995) can0 401#007E000000000000
(946688574.589995) can0 001#0D01000000000000
(946688574.589995) can0 002#D503000036050000
(946688574.599995) can0 18FF1515#0000000363010063
(946688574.599995) can0 400#5E62287B27780000
(946688574.599995) can0 401#007F000000000000
(946688574.609995) can0 001#0901000000000000
(946688574.609995) can0 002#D50300003C050000
(946688574.629995) can0 001#0601000000000000
(946688574.629995) can0 002#D503000041050000
(946688574.629995) can0 18FF1515#0000000363010063
(946688574.629995) can0 400#62612879277F0000
(946688574.629995) can0 401#017E000000000000
(946688574.649995) can0 001#0201000000000000
(946688574.649995) can0 002#D503000046050000
(946688574.649995) can0 18FF01EA#0A7287577F007D50
(946688574.649995) can0 18FF02EA#0A7287577F007D50
(946688574.649995) can0 19B50001#8CA0960000000000
(946688574.649995) can0 19B50008#8286840000000000
(946688574.649995) can0 19B50100#9696969696969696
(946688574.649995) can0 19B50800#8484848484848484
(946688574.659995) can0 18FF1515#0000000363010063
(946688574.659995) can0 400#6261287828770000
(946688574.659995) can0 401#007E000000000000
(946688574.669995) can0 001#FE00000000000000
(946688574.669995) can0 002#D50300004B050000
(946688574.689995) can0 001#FA00000000000000
(946688574.689995) can0 002#D503000050050000
(946688574.689995) can0 18FF1515#0000000363010063
(946688574.689995) can0 400#6261277B287D0000
(946688574.689995) can0 401#007E000000000000
(946688574.709995) can0 001#F700000000000000
(946688574.709995) can0 002#D503000055050000
(946688574.719995) can0 18FF1515#0000000363010063
(946688574.719995) can0 400#62642977277A0000
(946688574.719995) can0 401#017E000000000000
(946688574.729995) can0 001#F300000000000000
(946688574.729995) can0 002#D50300005A050000
(946688574.749995) can0 001#F000000000000000
(946688574.749995) can0 002#D50300005F050000
(946688574.749995) can0 18FF1515#0000000363010063
(946688574.749995) can0 400#6361298028790000
(946688574.749995) can0 401#007F000000000000
(946688574.759995) can0 18FF01EA#0AA787577F007D50
(946688574.759995) can0 18FF02EA#0AA787577F007D50
(946688574.759995) can0 19B50001#8CA0960000000000
(946688574.759995) can0 19B50008#8286840000000000
(946688574.759995) can0 19B50100#9696969696969696
(946688574.759995) can0 19B50800#8484848484848484
(946688574.769994) can0 001#EC00000000000000
(946688574.769994) can0 002#D503000064050000
(946688574.779994) can0 18FF1515#0000000363010063
(946688574.779994) can0 400#6462287927780000
(946688574.779994) can0 401#007F000000000000
(946688574.789994) can0 001#E900000000000000
(946688574.789994) can0 002#D503000068050000
(946688574.809994) can0 001#E500000000000000
(946688574.809994) can0 002#D50300006D050000
(946688574.809994) can0 18FF1515#0000000363010063
(946688574.809994) can0 400#63622779297A0000
(946688574.809994) can0 401#007F000000000000
(946688574.829994) can0 001#E200000000000000
(946688574.829994) can0 002#D503000071050000
(946688574.839994) can0 18FF1515#0000000363010063
(946688574.839994) can0 400#6563287E287D0000
(946688574.839994) can0 401#007F000000000000
(946688574.849994) can0 001#DE00000000000000
(946688574.849994) can0 002#D503000076050000
(946688574.869994) can0 001#DB00000000000000
(946688574.869994) can0 002#D50300007A050000
(946688574.869994) can0 18FF1515#0000000363010063
(946688574.869994) can0 400#65632880287E0000
(946688574.869994) can0 401#007F000000000000
(946688574.869994) can0 18FF01EA#0AD987577F007D50
(946688574.869994) can0 18FF02EA#0AD987577F007D50
(946688574.869994) can0 19B50001#8CA0960000000000
(946688574.869994) can0 19B50008#8286840000000000
(946688574.869994) can0 19B50100#9696969696969696
(946688574.869994) can0 19B50800#8484848484848484
(946688574.889994) can0 001#D800000000000000
(946688574.889994) can0 002#D50300007F050000
(946688574.899994) can0 18FF1515#0000000363010063
(946688574.899994) can0 400#6564278228780000
(946688574.899994) can0 401#007F000000000000
(946688574.909994) can0 001#D500000000000000
(946688574.909994) can0 002#D503000083050000
(946688574.929994) can0 001#D100000000000000
(946688574.929994) can0 002#D503000087050000
(946688574.929994) can0 18FF1515#0000000363010063
(946688574.929994) can0 400#6466297C287F0000
(946688574.929994) can0 401#007E000000000000
(946688574.949994) can0 001#CE00000000000000
(946688574.949994) can0 002#D50300008B050000
(946688574.959994) can0 18FF1515#0000000363010063
(946688574.959994) can0 400#65672781287F0000
(946688574.959994) can0 401#007E000000000000
(946688574.969994) can0 001#CB00000000000000
(946688574.969994) can0 002#D50300008F050000
(946688574.979994) can0 18FF01EA#0A0788577F007D50
(946688574.979994) can0 18FF02EA#0A0788577F007D50
(946688574.979994) can0 19B50001#8CA0960000000000
(946688574.979994) can0 19B50008#8286840000000000
(946688574.979994) can0 19B50100#9696969696969696
(946688574.979994) can0 19B50800#8484848484848484
(946688574.989994) can0 001#C800000000000000
(946688574.989994) can0 002#D503000093050000
(946688574.989994) can0 18FF1515#0000000363010063
(946688574.989994) can0 400#6567277A27790000
(946688574.989994) can0 401#017E000000000000
(946688575.009994) can0 001#C500000000000000
(946688575.009994) can0 002#D503000097050000
(946688575.019994) can0 18FF1515#0000000363010063
(946688575.019994) can0 400#6768288227820000
(946688575.019994) can0 401#007F000000000000
(946688575.029994) can0 001#C200000000000000
(946688575.029994) can0 002#D50300009B050000
(946688575.049994) can0 001#BF00000000000000
(946688575.049994) can0 002#D50300009F050000
(946688575.049994) can0 18FF1515#0000000363010063
(946688575.049994) can0 400#6667287C277F0000
(946688575.049994) can0 401#007F000000000000
(946688575.069994) can0 001#BC00000000000000
(946688575.069994) can0 002#D5030000A3050000
(946688575.069994) can0 18FF1080#0000000000000000
(946688575.069994) can0 18FF1180#0000000000000000
(946688575.069994) can0 18FF1280#0000000000000000
(946688575.069994) can0 18FFE180#0000000000000000
(946688575.069994) can0 18FFE280#0000000000000000
(946688575.079994) can0 18FF1515#0000000363010063
(946688575.079994) can0 400#67682981287A0000
(946688575.079994) can0 401#017F000000000000
(946688575.089994) can0 001#B900000000000000
(946688575.089994) can0 002#D5030000A7050000
(946688575.089994) can0 18FF01EA#0A3188577F007D50
(946688575.089994) can0 18FF02EA#0A3188577F007D50
(946688575.089994) can0 19B50001#8CA0960000000000
(946688575.089994) can0 19B50008#8286840000000000
(946688575.089994) can0 19B50100#9696969696969696
(946688575.089994) can0 19B50800#8484848484848484
(946688575.109994) can0 001#B700000000000000
(946688575.109994) can0 002#D5030000AA050000
(946688575.109994) can0 18FF1515#0000000363010063
(946688575.109994) can0 400#6869287F297B0000
(946688575.109994) can0 401#007E000000000000
(946688575.129994) can0 001#B400000000000000
(946688575.129994) can0 002#D5030000AE050000
(946688575.139994) can0 18FF1515#0000000363010063
(946688575.139994) can0 400#6767277F27790000
(946688575.139994) can0 401#007F000000000000
(946688575.149994) can0 001#B100000000000000
(946688575.149994) can0 002#D5030000B2050000
(946688575.169994) can0 001#AE00000000000000
(946688575.169994) can0 002#D5030000B5050000
(946688575.169994) can0 18FF1515#0000000363010063
(946688575.169994) can0 400#6869287B287F0000
(946688575.169994) can0 401#007F000000000000
(946688575.189994) can0 001#AC00000000000000
(946688575.189994) can0 002#D5030000B9050000
(946688575.199994) can0 18FF1515#0000000363010063
(946688575.199994) can0 400#676B2781287C0000
(946688575.199994) can0 401#007F000000000000
(946688575.199994) can0 18FF01EA#0A5888577F007D50
(946688575.199994) can0 18FF02EA#0A5888577F007D50
(946688575.199994) can0 19B50001#8CA0960000000000
(946688575.199994) can0 19B50008#8286840000000000
(946688575.199994) can0 19B50100#9696969696969696
(946688575.199994) can0 19B50800#8484848484848484
(946688575.209994) can0 001#A900000000000000
(946688575.209994) can0 002#D5030000BC050000
(946688575.229994) can0 001#A600000000000000
(946688575.229994) can0 002#D5030000BF050000
(946688575.229994) can0 18FF1515#0000000363010063
(946688575.229994) can0 400#6A68297F297D0000
(946688575.229994) can0 401#017F000000000000
(946688575.249994) can0 001#A400000000000000
(946688575.249994) can0 002#D5030000C3050000
(946688575.259994) can0 18FF1515#0000000363010063
(946688575.259994) can0 400#6A6C2883287F0000
(946688575.259994) can0 401#007E000000000000
(946688575.269994) can0 001#A100000000000000
(946688575.269994) can0 002#D5030000C6050000
(946688575.289994) can0 001#9F00000000000000
(946688575.289994) can0 002#D5030000C9050000
(946688575.289994) can0 18FF1515#0000000363010063
(946688575.289994) can0 400#6B6B297B27800000
(946688575.289994) can0 401#007E000000000000
(946688575.309994) can0 001#9C00000000000000
(946688575.309994) can0 002#D5030000CC050000
(946688575.309994) can0 18FF01EA#0A7B88577F007D50
(946688575.309994) can0 18FF02EA#0A7B88577F007D50
(946688575.309994) can0 19B50001#8CA0960000000000
(946688575.309994) can0 19B50008#8286840000000000
(946688575.309994) can0 19B50100#9696969696969696
(946688575.309994) can0 19B50800#8484848484848484
(946688575.319994) can0 18FF1515#0000000363010063
(946688575.319994) can0 400#696A277F287D0000
(946688575.319994) can0 401#007E000000000000
(946688575.329994) can0 001#9A00000000000000
(946688575.329994) can0 002#D5030000CF050000
(946688575.349994) can0 001#9700000000000000
(946688575.349994) can0 002#D5030000D2050000
(946688575.349994) can0 18FF1515#0000000363010063
(946688575.349994) can0 400#6A6C287E277B0000
(946688575.349994) can0 401#007F000000000000
(946688575.369994) can0 001#9500000000000000
(946688575.369994) can0 002#D5030000D5050000
(946688575.379994) can0 18FF1515#0000000363010063
(946688575.379994) can0 400#6C6B287B277E0000
(946688575.379994) can0 401#007E000000000000
(946688575.389994) can0 001#9300000000000000
(946688575.389994) can0 002#D5030000D8050000
(946688575.409994) can0 001#9000000000000000
(946688575.409994) can0 002#D5030000DB050000
(946688575.409994) can0 18FF1515#0000000363010063
(946688575.409994) can0 400#6A6B277C297E0000
(946688575.409994) can0 401#007E000000000000
(946688575.419994) can0 18FF01EA#0A9C88577F007D50
(946688575.419994) can0 18FF02EA#0A9C88577F007D50
(946688575.419994) can0 19B50001#8CA0960000000000
(946688575.419994) can0 19B50008#8286840000000000
(946688575.419994) can0 19B50100#9696969696969696
(946688575.419994) can0 19B50800#8484848484848484
(946688575.429994) can0 001#8E00000000000000
(946688575.429994) can0 002#D5030000DE050000
(946688575.439994) can0 18FF1515#0000000363010063
(946688575.439994) can0 400#6E6C297E28830000
(946688575.439994) can0 401#007E000000000000
(946688575.449994) can0 001#8C00000000000000
(946688575.449994) can0 002#D5030000E1050000
(946688575.469994) can0 001#8A00000000000000
(946688575.469994) can0 002#D5030000E4050000
(946688575.469994) can0 18FF1515#0000000363010063
(946688575.469994) can0 400#6D6D2883287F0000
(946688575.469994) can0 401#007F000000000000
(946688575.489994) can0 001#8700000000000000
(946688575.489994) can0 002#D5030000E6050000
(946688575.499994) can0 18FF1515#0000000363010063
(946688575.499994) can0 400#6C6E287C297D0000
(946688575.499994) can0 401#007F000000000000
(946688575.509994) can0 001#8500000000000000
(946688575.509994) can0 002#D5030000E9050000
(946688575.529994) can0 001#8300000000000000
(946688575.529994) can0 002#D5030000EC050000
(946688575.529994) can0 18FF1515#0000000363010063
(946688575.529994) can0 400#6E6B287C29830000
(946688575.529994) can0 401#007E000000000000
(946688575.529994) can0 18FF01EA#0ABA88577F007D50
(946688575.529994) can0 18FF02EA#0ABA88577F007D50
(946688575.529994) can0 19B50001#8CA0960000000000
(946688575.529994) can0 19B50008#8286840000000000
(946688575.529994) can0 19B50100#9696969696969696
(946688575.529994) can0 19B50800#8484848484848484
(946688575.549994) can0 001#8100000000000000
(946688575.549994) can0 002#D5030000EE050000
(946688575.559994) can0 18FF1515#0000000363010063
(946688575.559994) can0 400#6B6E298027820000
(946688575.559994) can0 401#007E000000000000
(946688575.569994) can0 001#7F00000000000000
(946688575.569994) can0 002#D5030000F1050000
(946688575.589994) can0 001#7D00000000000000
(946688575.589994) can0 002#D5030000F3050000
(946688575.589994) can0 18FF1515#0000000363010063
(946688575.589994) can0 400#6C6D2883287B0000
(946688575.589994) can0 401#007E000000000000
(946688575.609994) can0 001#7B00000000000000
(946688575.609994) can0 002#D5030000F6050000
(946688575.619994) can0 18FF1515#0000000363010063
(946688575.619994) can0 400#6C6F278428820000
(946688575.619994) can0 401#017F000000000000
(946688575.629994) can0 001#7900000000000000
(946688575.629994) can0 002#D5030000F8050000
(946688575.639994) can0 18FF01EA#0AD588577F007D50
(946688575.639994) can0 18FF02EA#0AD588577F007D50
(946688575.639994) can0 19B50001#8CA0960000000000
(946688575.639994) can0 19B50008#8286840000000000
(946688575.639994) can0 19B50100#9696969696969696
(946688575.639994) can0 19B50800#8484848484848484
(946688575.649994) can0 001#7700000000000000
(946688575.649994) can0 002#D5030000FB050000
(946688575.649994) can0 18FF1515#0000000363010063
(946688575.649994) can0 400#6E6F277A297B0000
(946688575.649994) can0 401#007F000000000000
(946688575.669994) can0 001#7500000000000000
(946688575.669994) can0 002#D5030000FD050000
(946688575.679994) can0 18FF1515#0000000363010063
(946688575.679994) can0 400#6C6E287B29830000
(946688575.679994) can0 401#017E000000000000
(946688575.679994) can0 18FF1080#0000000000000000
(946688575.679994) can0 18FF1180#0000000000000000
(946688575.679994) can0 18FF1280#0000000000000000
(946688575.679994) can0 18FFE180#0000000000000000
(946688575.679994) can0 18FFE280#0000000000000000
(946688575.689994) can0 001#7300000000000000
(946688575.689994) can0 002#D5030000FF050000
(946688575.709994) can0 001#7100000000000000
(946688575.709994) can0 002#D503000002060000
(946688575.709994) can0 18FF1515#0000000363010063
(946688575.709994) can0 400#6F702882297F0000
(946688575.709994) can0 401#007E000000000000
(946688575.729994) can0 001#7000000000000000
(946688575.729994) can0 002#D503000004060000
(946688575.739994) can0 18FF1515#0000000363010063
(946688575.739994) can0 400#6F6F297A297E0000
(946688575.739994) can0 401#007F000000000000
(946688575.749994) can0 001#6E00000000000000
(946688575.749994) can0 002#D503000006060000
(946688575.749994) can0 18FF01EA#0AEE88577F007D50
(946688575.749994) can0 18FF02EA#0AEE88577F007D50
(946688575.749994) can0 19B50001#8CA0960000000000
(946688575.749994) can0 19B50008#8286840000000000
(946688575.749994) can0 19B50100#9696969696969696
(946688575.749994) can0 19B50800#8484848484848484
(946688575.769994) can0 001#6C00000000000000
(946688575.769994) can0 002#D503000008060000
(946688575.769994) can0 18FF1515#0000000363010063
(946688575.769994) can0 400#6F6F288228820000
(946688575.769994) can0 401#017F000000000000
(946688575.789994) can0 001#6A00000000000000
(946688575.789994) can0 002#D50300000A060000
(946688575.799994) can0 18FF1515#0000000363010063
(946688575.799994) can0 400#706E298328820000
(946688575.799994) can0 401#007F000000000000
(946688575.809994) can0 001#6900000000000000
(946688575.809994) can0 002#D50300000D060000
(946688575.829993) can0 001#6700000000000000
(946688575.829993) can0 002#D50300000F060000
(946688575.829993) can0 18FF1515#0000000363010063
(946688575.829993) can0 400#6F70277E287D0000
(946688575.829993) can0 401#007E000000000000
(946688575.849993) can0 001#6500000000000000
(946688575.849993) can0 002#D503000011060000
(946688575.859993) can0 18FF1515#0000000363010063
(946688575.859993) can0 400#6E70287C28830000
(946688575.859993) can0 401#007F000000000000
(946688575.859993) can0 18FF01EA#0A0589577F007D50
(946688575.859993) can0 18FF02EA#0A0589577F007D50
(946688575.859993) can0 19B50001#8CA0960000000000
(946688575.859993) can0 19B50008#8286840000000000
(946688575.859993) can0 19B50100#9696969696969696
(946688575.859993) can0 19B50800#8484848484848484
(946688575.869993) can0 001#6400000000000000
(946688575.869993) can0 002#D503000013060000
(946688575.889993) can0 001#6200000000000000
(946688575.889993) can0 002#D503000015060000
(946688575.889993) can0 18FF1515#0000000363010063
(946688575.889993) can0 400#70702884297D0000
(946688575.889993) can0 401#017E000000000000
(946688575.909993) can0 001#6000000000000000
(946688575.909993) can0 002#D503000017060000
(946688575.919993) can0 18FF1515#0000000363010063
(946688575.919993) can0 400#6F6F297E29830000
(946688575.919993) can0 401#017F000000000000
(946688575.929993) can0 001#5F00000000000000
(946688575.929993) can0 002#D503000019060000
(946688575.949993) can0 001#5D00000000000000
(946688575.949993) can0 002#D50300001A060000
(946688575.949993) can0 18FF1515#0000000363010063
(946688575.949993) can0 400#706F2880287E0000
(946688575.949993) can0 401#007E000000000000
(946688575.969993) can0 001#5C00000000000000
(946688575.969993) can0 002#D50300001C060000
(946688575.969993) can0 18FF01EA#0A1A89577F007D50
(946688575.969993) can0 18FF02EA#0A1A89577F007D50
(946688575.969993) can0 19B50001#8CA0960000000000
(946688575.969993) can0 19B50008#8286840000000000
(946688575.969993) can0 19B50100#9696969696969696
(946688575.969993) can0 19B50800#8484848484848484
(946688575.979993) can0 18FF1515#0000000363010063
(946688575.979993) can0 400#6F712883297E0000
(946688575.979993) can0 401#007E000000000000
(946688575.989993) can0 001#5A00000000000000
(946688575.989993) can0 002#D50300001E060000
(946688576.009993) can0 001#5900000000000000
(946688576.009993) can0 002#D503000020060000
(946688576.009993) can0 18FF1515#0000000363010063
(946688576.009993) can0 400#716F297C287B0000
(946688576.009993) can0 401#007E000000000000
(946688576.029993) can0 001#5700000000000000
(946688576.029993) can0 002#D503000022060000
(946688576.039993) can0 18FF1515#0000000363010063
(946688576.039993) can0 400#6F72287B28830000
(946688576.039993) can0 401#007E000000000000
(946688576.049993) can0 001#5600000000000000
(946688576.049993) can0 002#D503000023060000
(946688576.069993) can0 001#5500000000000000
(946688576.069993) can0 002#D503000025060000
(946688576.069993) can0 18FF1515#0000000363010063
(946688576.069993) can0 400#7270288329820000
(946688576.069993) can0 401#017F000000000000
(946688576.079993) can0 18FF01EA#0A2D89577F007D50
(946688576.079993) can0 18FF02EA#0A2D89577F007D50
