(946688569.010000) can0 001#1F00000000000000
(946688569.010000) can0 002#D503000000000000
(946688569.020000) can0 001#3E00000000000000
(946688569.020000) can0 002#D503020000000000
(946688569.020000) can0 18FF1515#0000000307010007
(946688569.020000) can0 400#0101286327650000
(946688569.020000) can0 401#007F000000000000
(946688569.040000) can0 001#7600020000000000
(946688569.040000) can0 002#D5030E0003000000
(946688569.040000) can0 18FF1515#000000030E01000E
(946688569.040000) can0 400#0002286128660000
(946688569.040000) can0 401#007E000000000000
(946688569.050000) can0 001#9000040000000000
(946688569.050000) can0 002#D503170004000000
(946688569.060000) can0 001#A900060000000000
(946688569.060000) can0 002#D503220006000000
(946688569.060000) can0 18FF1515#0000000315010015
(946688569.060000) can0 400#0100285F27640000
(946688569.060000) can0 401#007F000000000000
(946688569.070000) can0 001#C100090000000000
(946688569.070000) can0 002#D5032F0008000000
(946688569.090000) can0 001#EC000F0000000000
(946688569.090000) can0 002#D5034F000C000000
(946688569.090000) can0 18FF1515#000000031D01001D
(946688569.090000) can0 400#0202276627620000
(946688569.090000) can0 401#007E000000000000
(946688569.110000) can0 001#1301170000000000
(946688569.110000) can0 002#D503740011000000
(946688569.110000) can0 18FF01EA#0A237DCE7D007D50
(946688569.110000) can0 18FF02EA#0A237DCE7D007D50
(946688569.110000) can0 19B50001#8CA0960000000000
(946688569.110000) can0 19B50008#8286840000000000
(946688569.110000) can0 19B50100#9696969696969696
(946688569.110000) can0 19B50800#8484848484848484
(946688569.120000) can0 18FF1515#0000000324010024
(946688569.120000) can0 400#0100276627660000
(946688569.120000) can0 401#017F000000000000
(946688569.130000) can0 001#37011F0000000000
(946688569.130000) can0 002#D5039F0018000000
(946688569.140000) can0 001#4701240000000000
(946688569.140000) can0 002#D503B6001B000000
(946688569.140000) can0 18FF1515#0000000328010028
(946688569.140000) can0 400#0201276228680000
(946688569.140000) can0 401#007E000000000000
(946688569.150000) can0 001#5701290000000000
(946688569.150000) can0 002#D503CE001E000000
(946688569.160000) can0 001#65012E0000000000
(946688569.160000) can0 002#D503E70022000000
(946688569.160000) can0 18FF1515#000000032C01002C
(946688569.160000) can0 400#0402276628680000
(946688569.160000) can0 401#017F000000000000
(946688569.170000) can0 001#7301330000000000
(946688569.170000) can0 002#D503020126000000
(946688569.180000) can0 001#8001390001000000
(946688569.180000) can0 002#D5031D0129000000
(946688569.180000) can0 18FF1515#0000000330010030
(946688569.180000) can0 400#0203276627690000
(946688569.180000) can0 401#007E000000000000
(946688569.190000) can0 001#8D013E0001000000
(946688569.190000) can0 002#D50339012D000000
(946688569.200000) can0 001#9901440001000000
(946688569.200000) can0 002#D503560131000000
(946688569.200000) can0 18FF1515#0000000333010033
(946688569.200000) can0 400#0401286727660000
(946688569.200000) can0 401#007E000000000000
(946688569.210000) can0 001#A4014A0002000000
(946688569.210000) can0 002#D503730136000000
(946688569.210000) can0 18FF01EA#0A6B7D3C7E007D50
(946688569.210000) can0 18FF02EA#0A6B7D3C7E007D50
(946688569.210000) can0 19B50001#8CA0960000000000
(946688569.210000) can0 19B50008#8286840000000000
(946688569.210000) can0 19B50100#9696969696969696
(946688569.210000) can0 19B50800#8484848484848484
(946688569.220000) can0 001#AF01500002000000
(946688569.220000) can0 002#D50392013A000000
(946688569.220000) can0 18FF1515#0000000336010036
(946688569.220000) can0 400#0403286028680000
(946688569.220000) can0 401#017E000000000000
(946688569.230000) can0 001#B901560002000000
(946688569.230000) can0 002#D503B1013E000000
(946688569.240000) can0 001#C2015C0003000000
(946688569.240000) can0 002#D503D00143000000
(946688569.240000) can0 18FF1515#0000000338010038
(946688569.240000) can0 400#0505276828660000
(946688569.240000) can0 401#017D000000000000
(946688569.260000) can0 001#D401690004000000
(946688569.260000) can0 002#D50311024C000000
(946688569.270000) can0 001#DC01700004000000
(946688569.270000) can0 002#D503330251000000
(946688569.270000) can0 18FF1515#000000033B01003B
(946688569.270000) can0 400#0605286A27630000
(946688569.270000) can0 401#017E000000000000
(946688569.280000) can0 001#E401770005000000
(946688569.280000) can0 002#D503540256000000
(946688569.290000) can0 001#EB017E0005000000
(946688569.290000) can0 002#D50377025B000000
(946688569.290000) can0 18FF1515#000000033D01003D
(946688569.290000) can0 400#0704286327640000
(946688569.290000) can0 401#007E000000000000
(946688569.300000) can0 001#F201850006000000
(946688569.300000) can0 002#D503990260000000
(946688569.310000) can0 001#F8018C0007000000
(946688569.310000) can0 002#D503BC0265000000
(946688569.310000) can0 18FF1515#000000033F01003F
(946688569.310000) can0 400#0705276828640000
(946688569.310000) can0 401#007E000000000000
(946688569.310000) can0 18FF01EA#0AC87D7E7E007D50
(946688569.310000) can0 18FF02EA#0AC87D7E7E007D50
(946688569.310000) can0 19B50001#8CA0960000000000
(946688569.310000) can0 19B50008#8286840000000000
(946688569.310000) can0 19B50100#9696969696969696
(946688569.310000) can0 19B50800#8484848484848484
(946688569.320000) can0 001#FE01930007000000
(946688569.320000) can0 002#D503DF026A000000
(946688569.330000) can0 001#04029A0008000000
(946688569.330000) can0 002#D50303036F000000
(946688569.330000) can0 18FF1515#0000000341010041
(946688569.330000) can0 400#0706286628620000
(946688569.330000) can0 401#007F000000000000
(946688569.340000) can0 001#0A02A10009000000
(946688569.340000) can0 002#D503270374000000
(946688569.350000) can0 001#0F02A8000A000000
(946688569.350000) can0 002#D5034B0379000000
(946688569.350000) can0 18FF1515#0000000342010042
(946688569.350000) can0 400#0708276128620000
(946688569.350000) can0 401#007E000000000000
(946688569.360000) can0 001#1302AF000B000000
(946688569.360000) can0 002#D5036F037F000000
(946688569.370000) can0 001#1802B7000C000000
(946688569.370000) can0 002#D503940384000000
(946688569.370000) can0 18FF1515#0000000344010044
(946688569.370000) can0 400#070A286A28660000
(946688569.370000) can0 401#007D000000000000
(946688569.380000) can0 001#1C02BE000D000000
(946688569.380000) can0 002#D503B9038A000000
(946688569.390000) can0 001#2002C6000E000000
(946688569.390000) can0 002#D503DE038F000000
(946688569.390000) can0 18FF1515#0000000345010045
(946688569.390000) can0 400#090B286728650000
(946688569.390000) can0 401#017D000000000000
(946688569.400000) can0 001#2402CD000F000000
(946688569.400000) can0 002#D503030494000000
(946688569.410000) can0 001#2702D50010000000
(946688569.410000) can0 002#D50329049A000000
(946688569.410000) can0 18FF1515#0000000346010046
(946688569.410000) can0 400#0B0C286328620000
(946688569.410000) can0 401#017E000000000000
(946688569.410000) can0 18FF01EA#0A317EA57E007D50
(946688569.410000) can0 18FF02EA#0A317EA57E007D50
(946688569.410000) can0 19B50001#8CA0960000000000
(946688569.410000) can0 19B50008#8286840000000000
(946688569.410000) can0 19B50100#9696969696969696
(946688569.410000) can0 19B50800#8484848484848484
(946688569.420000) can0 001#2A02DC0011000000
(946688569.420000) can0 002#D5034E04A0000000
(946688569.430000) can0 001#2D02E40013000000
(946688569.430000) can0 002#D5037404A5000000
(946688569.430000) can0 18FF1515#0000000347010047
(946688569.430000) can0 400#0C0A276227630000
(946688569.430000) can0 401#007E000000000000
(946688569.440000) can0 001#3002EB0014000000
(946688569.440000) can0 002#D5039A04AB000000
(946688569.450000) can0 001#3302F30015000000
(946688569.450000) can0 002#D503C004B0000000
(946688569.450000) can0 18FF1515#0000000348010048
(946688569.450000) can0 400#0D0C286328660000
(946688569.450000) can0 401#007E000000000000
(946688569.460000) can0 001#3502FA0017000000
(946688569.460000) can0 002#D503E604B6000000
(946688569.470000) can0 001#3702020118000000
(946688569.470000) can0 002#D5030C05BC000000
(946688569.470000) can0 18FF1515#0000000348010048
(946688569.470000) can0 400#0C0C286C28640000
(946688569.470000) can0 401#007D000000000000
(946688569.480000) can0 001#39020A011A000000
(946688569.480000) can0 002#D5033205C1000000
(946688569.490000) can0 001#3B0211011B000000
(946688569.490000) can0 002#D5035805C7000000
(946688569.490000) can0 18FF1515#0000000349010049
(946688569.490000) can0 400#0F0F2864276B0000
(946688569.490000) can0 401#017E000000000000
(946688569.510000) can0 001#3E0220011E000000
(946688569.510000) can0 002#D503A405D3000000
(946688569.510000) can0 18FF01EA#0AA17EBC7E007D50
(946688569.510000) can0 18FF02EA#0AA17EBC7E007D50
(946688569.510000) can0 19B50001#8CA0960000000000
(946688569.510000) can0 19B50008#8286840000000000
(946688569.510000) can0 19B50100#9696969696969696
(946688569.510000) can0 19B50800#8484848484848484
(946688569.520000) can0 001#4002280120000000
(946688569.520000) can0 002#D503CB05D8000000
(946688569.520000) can0 18FF1515#000000034A01004A
(946688569.520000) can0 400#0F11286928650000
(946688569.520000) can0 401#007D000000000000
(946688569.529999) can0 001#4102300122000000
(946688569.529999) can0 002#D503F105DE000000
(946688569.539999) can0 001#4202370123000000
(946688569.539999) can0 002#D5031706E4000000
(946688569.539999) can0 18FF1515#000000034A01004A
(946688569.539999) can0 400#0F10276927650000
(946688569.539999) can0 401#017C000000000000
(946688569.549999) can0 001#43023F0125000000
(946688569.549999) can0 002#D5033D06EA000000
(946688569.559999) can0 001#4402470127000000
(946688569.559999) can0 002#D5036406F0000000
(946688569.559999) can0 18FF1515#000000034B01004B
(946688569.559999) can0 400#100F286D27650000
(946688569.559999) can0 401#007D000000000000
(946688569.569999) can0 001#45024E0129000000
(946688569.569999) can0 002#D5038A06F5000000
(946688569.579999) can0 001#460256012B000000
(946688569.579999) can0 002#D503B006FB000000
(946688569.579999) can0 18FF1515#000000034B01004B
(946688569.579999) can0 400#1313286D27690000
(946688569.579999) can0 401#007C000000000000
(946688569.589999) can0 001#46025E012D000000
(946688569.589999) can0 002#D503D60601010000
(946688569.599999) can0 001#460265012F000000
(946688569.599999) can0 002#D503FC0607010000
(946688569.599999) can0 18FF1515#000000034C01004C
(946688569.599999) can0 400#1213286A276C0000
(946688569.599999) can0 401#017C000000000000
(946688569.599999) can0 18FF1080#0000000000000000
(946688569.599999) can0 18FF1180#0000000000000000
(946688569.599999) can0 18FF1280#0000000000000000
(946688569.599999) can0 18FFE180#0000000000000000
(946688569.599999) can0 18FFE280#0000000000000000
(946688569.609999) can0 001#47026D0131000000
(946688569.609999) can0 002#D50322070D010000
(946688569.609999) can0 18FF01EA#0A147FCA7E007D50
(946688569.609999) can0 18FF02EA#0A147FCA7E007D50
(946688569.609999) can0 19B50001#8CA0960000000000
(946688569.609999) can0 19B50008#8286840000000000
(946688569.609999) can0 19B50100#9696969696969696
(946688569.609999) can0 19B50800#8484848484848484
(946688569.619999) can0 001#4702740133000000
(946688569.619999) can0 002#D503480712010000
(946688569.619999) can0 18FF1515#000000034C01004C
(946688569.619999) can0 400#12152865276D0000
(946688569.619999) can0 401#007C000000000000
(946688569.629999) can0 001#47027C0135000000
(946688569.629999) can0 002#D5036E0718010000
(946688569.639999) can0 001#4702840138000000
(946688569.639999) can0 002#D50394071E010000
(946688569.639999) can0 18FF1515#000000034C01004C
(946688569.639999) can0 400#1416286D286C0000
(946688569.639999) can0 401#007C000000000000
(946688569.649999) can0 001#47028B013A000000
(946688569.649999) can0 002#D503BA0724010000
(946688569.659999) can0 001#470293013C000000
(946688569.659999) can0 002#D503E0072A010000
(946688569.659999) can0 18FF1515#000000034D01004D
(946688569.659999) can0 400#1314276D27660000
(946688569.659999) can0 401#007B000000000000
(946688569.669999) can0 001#47029A013F000000
(946688569.669999) can0 002#D503060830010000
(946688569.679999) can0 001#4702A20141000000
(946688569.679999) can0 002#D5032B0836010000
(946688569.679999) can0 18FF1515#000000034D01004D
(946688569.679999) can0 400#1517276B27680000
(946688569.679999) can0 401#017B000000000000
(946688569.689999) can0 001#4602A90143000000
(946688569.689999) can0 002#D50351083B010000
(946688569.699999) can0 001#4602B10146000000
(946688569.699999) can0 002#D503760841010000
(946688569.699999) can0 18FF1515#000000034D01004D
(946688569.699999) can0 400#1718286C27680000
(946688569.699999) can0 401#007C000000000000
(946688569.709999) can0 001#4602B80148000000
(946688569.709999) can0 002#D5039B0847010000
(946688569.709999) can0 18FF01EA#0A887FD37E007D50
(946688569.709999) can0 18FF02EA#0A887FD37E007D50
(946688569.709999) can0 19B50001#8CA0960000000000
(946688569.709999) can0 19B50008#8286840000000000
(946688569.709999) can0 19B50100#9696969696969696
(946688569.709999) can0 19B50800#8484848484848484
(946688569.719999) can0 001#4502C0014B000000
(946688569.719999) can0 002#D503C0084D010000
(946688569.719999) can0 18FF1515#000000034E01004E
(946688569.719999) can0 400#1717286E286E0000
(946688569.719999) can0 401#007B000000000000
(946688569.729999) can0 001#4502C7014D000000
(946688569.729999) can0 002#D503E50853010000
(946688569.739999) can0 001#4402CE0150000000
(946688569.739999) can0 002#D5030A0958010000
(946688569.739999) can0 18FF1515#000000034E01004E
(946688569.739999) can0 400#1917286D28680000
(946688569.739999) can0 401#007B000000000000
(946688569.749999) can0 001#4302D60153000000
(946688569.749999) can0 002#D5032F095E010000
(946688569.759999) can0 001#4302DD0155000000
(946688569.759999) can0 002#D503540964010000
(946688569.759999) can0 18FF1515#000000034E01004E
(946688569.759999) can0 400#1B192869276B0000
(946688569.759999) can0 401#0179000000000000
(946688569.769999) can0 001#4202E40158000000
(946688569.769999) can0 002#D50378096A010000
(946688569.779999) can0 001#4102EC015B000000
(946688569.779999) can0 002#D5039D0970010000
(946688569.779999) can0 18FF1515#000000034E01004E
(946688569.779999) can0 400#1919286C28690000
(946688569.779999) can0 401#017B000000000000
(946688569.789999) can0 001#4002F3015E000000
(946688569.789999) can0 002#D503C10975010000
(946688569.799999) can0 001#3F02FA0161000000
(946688569.799999) can0 002#D503E5097B010000
(946688569.799999) can0 18FF1515#000000034E01004E
(946688569.799999) can0 400#1B1B286A276C0000
(946688569.799999) can0 401#0179000000000000
(946688569.809999) can0 001#3E02010263000000
(946688569.809999) can0 002#D503090A81010000
(946688569.809999) can0 18FF01EA#0AFA7FD87E007D50
(946688569.809999) can0 18FF02EA#0AFA7FD87E007D50
(946688569.809999) can0 19B50001#8CA0960000000000
(946688569.809999) can0 19B50008#8286840000000000
(946688569.809999) can0 19B50100#9696969696969696
(946688569.809999) can0 19B50800#8484848484848484
(946688569.819999) can0 001#3D02090266000000
(946688569.819999) can0 002#D5032D0A87010000
(946688569.819999) can0 18FF1515#000000034E01004E
(946688569.819999) can0 400#1B1D286D286C0000
(946688569.819999) can0 401#017A000000000000
(946688569.829999) can0 001#3C02100269000000
(946688569.829999) can0 002#D503510A8C010000
(946688569.839999) can0 001#3B0217026C000000
(946688569.839999) can0 002#D503740A92010000
(946688569.839999) can0 18FF1515#000000034E01004E
(946688569.839999) can0 400#1C1B276B286C0000
(946688569.839999) can0 401#007A000000000000
(946688569.849999) can0 001#3A021E026F000000
(946688569.849999) can0 002#D503970A98010000
(946688569.859999) can0 001#3902250272000000
(946688569.859999) can0 002#D503BB0A9D010000
(946688569.859999) can0 18FF1515#000000034F01004F
(946688569.859999) can0 400#1E1E276928690000
(946688569.859999) can0 401#0078000000000000
(946688569.869999) can0 001#37022C0275000000
(946688569.869999) can0 002#D503DE0AA3010000
(946688569.879999) can0 001#3602330278000000
(946688569.879999) can0 002#D503010BA9010000
(946688569.879999) can0 18FF1515#000000034F01004F
(946688569.879999) can0 400#1E1D286D27670000
(946688569.879999) can0 401#0178000000000000
(946688569.889999) can0 001#35023A027B000000
(946688569.889999) can0 002#D503230BAE010000
(946688569.899999) can0 001#340241027F000000
(946688569.899999) can0 002#D503460BB4010000
(946688569.899999) can0 18FF1515#000000034F01004F
(946688569.899999) can0 400#1E20276E27660000
(946688569.899999) can0 401#0078000000000000
(946688569.909999) can0 001#3202480282000000
(946688569.909999) can0 002#D503680BBA010000
(946688569.909999) can0 18FF01EA#0A6B80DB7E007D50
(946688569.909999) can0 18FF02EA#0A6B80DB7E007D50
(946688569.909999) can0 19B50001#8CA0960000000000
(946688569.909999) can0 19B50008#8286840000000000
(946688569.909999) can0 19B50100#9696969696969696
(946688569.909999) can0 19B50800#8484848484848484
(946688569.919999) can0 001#31024E0285000000
(946688569.919999) can0 002#D5038A0BBF010000
(946688569.919999) can0 18FF1515#000000034F01004F
(946688569.919999) can0 400#1F20286C27690000
(946688569.919999) can0 401#0177000000000000
(946688569.929999) can0 001#3002550288000000
(946688569.929999) can0 002#D503AC0BC5010000
(946688569.939999) can0 001#2E025C028B000000
(946688569.939999) can0 002#D503CE0BCA010000
(946688569.939999) can0 18FF1515#000000034F01004F
(946688569.939999) can0 400#2021276927700000
(946688569.939999) can0 401#0078000000000000
(946688569.949999) can0 001#2D0263028F000000
(946688569.949999) can0 002#D503F00BD0010000
(946688569.959999) can0 001#2B02690292000000
(946688569.959999) can0 002#D503110CD6010000
(946688569.959999) can0 18FF1515#000000034F01004F
(946688569.959999) can0 400#20222768276D0000
(946688569.959999) can0 401#0078000000000000
(946688569.969999) can0 001#2A02700295000000
(946688569.969999) can0 002#D503320CDB010000
(946688569.979999) can0 001#2802770299000000
(946688569.979999) can0 002#D503540CE1010000
(946688569.979999) can0 18FF1515#000000034F01004F
(946688569.979999) can0 400#2023286F28680000
(946688569.979999) can0 401#0176000000000000
(946688569.989999) can0 001#27027D029C000000
(946688569.989999) can0 002#D503740CE6010000
(946688569.999999) can0 001#250284029F000000
(946688569.999999) can0 002#D503950CEC010000
(946688569.999999) can0 18FF1515#000000034F01004F
(946688569.999999) can0 400#2121286B286B0000
(946688569.999999) can0 401#0076000000000000
(946688570.009999) can0 001#24028A02A3000000
(946688570.009999) can0 002#D503B50CF1010000
(946688570.009999) can0 18FF01EA#0AD980DD7E007D50
(946688570.009999) can0 18FF02EA#0AD980DD7E007D50
(946688570.009999) can0 19B50001#8CA0960000000000
(946688570.009999) can0 19B50008#8286840000000000
(946688570.009999) can0 19B50100#9696969696969696
(946688570.009999) can0 19B50800#8484848484848484
(946688570.019999) can0 001#22029102A6000000
(946688570.019999) can0 002#D503D60CF7010000
(946688570.019999) can0 18FF1515#000000034F01004F
(946688570.019999) can0 400#2224276D28690000
(946688570.019999) can0 401#0076000000000000
(946688570.029999) can0 001#20029702AA000000
(946688570.029999) can0 002#D503F60CFC010000
(946688570.039999) can0 001#1F029E02AD000000
(946688570.039999) can0 002#D503160D02020000
(946688570.039999) can0 18FF1515#000000034F01004F
(946688570.039999) can0 400#2623276D286E0000
(946688570.039999) can0 401#0075000000000000
(946688570.049999) can0 001#1D02A402B1000000
(946688570.049999) can0 002#D503350D07020000
(946688570.059999) can0 001#1B02AA02B4000000
(946688570.059999) can0 002#D503550D0C020000
(946688570.059999) can0 18FF1515#000000034F01004F
(946688570.059999) can0 400#2726286C276D0000
(946688570.059999) can0 401#0075000000000000
(946688570.069999) can0 001#1A02B002B8000000
(946688570.069999) can0 002#D503740D12020000
(946688570.079999) can0 001#1802B702BB000000
(946688570.079999) can0 002#D503930D17020000
(946688570.079999) can0 18FF1515#000000034F01004F
(946688570.079999) can0 400#2426276E286F0000
(946688570.079999) can0 401#0076000000000000
(946688570.089999) can0 001#1602BD02BF000000
(946688570.089999) can0 002#D503B20D1C020000
(946688570.099999) can0 001#1502C302C2000000
(946688570.099999) can0 002#D503D00D22020000
(946688570.099999) can0 18FF1515#000000034F01004F
(946688570.099999) can0 400#2628286D286B0000
(946688570.099999) can0 401#0075000000000000
(946688570.109999) can0 001#1302C902C6000000
(946688570.109999) can0 002#D503EE0D27020000
(946688570.109999) can0 18FF01EA#0A4481DE7E007D50
(946688570.109999) can0 18FF02EA#0A4481DE7E007D50
(946688570.109999) can0 19B50001#8CA0960000000000
(946688570.109999) can0 19B50008#8286840000000000
(946688570.109999) can0 19B50100#9696969696969696
(946688570.109999) can0 19B50800#8484848484848484
(946688570.119999) can0 001#1102CF02CA000000
(946688570.119999) can0 002#D5030C0E2C020000
(946688570.119999) can0 18FF1515#000000034F01004F
(946688570.119999) can0 400#2628287227700000
(946688570.119999) can0 401#0073000000000000
(946688570.129999) can0 001#0F02D502CD000000
(946688570.129999) can0 002#D5032A0E32020000
(946688570.139999) can0 001#0D02DB02D1000000
(946688570.139999) can0 002#D503480E37020000
(946688570.139999) can0 18FF1515#000000034F01004F
(946688570.139999) can0 400#2A29287028700000
(946688570.139999) can0 401#0174000000000000
(946688570.149999) can0 001#0C02E102D4000000
(946688570.149999) can0 002#D503650E3C020000
(946688570.159999) can0 001#0A02E602D8000000
(946688570.159999) can0 002#D503820E41020000
(946688570.159999) can0 18FF1515#000000034F01004F
(946688570.159999) can0 400#2A29276B28730000
(946688570.159999) can0 401#0072000000000000
(946688570.169999) can0 001#0802EC02DC000000
(946688570.169999) can0 002#D5039F0E47020000
(946688570.179999) can0 001#0602F202DF000000
(946688570.179999) can0 002#D503BC0E4C020000
(946688570.179999) can0 18FF1515#000000034F01004F
(946688570.179999) can0 400#2928286B276A0000
(946688570.179999) can0 401#0073000000000000
(946688570.189999) can0 001#0402F802E3000000
(946688570.189999) can0 002#D503D80E51020000
(946688570.199999) can0 001#0202FD02E7000000
(946688570.199999) can0 002#D503F50E56020000
(946688570.199999) can0 18FF1515#000000034F01004F
(946688570.199999) can0 400#2B29276A27710000
(946688570.199999) can0 401#0072000000000000
(946688570.199999) can0 18FF1080#0000000000000000
(946688570.199999) can0 18FF1180#0000000000000000
(946688570.199999) can0 18FF1280#0000000000000000
(946688570.199999) can0 18FFE180#0000000000000000
(946688570.199999) can0 18FFE280#0000000000000000
(946688570.209999) can0 001#01020303EA000000
(946688570.209999) can0 002#D503100F5B020000
(946688570.209999) can0 18FF01EA#0AAB81DF7E007D50
(946688570.209999) can0 18FF02EA#0AAB81DF7E007D50
(946688570.209999) can0 19B50001#8CA0960000000000
(946688570.209999) can0 19B50008#8286840000000000
(946688570.209999) can0 19B50100#9696969696969696
(946688570.209999) can0 19B50800#8484848484848484
(946688570.219999) can0 001#FF010803EE000000
(946688570.219999) can0 002#D5032C0F60020000
(946688570.219999) can0 18FF1515#000000034F01004F
(946688570.219999) can0 400#2D2C276B286B0000
(946688570.219999) can0 401#0072000000000000
(946688570.229999) can0 001#FD010E03F2000000
(946688570.229999) can0 002#D503480F65020000
(946688570.239999) can0 001#FB011303F6000000
(946688570.239999) can0 002#D503630F6A020000
(946688570.239999) can0 18FF1515#000000034F01004F
(946688570.239999) can0 400#2C2E2771276E0000
(946688570.239999) can0 401#0072000000000000
(946688570.249999) can0 001#F9011903F9000000
(946688570.249999) can0 002#D5037E0F70020000
(946688570.259999) can0 001#F7011E03FD000000
(946688570.259999) can0 002#D503980F75020000
(946688570.259999) can0 18FF1515#000000034F01004F
(946688570.259999) can0 400#2D2E2770286F0000
(946688570.259999) can0 401#0072000000000000
(946688570.269999) can0 001#F501230301010000
(946688570.269999) can0 002#D503B30F7A020000
(946688570.279999) can0 001#F301290304010000
(946688570.279999) can0 002#D503CD0F7F020000
(946688570.279999) can0 18FF1515#000000034F01004F
(946688570.279999) can0 400#2C2F286C276A0000
(946688570.279999) can0 401#0071000000000000
(946688570.289999) can0 001#F1012E0308010000
(946688570.289999) can0 002#D503E70F84020000
(946688570.299999) can0 001#EF0133030C010000
(946688570.299999) can0 002#D503011089020000
(946688570.299999) can0 18FF1515#000000034F01004F
(946688570.299999) can0 400#2E2F277027700000
(946688570.299999) can0 401#0172000000000000
(946688570.309999) can0 001#ED01380310010000
(946688570.309999) can0 002#D5031A108D020000
(946688570.309999) can0 18FF01EA#0A0E82DF7E007D50
(946688570.309999) can0 18FF02EA#0A0E82DF7E007D50
(946688570.309999) can0 19B50001#8CA0960000000000
(946688570.309999) can0 19B50008#8286840000000000
(946688570.309999) can0 19B50100#9696969696969696
(946688570.309999) can0 19B50800#8484848484848484
(946688570.319999) can0 001#EB013D0313010000
(946688570.319999) can0 002#D503331092020000
(946688570.319999) can0 18FF1515#000000034F01004F
(946688570.319999) can0 400#2F2E2874276F0000
(946688570.319999) can0 401#006F000000000000
(946688570.329999) can0 001#E901420317010000
(946688570.329999) can0 002#D5034C1097020000
(946688570.339999) can0 001#E80147031B010000
(946688570.339999) can0 002#D50364109C020000
(946688570.339999) can0 18FF1515#000000034F01004F
(946688570.339999) can0 400#2F31287028730000
(946688570.339999) can0 401#0171000000000000
(946688570.349999) can0 001#E6014C031E010000
(946688570.349999) can0 002#D5037D10A1020000
(946688570.359999) can0 001#E401510322010000
(946688570.359999) can0 002#D5039510A6020000
(946688570.359999) can0 18FF1515#000000034F01004F
(946688570.359999) can0 400#2E31277428730000
(946688570.359999) can0 401#0070000000000000
(946688570.369999) can0 001#E201550326010000
(946688570.369999) can0 002#D503AD10AB020000
(946688570.379999) can0 001#E0015A0329010000
(946688570.379999) can0 002#D503C410AF020000
(946688570.379999) can0 18FF1515#000000034F01004F
(946688570.379999) can0 400#3032286F276F0000
(946688570.379999) can0 401#006E000000000000
(946688570.389999) can0 001#DE015F032D010000
(946688570.389999) can0 002#D503DB10B4020000
(946688570.399999) can0 001#DC01630331010000
(946688570.399999) can0 002#D503F210B9020000
(946688570.399999) can0 18FF1515#000000034F01004F
(946688570.399999) can0 400#32302873286C0000
(946688570.399999) can0 401#016E000000000000
(946688570.409999) can0 001#DA01680335010000
(946688570.409999) can0 002#D5030911BE020000
(946688570.409999) can0 18FF01EA#0A6E82DF7E007D50
(946688570.409999) can0 18FF02EA#0A6E82DF7E007D50
(946688570.409999) can0 19B50001#8CA0960000000000
(946688570.409999) can0 19B50008#8286840000000000
(946688570.409999) can0 19B50100#9696969696969696
(946688570.409999) can0 19B50800#8484848484848484
(946688570.419999) can0 001#D8016C0338010000
(946688570.419999) can0 002#D5031F11C2020000
(946688570.419999) can0 18FF1515#000000034F01004F
(946688570.419999) can0 400#3134276F27710000
(946688570.419999) can0 401#006F000000000000
(946688570.429999) can0 001#D60171033C010000
(946688570.429999) can0 002#D5033511C7020000
(946688570.439999) can0 001#D401750340010000
(946688570.439999) can0 002#D5034B11CC020000
(946688570.439999) can0 18FF1515#000000034F01004F
(946688570.439999) can0 400#3433287028710000
(946688570.439999) can0 401#016D000000000000
(946688570.449999) can0 001#D201790343010000
(946688570.449999) can0 002#D5036111D1020000
(946688570.459999) can0 001#D0017E0347010000
(946688570.459999) can0 002#D5037611D5020000
(946688570.459999) can0 18FF1515#000000034F01004F
(946688570.459999) can0 400#3334276E276D0000
(946688570.459999) can0 401#006F000000000000
(946688570.469999) can0 001#CD0182034A010000
(946688570.469999) can0 002#D5038B11DA020000
(946688570.479999) can0 001#CB0186034E010000
(946688570.479999) can0 002#D5039F11DE020000
(946688570.479999) can0 18FF1515#000000034F01004F
(946688570.479999) can0 400#3336277328740000
(946688570.479999) can0 401#006D000000000000
(946688570.489999) can0 001#C9018A0352010000
(946688570.489999) can0 002#D503B411E3020000
(946688570.499999) can0 001#C7018E0355010000
(946688570.499999) can0 002#D503C811E8020000
(946688570.499999) can0 18FF1515#000000034F01004F
(946688570.499999) can0 400#3435286F286F0000
(946688570.499999) can0 401#016E000000000000
(946688570.509999) can0 001#C501920359010000
(946688570.509999) can0 002#D503DC11EC020000
(946688570.509999) can0 18FF01EA#0ACA82DF7E007D50
(946688570.509999) can0 18FF02EA#0ACA82DF7E007D50
(946688570.509999) can0 19B50001#8CA0960000000000
(946688570.509999) can0 19B50008#8286840000000000
(946688570.509999) can0 19B50100#9696969696969696
(946688570.509999) can0 19B50800#8484848484848484
(946688570.519999) can0 001#C30196035C010000
(946688570.519999) can0 002#D503EF11F1020000
(946688570.519999) can0 18FF1515#000000034F01004F
(946688570.519999) can0 400#35352970276E0000
(946688570.519999) can0 401#006E000000000000
(946688570.529999) can0 001#C1019A0360010000
(946688570.529999) can0 002#D5030212F5020000
(946688570.539999) can0 001#BF019D0363010000
(946688570.539999) can0 002#D5031512FA020000
(946688570.539999) can0 18FF1515#000000034F01004F
(946688570.539999) can0 400#3635287527720000
(946688570.539999) can0 401#006C000000000000
(946688570.549999) can0 001#BD01A10367010000
(946688570.549999) can0 002#D5032812FE020000
(946688570.559999) can0 001#BB01A5036B010000
(946688570.559999) can0 002#D5033A1202030000
(946688570.559999) can0 18FF1515#000000034F01004F
(946688570.559999) can0 400#3836286F276D0000
(946688570.559999) can0 401#006D000000000000
(946688570.569999) can0 001#B901A8036E010000
(946688570.569999) can0 002#D5034C1207030000
(946688570.579998) can0 001#B701AC0371010000
(946688570.579998) can0 002#D5035E120B030000
(946688570.579998) can0 18FF1515#000000034F01004F
(946688570.579998) can0 400#3937287027750000
(946688570.579998) can0 401#006D000000000000
(946688570.589998) can0 001#B501AF0375010000
(946688570.589998) can0 002#D5036F1210030000
(946688570.599998) can0 001#B301B30378010000
(946688570.599998) can0 002#D503801214030000
(946688570.599998) can0 18FF1515#000000034F01004F
(946688570.599998) can0 400#3738276D286E0000
(946688570.599998) can0 401#006B000000000000
(946688570.609998) can0 001#B101B6037C010000
(946688570.609998) can0 002#D503911218030000
(946688570.609998) can0 18FF01EA#0A2183DF7E007D50
(946688570.609998) can0 18FF02EA#0A2183DF7E007D50
(946688570.609998) can0 19B50001#8CA0960000000000
(946688570.609998) can0 19B50008#8286840000000000
(946688570.609998) can0 19B50100#9696969696969696
(946688570.609998) can0 19B50800#8484848484848484
(946688570.619998) can0 001#AF01BA037F010000
(946688570.619998) can0 002#D503A2121D030000
(946688570.619998) can0 18FF1515#000000034F01004F
(946688570.619998) can0 400#3938277528720000
(946688570.619998) can0 401#006A000000000000
(946688570.629998) can0 001#AD01BD0383010000
(946688570.629998) can0 002#D503B21221030000
(946688570.639998) can0 001#AB01C00386010000
(946688570.639998) can0 002#D503C21225030000
(946688570.639998) can0 18FF1515#000000034F01004F
(946688570.639998) can0 400#3A38287027760000
(946688570.639998) can0 401#006B000000000000
(946688570.649998) can0 001#A901C30389010000
(946688570.649998) can0 002#D503D11229030000
(946688570.659998) can0 001#A701C6038D010000
(946688570.659998) can0 002#D503E1122E030000
(946688570.659998) can0 18FF1515#000000034F01004F
(946688570.659998) can0 400#393A276F28700000
(946688570.659998) can0 401#006A000000000000
(946688570.669998) can0 001#A501C90390010000
(946688570.669998) can0 002#D503EF1232030000
(946688570.679998) can0 001#A301CC0393010000
(946688570.679998) can0 002#D503FE1236030000
(946688570.679998) can0 18FF1515#000000034F01004F
(946688570.679998) can0 400#3D3B287628740000
(946688570.679998) can0 401#0069000000000000
(946688570.689998) can0 001#A101CF0396010000
(946688570.689998) can0 002#D5030C133A030000
(946688570.699998) can0 001#9F01D2039A010000
(946688570.699998) can0 002#D5031A133E030000
(946688570.699998) can0 18FF1515#000000034F01004F
(946688570.699998) can0 400#3C3A287727760000
(946688570.699998) can0 401#016A000000000000
(946688570.709998) can0 001#9D01D4039D010000
(946688570.709998) can0 002#D503281343030000
(946688570.709998) can0 18FF01EA#0A7583DF7E007D50
(946688570.709998) can0 18FF02EA#0A7583DF7E007D50
(946688570.709998) can0 19B50001#8CA0960000000000
(946688570.709998) can0 19B50008#8286840000000000
(946688570.709998) can0 19B50100#9696969696969696
(946688570.709998) can0 19B50800#8484848484848484
(946688570.719998) can0 001#9B01D703A0010000
(946688570.719998) can0 002#D503351347030000
(946688570.719998) can0 18FF1515#000000034F01004F
(946688570.719998) can0 400#3A3A286E27760000
(946688570.719998) can0 401#0169000000000000
(946688570.729998) can0 001#9901DA03A3010000
(946688570.729998) can0 002#D50343134B030000
(946688570.739998) can0 001#9701DC03A6010000
(946688570.739998) can0 002#D5034F134F030000
(946688570.739998) can0 18FF1515#000000034F01004F
(946688570.739998) can0 400#3D3E277729750000
(946688570.739998) can0 401#0068000000000000
(946688570.749998) can0 001#9501DF03A9010000
(946688570.749998) can0 002#D5035C1353030000
(946688570.759998) can0 001#9301E103AC010000
(946688570.759998) can0 002#D503681357030000
(946688570.759998) can0 18FF1515#000000034F01004F
(946688570.759998) can0 400#3E3C2775276F0000
(946688570.759998) can0 401#0068000000000000
(946688570.769998) can0 001#9101E403AF010000
(946688570.769998) can0 002#D50374135B030000
(946688570.779998) can0 001#8F01E603B2010000
(946688570.779998) can0 002#D5037F135F030000
(946688570.779998) can0 18FF1515#000000034F01004F
(946688570.779998) can0 400#403F287427760000
(946688570.779998) can0 401#0168000000000000
(946688570.789998) can0 001#8C01E803B5010000
(946688570.789998) can0 002#D5038A1363030000
(946688570.799998) can0 001#8A01EA03B8010000
(946688570.799998) can0 002#D503951367030000
(946688570.799998) can0 18FF1515#000000034F01004F
(946688570.799998) can0 400#3E402776286F0000
(946688570.799998) can0 401#0067000000000000
(946688570.799998) can0 18FF1080#0000000000000000
(946688570.799998) can0 18FF1180#0000000000000000
(946688570.799998) can0 18FF1280#0000000000000000
(946688570.799998) can0 18FFE180#0000000000000000
(946688570.799998) can0 18FFE280#0000000000000000
(946688570.809998) can0 001#8801EC03BB010000
(946688570.809998) can0 002#D5039F136B030000
(946688570.809998) can0 18FF01EA#0AC583DF7E007D50
(946688570.809998) can0 18FF02EA#0AC583DF7E007D50
(946688570.809998) can0 19B50001#8CA0960000000000
(946688570.809998) can0 19B50008#8286840000000000
(946688570.809998) can0 19B50100#9696969696969696
(946688570.809998) can0 19B50800#8484848484848484
(946688570.819998) can0 001#8601EE03BE010000
(946688570.819998) can0 002#D503AA136F030000
(946688570.819998) can0 18FF1515#000000034F01004F
(946688570.819998) can0 400#3F402771286F0000
(946688570.819998) can0 401#0068000000000000
(946688570.829998) can0 001#8401F003C1010000
(946688570.829998) can0 002#D503B31373030000
(946688570.839998) can0 001#8201F203C4010000
(946688570.839998) can0 002#D503BD1376030000
(946688570.839998) can0 18FF1515#000000034F01004F
(946688570.839998) can0 400#403F277727780000
(946688570.839998) can0 401#0067000000000000
(946688570.849998) can0 001#8001F403C7010000
(946688570.849998) can0 002#D503C6137A030000
(946688570.859998) can0 001#7E01F603C9010000
(946688570.859998) can0 002#D503CF137E030000
(946688570.859998) can0 18FF1515#000000034F01004F
(946688570.859998) can0 400#3F3F287428700000
(946688570.859998) can0 401#0168000000000000
(946688570.869998) can0 001#7C01F803CC010000
(946688570.869998) can0 002#D503D81382030000
(946688570.879998) can0 001#7A01F903CF010000
(946688570.879998) can0 002#D503E01386030000
(946688570.879998) can0 18FF1515#000000034F01004F
(946688570.879998) can0 400#4040277628720000
(946688570.879998) can0 401#0068000000000000
(946688570.889998) can0 001#7901FB03D1010000
(946688570.889998) can0 002#D503E81389030000
(946688570.899998) can0 001#7701FC03D4010000
(946688570.899998) can0 002#D503EF138D030000
(946688570.899998) can0 18FF1515#000000034F01004F
(946688570.899998) can0 400#40412870286F0000
(946688570.899998) can0 401#0066000000000000
(946688570.909998) can0 001#7501FE03D7010000
(946688570.909998) can0 002#D503F71391030000
(946688570.909998) can0 18FF01EA#0A1084DF7E007D50
(946688570.909998) can0 18FF02EA#0A1084DF7E007D50
(946688570.909998) can0 19B50001#8CA0960000000000
(946688570.909998) can0 19B50008#8286840000000000
(946688570.909998) can0 19B50100#9696969696969696
(946688570.909998) can0 19B50800#8484848484848484
(946688570.919998) can0 001#7301FF03D9010000
(946688570.919998) can0 002#D503FD1395030000
(946688570.919998) can0 18FF1515#000000034F01004F
(946688570.919998) can0 400#4342287229720000
(946688570.919998) can0 401#0066000000000000
(946688570.929998) can0 001#71010004DC010000
(946688570.929998) can0 002#D503041498030000
(946688570.939998) can0 001#6F010204DE010000
(946688570.939998) can0 002#D5030A149C030000
(946688570.939998) can0 18FF1515#000000034F01004F
(946688570.939998) can0 400#4441277028710000
(946688570.939998) can0 401#0066000000000000
(946688570.949998) can0 001#6D010304E1010000
(946688570.949998) can0 002#D5031014A0030000
(946688570.959998) can0 001#6B010404E3010000
(946688570.959998) can0 002#D5031614A3030000
(946688570.959998) can0 18FF1515#000000034F01004F
(946688570.959998) can0 400#4541277228780000
(946688570.959998) can0 401#0067000000000000
(946688570.969998) can0 001#69010504E5010000
(946688570.969998) can0 002#D5031B14A7030000
(946688570.979998) can0 001#67010604E8010000
(946688570.979998) can0 002#D5032014AB030000
(946688570.979998) can0 18FF1515#000000034F01004F
(946688570.979998) can0 400#4241277228730000
(946688570.979998) can0 401#0166000000000000
(946688570.989998) can0 001#65010704EA010000
(946688570.989998) can0 002#D5032514AE030000
(946688571.009998) can0 001#61010904EE010000
(946688571.009998) can0 002#D5032D14B5030000
(946688571.009998) can0 18FF1515#000000034F01004F
(946688571.009998) can0 400#4645287727740000
(946688571.009998) can0 401#0065000000000000
(946688571.019998) can0 18FF01EA#0A5F84DF7E007D50
(946688571.019998) can0 18FF02EA#0A5F84DF7E007D50
(946688571.019998) can0 19B50001#8CA0960000000000
(946688571.019998) can0 19B50008#8286840000000000
(946688571.019998) can0 19B50100#9696969696969696
(946688571.019998) can0 19B50800#8484848484848484
(946688571.029998) can0 001#5D010A04F3010000
(946688571.029998) can0 002#D5033414BC030000
(946688571.039998) can0 18FF1515#000000034F01004F
(946688571.039998) can0 400#4644287727760000
(946688571.039998) can0 401#0165000000000000
(946688571.049998) can0 001#59010B04F7010000
(946688571.049998) can0 002#D5033914C3030000
(946688571.069998) can0 001#56010C04FB010000
(946688571.069998) can0 002#D5033D14CA030000
(946688571.069998) can0 18FF1515#000000034F01004F
(946688571.069998) can0 400#4747287628750000
(946688571.069998) can0 401#0065000000000000
(946688571.089998) can0 001#52010C04FF010000
(946688571.089998) can0 002#D5034014D1030000
(946688571.099998) can0 18FF1515#000000034F01004F
(946688571.099998) can0 400#4548287828740000
(946688571.099998) can0 401#0164000000000000
(946688571.109998) can0 001#4E010D0402020000
(946688571.109998) can0 002#D5034214D7030000
(946688571.129998) can0 001#4A010D0406020000
(946688571.129998) can0 002#D5034214DE030000
(946688571.129998) can0 18FF1515#000000034F01004F
(946688571.129998) can0 400#4646287529740000
(946688571.129998) can0 401#0065000000000000
(946688571.129998) can0 18FF01EA#0AA984DF7E007D50
(946688571.129998) can0 18FF02EA#0AA984DF7E007D50
(946688571.129998) can0 19B50001#8CA0960000000000
(946688571.129998) can0 19B50008#8286840000000000
(946688571.129998) can0 19B50100#9696969696969696
(946688571.129998) can0 19B50800#8484848484848484
(946688571.149998) can0 001#46010D0409020000
(946688571.149998) can0 002#D5034114E5030000
(946688571.159998) can0 18FF1515#000000034F01004F
(946688571.159998) can0 400#4949287328770000
(946688571.159998) can0 401#0164000000000000
(946688571.169998) can0 001#43010C040C020000
(946688571.169998) can0 002#D5033E14EB030000
(946688571.189998) can0 001#3F010B040F020000
(946688571.189998) can0 002#D5033B14F2030000
(946688571.189998) can0 18FF1515#000000034F01004F
(946688571.189998) can0 400#4A48277328790000
(946688571.189998) can0 401#0063000000000000
(946688571.209998) can0 001#3B010A0412020000
(946688571.209998) can0 002#D5033614F8030000
(946688571.219998) can0 18FF1515#000000034F01004F
(946688571.219998) can0 400#474A287228750000
(946688571.219998) can0 401#0062000000000000
(946688571.229998) can0 001#3801090415020000
(946688571.229998) can0 002#D5032F14FE030000
(946688571.239998) can0 18FF01EA#0AEF84DF7E007D50
(946688571.239998) can0 18FF02EA#0AEF84DF7E007D50
(946688571.239998) can0 19B50001#8CA0960000000000
(946688571.239998) can0 19B50008#8286840000000000
(946688571.239998) can0 19B50100#9696969696969696
(946688571.239998) can0 19B50800#8484848484848484
(946688571.249998) can0 001#3401070417020000
(946688571.249998) can0 002#D503271404040000
(946688571.249998) can0 18FF1515#000000034F01004F
(946688571.249998) can0 400#49492876287A0000
(946688571.249998) can0 401#0062000000000000
(946688571.269998) can0 001#3101060419020000
(946688571.269998) can0 002#D5031E140A040000
(946688571.279998) can0 18FF1515#000000034F01004F
(946688571.279998) can0 400#494A2878287A0000
(946688571.279998) can0 401#0163000000000000
(946688571.289998) can0 001#2D0104041B020000
(946688571.289998) can0 002#D503141411040000
(946688571.309998) can0 001#2A0101041D020000
(946688571.309998) can0 002#D503081417040000
(946688571.309998) can0 18FF1515#000000034F01004F
(946688571.309998) can0 400#4B4B287327790000
(946688571.309998) can0 401#0062000000000000
(946688571.329998) can0 001#2601FF031F020000
(946688571.329998) can0 002#D503FB131C040000
(946688571.339998) can0 18FF1515#000000034F01004F
(946688571.339998) can0 400#4A4D287328770000
(946688571.339998) can0 401#0063000000000000
(946688571.349998) can0 001#2301FC0320020000
(946688571.349998) can0 002#D503ED1322040000
(946688571.349998) can0 18FF01EA#0A3085DF7E007D50
(946688571.349998) can0 18FF02EA#0A3085DF7E007D50
(946688571.349998) can0 19B50001#8CA0960000000000
(946688571.349998) can0 19B50008#8286840000000000
(946688571.349998) can0 19B50100#9696969696969696
(946688571.349998) can0 19B50800#8484848484848484
(946688571.369998) can0 001#1F01F90322020000
(946688571.369998) can0 002#D503DD1328040000
(946688571.369998) can0 18FF1515#000000034F01004F
(946688571.369998) can0 400#4D4D287528720000
(946688571.369998) can0 401#0063000000000000
(946688571.389998) can0 001#1C01F50323020000
(946688571.389998) can0 002#D503CC132E040000
(946688571.399998) can0 18FF1515#000000034F01004F
(946688571.399998) can0 400#4D4B287328720000
(946688571.399998) can0 401#0062000000000000
(946688571.409998) can0 001#1801F20324020000
(946688571.409998) can0 002#D503BA1333040000
(946688571.409998) can0 18FF1080#0000000000000000
(946688571.409998) can0 18FF1180#0000000000000000
(946688571.409998) can0 18FF1280#0000000000000000
(946688571.409998) can0 18FFE180#0000000000000000
(946688571.409998) can0 18FFE280#0000000000000000
(946688571.429998) can0 001#1501EE0324020000
(946688571.429998) can0 002#D503A61339040000
(946688571.429998) can0 18FF1515#000000034F01004F
(946688571.429998) can0 400#4E4C297528750000
(946688571.429998) can0 401#0062000000000000
(946688571.449998) can0 001#1101EA0325020000
(946688571.449998) can0 002#D50392133E040000
(946688571.459998) can0 18FF1515#000000034F01004F
(946688571.459998) can0 400#504D277628730000
(946688571.459998) can0 401#0163000000000000
(946688571.459998) can0 18FF01EA#0A6D85DF7E007D50
(946688571.459998) can0 18FF02EA#0A6D85DF7E007D50
(946688571.459998) can0 19B50001#8CA0960000000000
(946688571.459998) can0 19B50008#8286840000000000
(946688571.459998) can0 19B50100#9696969696969696
(946688571.459998) can0 19B50800#8484848484848484
(946688571.469998) can0 001#0E01E50325020000
(946688571.469998) can0 002#D5037B1344040000
(946688571.489998) can0 001#0B01E00325020000
(946688571.489998) can0 002#D503641349040000
(946688571.489998) can0 18FF1515#000000034F01004F
(946688571.489998) can0 400#4E4E2779277C0000
(946688571.489998) can0 401#0162000000000000
(946688571.509998) can0 001#0801DB0325020000
(946688571.509998) can0 002#D5034B134F040000
(946688571.519998) can0 18FF1515#000000034F01004F
(946688571.519998) can0 400#514E277328780000
(946688571.519998) can0 401#0062000000000000
(946688571.529998) can0 001#0401D60325020000
(946688571.529998) can0 002#D503311354040000
(946688571.549998) can0 001#0101D10325020000
(946688571.549998) can0 002#D503161359040000
(946688571.549998) can0 18FF1515#000000034F01004F
(946688571.549998) can0 400#4F50277729750000
(946688571.549998) can0 401#0063000000000000
(946688571.569998) can0 001#FE00CB0324020000
(946688571.569998) can0 002#D503FA125E040000
(946688571.569998) can0 18FF01EA#0AA685DF7E007D50
(946688571.569998) can0 18FF02EA#0AA685DF7E007D50
(946688571.569998) can0 19B50001#8CA0960000000000
(946688571.569998) can0 19B50008#8286840000000000
(946688571.569998) can0 19B50100#9696969696969696
(946688571.569998) can0 19B50800#8484848484848484
(946688571.579998) can0 18FF1515#000000034F01004F
(946688571.579998) can0 400#4F50297827780000
(946688571.579998) can0 401#0063000000000000
(946688571.589998) can0 001#FB00C50323020000
(946688571.589998) can0 002#D503DC1263040000
(946688571.609998) can0 001#F800BF0322020000
(946688571.609998) can0 002#D503BD1268040000
(946688571.609998) can0 18FF1515#000000034F01004F
(946688571.609998) can0 400#51512777297B0000
(946688571.609998) can0 401#0063000000000000
(946688571.629997) can0 001#F500B90321020000
(946688571.629997) can0 002#D5039D126D040000
(946688571.639997) can0 18FF1515#000000034F01004F
(946688571.639997) can0 400#5052297B277C0000
(946688571.639997) can0 401#0062000000000000
(946688571.649997) can0 001#F100B2031F020000
(946688571.649997) can0 002#D5037C1272040000
(946688571.669997) can0 001#EE00AB031D020000
(946688571.669997) can0 002#D503591277040000
(946688571.669997) can0 18FF1515#000000034F01004F
(946688571.669997) can0 400#5353287627750000
(946688571.669997) can0 401#0063000000000000
(946688571.679997) can0 18FF01EA#0ADC85DF7E007D50
(946688571.679997) can0 18FF02EA#0ADC85DF7E007D50
(946688571.679997) can0 19B50001#8CA0960000000000
(946688571.679997) can0 19B50008#8286840000000000
(946688571.679997) can0 19B50100#9696969696969696
(946688571.679997) can0 19B50800#8484848484848484
(946688571.689997) can0 001#EB00A4031B020000
(946688571.689997) can0 002#D50335127B040000
(946688571.699997) can0 18FF1515#000000034F01004F
(946688571.699997) can0 400#5051287629770000
(946688571.699997) can0 401#0163000000000000
(946688571.709997) can0 001#E8009C0319020000
(946688571.709997) can0 002#D503101280040000
(946688571.729997) can0 001#E500950317020000
(946688571.729997) can0 002#D503EA1185040000
(946688571.729997) can0 18FF1515#000000034F01004F
(946688571.729997) can0 400#5255277C277B0000
(946688571.729997) can0 401#0064000000000000
(946688571.749997) can0 001#E3008D0315020000
(946688571.749997) can0 002#D503C31189040000
(946688571.759997) can0 18FF1515#000000034F01004F
(946688571.759997) can0 400#5553287827750000
(946688571.759997) can0 401#0063000000000000
(946688571.769997) can0 001#E000850312020000
(946688571.769997) can0 002#D5039B118E040000
(946688571.789997) can0 001#DD007D030F020000
(946688571.789997) can0 002#D503711192040000
(946688571.789997) can0 18FF1515#000000034F01004F
(946688571.789997) can0 400#5355287C28790000
(946688571.789997) can0 401#0064000000000000
(946688571.789997) can0 18FF01EA#0A0D86DF7E007D50
(946688571.789997) can0 18FF02EA#0A0D86DF7E007D50
(946688571.789997) can0 19B50001#8CA0960000000000
(946688571.789997) can0 19B50008#8286840000000000
(946688571.789997) can0 19B50100#9696969696969696
(946688571.789997) can0 19B50800#8484848484848484
(946688571.809997) can0 001#DA0074030C020000
(946688571.809997) can0 002#D503461196040000
(946688571.819997) can0 18FF1515#000000034F01004F
(946688571.819997) can0 400#52532774287B0000
(946688571.819997) can0 401#0064000000000000
(946688571.829997) can0 001#D7006B0309020000
(946688571.829997) can0 002#D5031A119B040000
(946688571.849997) can0 001#D400620305020000
(946688571.849997) can0 002#D503ED109F040000
(946688571.849997) can0 18FF1515#000000034F01004F
(946688571.849997) can0 400#5554297828750000
(946688571.849997) can0 401#0063000000000000
(946688571.869997) can0 001#D100590301020000
(946688571.869997) can0 002#D503BF10A3040000
(946688571.879997) can0 18FF1515#000000034F01004F
(946688571.879997) can0 400#5755287C29780000
(946688571.879997) can0 401#0164000000000000
(946688571.889997) can0 001#CF005003FE010000
(946688571.889997) can0 002#D5039010A7040000
(946688571.899997) can0 18FF01EA#0A3C86DF7E007D50
(946688571.899997) can0 18FF02EA#0A3C86DF7E007D50
(946688571.899997) can0 19B50001#8CA0960000000000
(946688571.899997) can0 19B50008#8286840000000000
(946688571.899997) can0 19B50100#9696969696969696
(946688571.899997) can0 19B50800#8484848484848484
(946688571.909997) can0 001#CC004603F9010000
(946688571.909997) can0 002#D5036010AC040000
(946688571.909997) can0 18FF1515#000000034F01004F
(946688571.909997) can0 400#56552977297C0000
(946688571.909997) can0 401#0065000000000000
(946688571.929997) can0 001#C9003C03F5010000
(946688571.929997) can0 002#D5032E10B0040000
(946688571.939997) can0 18FF1515#000000034F01004F
(946688571.939997) can0 400#5455277A28790000
(946688571.939997) can0 401#0166000000000000
(946688571.949997) can0 001#C7003203F1010000
(946688571.949997) can0 002#D503FC0FB4040000
(946688571.969997) can0 001#C4002803EC010000
(946688571.969997) can0 002#D503C90FB8040000
(946688571.969997) can0 18FF1515#000000034F01004F
(946688571.969997) can0 400#5756287A277B0000
(946688571.969997) can0 401#0066000000000000
(946688571.989997) can0 001#C1001D03E7010000
(946688571.989997) can0 002#D503940FBB040000
(946688571.999997) can0 18FF1515#000000034F01004F
(946688571.999997) can0 400#5656277C29780000
(946688571.999997) can0 401#0066000000000000
(946688572.009997) can0 001#BF001303E2010000
(946688572.009997) can0 002#D5035F0FBF040000
(946688572.009997) can0 18FF01EA#0A6786DF7E007D50
(946688572.009997) can0 18FF02EA#0A6786DF7E007D50
(946688572.009997) can0 19B50001#8CA0960000000000
(946688572.009997) can0 19B50008#8286840000000000
(946688572.009997) can0 19B50100#9696969696969696
(946688572.009997) can0 19B50800#8484848484848484
(946688572.019997) can0 18FF1080#0000000000000000
(946688572.019997) can0 18FF1180#0000000000000000
(946688572.019997) can0 18FF1280#0000000000000000
(946688572.019997) can0 18FFE180#0000000000000000
(946688572.019997) can0 18FFE280#0000000000000000
(946688572.029997) can0 001#BC000803DD010000
(946688572.029997) can0 002#D503280FC3040000
(946688572.029997) can0 18FF1515#000000034F01004F
(946688572.029997) can0 400#58582778287B0000
(946688572.029997) can0 401#0166000000000000
(946688572.049997) can0 001#BA00FD02D8010000
(946688572.049997) can0 002#D503F10EC7040000
(946688572.059997) can0 18FF1515#000000034F01004F
(946688572.059997) can0 400#5657287528780000
(946688572.059997) can0 401#0066000000000000
(946688572.069997) can0 001#B700F102D2010000
(946688572.069997) can0 002#D503B80ECB040000
(946688572.089997) can0 001#B500E602CC010000
(946688572.089997) can0 002#D5037F0ECE040000
(946688572.089997) can0 18FF1515#000000034F01004F
(946688572.089997) can0 400#5757297527750000
(946688572.089997) can0 401#0166000000000000
(946688572.109997) can0 001#B200DA02C6010000
(946688572.109997) can0 002#D503450ED2040000
(946688572.119997) can0 18FF1515#000000034F01004F
(946688572.119997) can0 400#57592875297B0000
(946688572.119997) can0 401#0066000000000000
(946688572.119997) can0 18FF01EA#0A8F86DF7E007D50
(946688572.119997) can0 18FF02EA#0A8F86DF7E007D50
(946688572.119997) can0 19B50001#8CA0960000000000
(946688572.119997) can0 19B50008#8286840000000000
(946688572.119997) can0 19B50100#9696969696969696
(946688572.119997) can0 19B50800#8484848484848484
(946688572.129997) can0 001#B000CE02C0010000
(946688572.129997) can0 002#D5030A0ED5040000
(946688572.149997) can0 001#AE00C202BA010000
(946688572.149997) can0 002#D503CD0DD9040000
(946688572.149997) can0 18FF1515#000000034F01004F
(946688572.149997) can0 400#5959297E287D0000
(946688572.149997) can0 401#0168000000000000
(946688572.169997) can0 001#AB00B602B4010000
(946688572.169997) can0 002#D503900DDC040000
(946688572.179997) can0 18FF1515#000000034F01004F
(946688572.179997) can0 400#59592778277B0000
(946688572.179997) can0 401#0068000000000000
(946688572.189997) can0 001#A900AA02AD010000
(946688572.189997) can0 002#D503520DE0040000
(946688572.209997) can0 001#A7009D02A6010000
(946688572.209997) can0 002#D503140DE3040000
(946688572.209997) can0 18FF1515#000000034F01004F
(946688572.209997) can0 400#5A5B277A287D0000
(946688572.209997) can0 401#0168000000000000
(946688572.229997) can0 001#A40090029F010000
(946688572.229997) can0 002#D503D40CE6040000
(946688572.229997) can0 18FF01EA#0AB486DF7E007D50
(946688572.229997) can0 18FF02EA#0AB486DF7E007D50
(946688572.229997) can0 19B50001#8CA0960000000000
(946688572.229997) can0 19B50008#8286840000000000
(946688572.229997) can0 19B50100#9696969696969696
(946688572.229997) can0 19B50800#8484848484848484
(946688572.239997) can0 18FF1515#000000034F01004F
(946688572.239997) can0 400#5B5B287727760000
(946688572.239997) can0 401#0169000000000000
(946688572.249997) can0 001#A200840298010000
(946688572.249997) can0 002#D503940CEA040000
(946688572.269997) can0 001#A000760291010000
(946688572.269997) can0 002#D503520CED040000
(946688572.269997) can0 18FF1515#000000034F01004F
(946688572.269997) can0 400#5B5B2877277F0000
(946688572.269997) can0 401#016A000000000000
(946688572.289997) can0 001#9E0069028A010000
(946688572.289997) can0 002#D503100CF0040000
(946688572.299997) can0 18FF1515#000000034F01004F
(946688572.299997) can0 400#5D5C2976287C0000
(946688572.299997) can0 401#016A000000000000
(946688572.309997) can0 001#9C005C0282010000
(946688572.309997) can0 002#D503CE0BF3040000
(946688572.329997) can0 001#99004E027A010000
(946688572.329997) can0 002#D5038A0BF6040000
(946688572.329997) can0 18FF1515#000000034F01004F
(946688572.329997) can0 400#5B5A2875297B0000
(946688572.329997) can0 401#006B000000000000
(946688572.339997) can0 18FF01EA#0AD686DF7E007D50
(946688572.339997) can0 18FF02EA#0AD686DF7E007D50
(946688572.339997) can0 19B50001#8CA0960000000000
(946688572.339997) can0 19B50008#8286840000000000
(946688572.339997) can0 19B50100#9696969696969696
(946688572.339997) can0 19B50800#8484848484848484
(946688572.349997) can0 001#9700410272010000
(946688572.349997) can0 002#D503460BF9040000
(946688572.359997) can0 18FF1515#000000034F01004F
(946688572.359997) can0 400#5D59297D29790000
(946688572.359997) can0 401#006C000000000000
(946688572.369997) can0 001#950033026A010000
(946688572.369997) can0 002#D503010BFC040000
(946688572.389997) can0 001#9300250262010000
(946688572.389997) can0 002#D503BB0AFF040000
(946688572.389997) can0 18FF1515#000000034F01004F
(946688572.389997) can0 400#5C5A2878287B0000
(946688572.389997) can0 401#006D000000000000
(946688572.409997) can0 001#910017025A010000
(946688572.409997) can0 002#D503740A02050000
(946688572.419997) can0 18FF1515#000000034F01004F
(946688572.419997) can0 400#5D5D277927760000
(946688572.419997) can0 401#016D000000000000
(946688572.429997) can0 001#8F00090252010000
(946688572.429997) can0 002#D5032D0A05050000
(946688572.449997) can0 001#8D00FA0149010000
(946688572.449997) can0 002#D503E60908050000
(946688572.449997) can0 18FF1515#000000034F01004F
(946688572.449997) can0 400#5D5E287728770000
(946688572.449997) can0 401#016D000000000000
(946688572.449997) can0 18FF01EA#0AF686DF7E007D50
(946688572.449997) can0 18FF02EA#0AF686DF7E007D50
(946688572.449997) can0 19B50001#8CA0960000000000
(946688572.449997) can0 19B50008#8286840000000000
(946688572.449997) can0 19B50100#9696969696969696
(946688572.449997) can0 19B50800#8484848484848484
(946688572.469997) can0 001#8B00EC0140010000
(946688572.469997) can0 002#D5039D090B050000
(946688572.479997) can0 18FF1515#000000034F01004F
(946688572.479997) can0 400#5E5C2779297B0000
(946688572.479997) can0 401#006F000000000000
(946688572.489997) can0 001#8900DD0137010000
(946688572.489997) can0 002#D50354090D050000
(946688572.509997) can0 001#8700CF012E010000
(946688572.509997) can0 002#D5030B0910050000
(946688572.509997) can0 18FF1515#000000034F01004F
(946688572.509997) can0 400#5B5D297B277F0000
(946688572.509997) can0 401#006E000000000000
(946688572.529997) can0 001#8500C00125010000
(946688572.529997) can0 002#D503C00813050000
(946688572.539997) can0 18FF1515#000000034F01004F
(946688572.539997) can0 400#5E5F287F287E0000
(946688572.539997) can0 401#016F000000000000
(946688572.549997) can0 001#8400B1011C010000
(946688572.549997) can0 002#D503760815050000
(946688572.559997) can0 18FF01EA#0A1487DF7E007D50
(946688572.559997) can0 18FF02EA#0A1487DF7E007D50
(946688572.559997) can0 19B50001#8CA0960000000000
(946688572.559997) can0 19B50008#8286840000000000
(946688572.559997) can0 19B50100#9696969696969696
(946688572.559997) can0 19B50800#8484848484848484
(946688572.569997) can0 001#8200A20113010000
(946688572.569997) can0 002#D5032A0818050000
(946688572.569997) can0 18FF1515#000000034F01004F
(946688572.569997) can0 400#5C5E297C28760000
(946688572.569997) can0 401#0071000000000000
(946688572.589997) can0 001#8000930109010000
(946688572.589997) can0 002#D503DF071B050000
(946688572.599997) can0 18FF1515#000000034F01004F
(946688572.599997) can0 400#5D5F2977287E0000
(946688572.599997) can0 401#0172000000000000
(946688572.609997) can0 001#7E00830100010000
(946688572.609997) can0 002#D50392071D050000
(946688572.629997) can0 001#7C007401F6000000
(946688572.629997) can0 002#D503460720050000
(946688572.629997) can0 18FF1515#000000034F01004F
(946688572.629997) can0 400#605F277F297F0000
(946688572.629997) can0 401#0172000000000000
(946688572.629997) can0 18FF1080#0000000000000000
(946688572.629997) can0 18FF1180#0000000000000000
(946688572.629997) can0 18FF1280#0000000000000000
(946688572.629997) can0 18FFE180#0000000000000000
(946688572.629997) can0 18FFE280#0000000000000000
(946688572.649997) can0 001#7B006401EC000000
(946688572.649997) can0 002#D503F80622050000
(946688572.659997) can0 18FF1515#000000034F01004F
(946688572.659997) can0 400#605E287B287F0000
(946688572.659997) can0 401#0072000000000000
(946688572.669997) can0 001#79005501E2000000
(946688572.669997) can0 002#D503AB0625050000
(946688572.669997) can0 18FF01EA#0A2F87DF7E007D50
(946688572.669997) can0 18FF02EA#0A2F87DF7E007D50
(946688572.669997) can0 19B50001#8CA0960000000000
(946688572.669997) can0 19B50008#8286840000000000
(946688572.669997) can0 19B50100#9696969696969696
(946688572.669997) can0 19B50800#8484848484848484
(946688572.689996) can0 001#77004501D8000000
(946688572.689996) can0 002#D5035D0627050000
(946688572.689996) can0 18FF1515#000000034F01004F
(946688572.689996) can0 400#605D297C287C0000
(946688572.689996) can0 401#0174000000000000
(946688572.709996) can0 001#75003601CE000000
(946688572.709996) can0 002#D5030E0629050000
(946688572.719996) can0 18FF1515#000000034F01004F
(946688572.719996) can0 400#605E297B297D0000
(946688572.719996) can0 401#0075000000000000
(946688572.729996) can0 001#74002601C4000000
(946688572.729996) can0 002#D503BF052C050000
(946688572.749996) can0 001#72001601BA000000
(946688572.749996) can0 002#D50370052E050000
(946688572.749996) can0 18FF1515#000000034F01004F
(946688572.749996) can0 400#5F602877277B0000
(946688572.749996) can0 401#0076000000000000
(946688572.769996) can0 001#70000601B0000000
(946688572.769996) can0 002#D503210530050000
(946688572.779996) can0 18FF1515#000000034F01004F
(946688572.779996) can0 400#5E5E2878287A0000
(946688572.779996) can0 401#0077000000000000
(946688572.779996) can0 18FF01EA#0A4987DF7E007D50
(946688572.779996) can0 18FF02EA#0A4987DF7E007D50
(946688572.779996) can0 19B50001#8CA0960000000000
(946688572.779996) can0 19B50008#8286840000000000
(946688572.779996) can0 19B50100#9696969696969696
(946688572.779996) can0 19B50800#8484848484848484
(946688572.789996) can0 001#6F00F600A5000000
(946688572.789996) can0 002#D503D10433050000
(946688572.809996) can0 001#6D00E6009B000000
(946688572.809996) can0 002#D503810435050000
(946688572.809996) can0 18FF1515#000000034F01004F
(946688572.809996) can0 400#6060277B28800000
(946688572.809996) can0 401#0177000000000000
(946688572.829996) can0 001#6C00D60090000000
(946688572.829996) can0 002#D503300437050000
(946688572.839996) can0 18FF1515#000000034F01004F
(946688572.839996) can0 400#615E287A29780000
(946688572.839996) can0 401#0078000000000000
(946688572.849996) can0 001#6A00C60085000000
(946688572.849996) can0 002#D503E00339050000
(946688572.869996) can0 001#6900B6007B000000
(946688572.869996) can0 002#D5038F033B050000
(946688572.869996) can0 18FF1515#000000034F01004F
(946688572.869996) can0 400#5F612979287F0000
(946688572.869996) can0 401#0078000000000000
(946688572.889996) can0 001#6700A60070000000
(946688572.889996) can0 002#D5033E033D050000
(946688572.889996) can0 18FF01EA#0A6087DF7E007D50
(946688572.889996) can0 18FF02EA#0A6087DF7E007D50
(946688572.889996) can0 19B50001#8CA0960000000000
(946688572.889996) can0 19B50008#8286840000000000
(946688572.889996) can0 19B50100#9696969696969696
(946688572.889996) can0 19B50800#8484848484848484
(946688572.899996) can0 18FF1515#000000034F01004F
(946688572.899996) can0 400#5F60287727790000
(946688572.899996) can0 401#0178000000000000
(946688572.909996) can0 001#6600950065000000
(946688572.909996) can0 002#D503EC023F050000
(946688572.929996) can0 001#640085005A000000
(946688572.929996) can0 002#D5039B0241050000
(946688572.929996) can0 18FF1515#000000034F01004F
(946688572.929996) can0 400#615F297A287A0000
(946688572.929996) can0 401#007A000000000000
(946688572.949996) can0 001#630075004F000000
(946688572.949996) can0 002#D503490243050000
(946688572.959996) can0 18FF1515#000000034F01004F
(946688572.959996) can0 400#6061287F287A0000
(946688572.959996) can0 401#017B000000000000
(946688572.969996) can0 001#6100640044000000
(946688572.969996) can0 002#D503F70145050000
(946688572.989996) can0 001#6000540039000000
(946688572.989996) can0 002#D503A60147050000
(946688572.989996) can0 18FF1515#000000034F01004F
(946688572.989996) can0 400#5F622880297F0000
(946688572.989996) can0 401#007C000000000000
(946688572.999996) can0 18FF01EA#0A7687DF7E007D50
(946688572.999996) can0 18FF02EA#0A7687DF7E007D50
(946688572.999996) can0 19B50001#8CA0960000000000
(946688572.999996) can0 19B50008#8286840000000000
(946688572.999996) can0 19B50100#9696969696969696
(946688572.999996) can0 19B50800#8484848484848484
(946688573.009996) can0 001#5E0044002E000000
(946688573.009996) can0 002#D503540149050000
(946688573.009996) can0 18FF1515#000000034F01004F
(946688573.009996) can0 400#6062297C297B0000
(946688573.009996) can0 401#007D000000000000
(946688573.029996) can0 001#5D00330023000000
(946688573.029996) can0 002#D50302014B050000
(946688573.039996) can0 18FF1515#000000034F01004F
(946688573.039996) can0 400#6360287A297B0000
(946688573.039996) can0 401#007E000000000000
(946688573.049996) can0 001#5C00230018000000
(946688573.049996) can0 002#D503B0004D050000
(946688573.069996) can0 001#5A0012000C000000
(946688573.069996) can0 002#D5035E004F050000
(946688573.069996) can0 18FF1515#000000034F01004F
(946688573.069996) can0 400#6260287727790000
(946688573.069996) can0 401#007E000000000000
(946688573.089996) can0 001#5900020001000000
(946688573.089996) can0 002#D5030C0050050000
(946688573.099996) can0 18FF1515#000000034F01004F
(946688573.099996) can0 400#6360287C29810000
(946688573.099996) can0 401#007F000000000000
(946688573.109996) can0 001#5800F3FFF7FF0000
(946688573.109996) can0 002#D503BBFF52050000
(946688573.109996) can0 18FF01EA#0A8A87DF7E007D50
(946688573.109996) can0 18FF02EA#0A8A87DF7E007D50
(946688573.109996) can0 19B50001#8CA0960000000000
(946688573.109996) can0 19B50008#8286840000000000
(946688573.109996) can0 19B50100#9696969696969696
(946688573.109996) can0 19B50800#8484848484848484
(946688573.129996) can0 001#5600E2FFECFF0000
(946688573.129996) can0 002#D50369FF54050000
(946688573.129996) can0 18FF1515#000000034F01004F
(946688573.129996) can0 400#6163287A28800000
(946688573.129996) can0 401#0080000000000000
(946688573.149996) can0 001#5500D2FFE0FF0000
(946688573.149996) can0 002#D50317FF56050000
(946688573.159996) can0 18FF1515#000000034F01004F
(946688573.159996) can0 400#6360287A29790000
(946688573.159996) can0 401#0081000000000000
(946688573.169996) can0 001#5400C1FFD5FF0000
(946688573.169996) can0 002#D503C5FE57050000
(946688573.189996) can0 001#5300B1FFCAFF0000
(946688573.189996) can0 002#D50373FE59050000
(946688573.189996) can0 18FF1515#000000034F01004F
(946688573.189996) can0 400#6063287828800000
(946688573.189996) can0 401#0081000000000000
(946688573.209996) can0 001#5200A1FFBEFF0000
(946688573.209996) can0 002#D50322FE5B050000
(946688573.219996) can0 18FF1515#000000034F01004F
(946688573.219996) can0 400#6261287E287A0000
(946688573.219996) can0 401#0082000000000000
(946688573.219996) can0 18FF01EA#0A9C87DF7E007D50
(946688573.219996) can0 18FF02EA#0A9C87DF7E007D50
(946688573.219996) can0 19B50001#8CA0960000000000
(946688573.219996) can0 19B50008#8286840000000000
(946688573.219996) can0 19B50100#9696969696969696
(946688573.219996) can0 19B50800#8484848484848484
(946688573.229996) can0 001#500090FFB3FF0000
(946688573.229996) can0 002#D503D0FD5C050000
(946688573.239996) can0 18FF1080#0000000000000000
(946688573.239996) can0 18FF1180#0000000000000000
(946688573.239996) can0 18FF1280#0000000000000000
(946688573.239996) can0 18FFE180#0000000000000000
(946688573.239996) can0 18FFE280#0000000000000000
(946688573.249996) can0 001#4F0080FFA8FF0000
(946688573.249996) can0 002#D5037FFD5E050000
(946688573.249996) can0 18FF1515#000000034F01004F
(946688573.249996) can0 400#6364297827780000
(946688573.249996) can0 401#0082000000000000
(946688573.269996) can0 001#4E0070FF9CFF0000
(946688573.269996) can0 002#D5032EFD5F050000
(946688573.279996) can0 18FF1515#000000034F01004F
(946688573.279996) can0 400#62622979287D0000
(946688573.279996) can0 401#0183000000000000
(946688573.289996) can0 001#4D0060FF91FF0000
(946688573.289996) can0 002#D503DDFC61050000
(946688573.309996) can0 001#4C0050FF85FF0000
(946688573.309996) can0 002#D5038CFC63050000
(946688573.309996) can0 18FF1515#000000034F01004F
(946688573.309996) can0 400#6364287D297E0000
(946688573.309996) can0 401#0185000000000000
(946688573.329996) can0 001#4B0040FF7AFF0000
(946688573.329996) can0 002#D5033CFC64050000
(946688573.329996) can0 18FF01EA#0AAD87DF7E007D50
(946688573.329996) can0 18FF02EA#0AAD87DF7E007D50
(946688573.329996) can0 19B50001#8CA0960000000000
(946688573.329996) can0 19B50008#8286840000000000
(946688573.329996) can0 19B50100#9696969696969696
(946688573.329996) can0 19B50800#8484848484848484
(946688573.339996) can0 18FF1515#000000034F01004F
(946688573.339996) can0 400#6162297C297C0000
(946688573.339996) can0 401#0086000000000000
(946688573.349996) can0 001#490030FF6FFF0000
(946688573.349996) can0 002#D503ECFB66050000
(946688573.369996) can0 001#480020FF64FF0000
(946688573.369996) can0 002#D5039CFB67050000
(946688573.369996) can0 18FF1515#000000034F01004F
(946688573.369996) can0 400#6562287C28780000
(946688573.369996) can0 401#0087000000000000
(946688573.389996) can0 001#470010FF58FF0000
(946688573.389996) can0 002#D5034CFB68050000
(946688573.399996) can0 18FF1515#000000034F01004F
(946688573.399996) can0 400#65642980277E0000
(946688573.399996) can0 401#0087000000000000
(946688573.409996) can0 001#460000FF4DFF0000
(946688573.409996) can0 002#D503FDFA6A050000
(946688573.429996) can0 001#4500F0FE42FF0000
(946688573.429996) can0 002#D503AFFA6B050000
(946688573.429996) can0 18FF1515#000000034F01004F
(946688573.429996) can0 400#6565297C277E0000
(946688573.429996) can0 401#0089000000000000
(946688573.439996) can0 18FF01EA#0ABD87DF7E007D50
(946688573.439996) can0 18FF02EA#0ABD87DF7E007D50
(946688573.439996) can0 19B50001#8CA0960000000000
(946688573.439996) can0 19B50008#8286840000000000
(946688573.439996) can0 19B50100#9696969696969696
(946688573.439996) can0 19B50800#8484848484848484
(946688573.449996) can0 001#4400E0FE37FF0000
(946688573.449996) can0 002#D50360FA6D050000
(946688573.459996) can0 18FF1515#000000034F01004F
(946688573.459996) can0 400#6366297C29810000
(946688573.459996) can0 401#0089000000000000
(946688573.469996) can0 001#4300D1FE2BFF0000
(946688573.469996) can0 002#D50312FA6E050000
(946688573.489996) can0 001#4200C1FE20FF0000
(946688573.489996) can0 002#D503C4F96F050000
(946688573.489996) can0 18FF1515#000000034F01004F
(946688573.489996) can0 400#6365297B297A0000
(946688573.489996) can0 401#008A000000000000
(946688573.509996) can0 001#4100B2FE15FF0000
(946688573.509996) can0 002#D50377F971050000
(946688573.519996) can0 18FF1515#000000034F01004F
(946688573.519996) can0 400#6265287D297F0000
(946688573.519996) can0 401#008B000000000000
(946688573.529996) can0 001#4000A3FE0AFF0000
(946688573.529996) can0 002#D5032BF972050000
(946688573.549996) can0 001#3F0093FEFFFE0000
(946688573.549996) can0 002#D503DEF873050000
(946688573.549996) can0 18FF1515#000000034F01004F
(946688573.549996) can0 400#6462287827790000
(946688573.549996) can0 401#018C000000000000
(946688573.549996) can0 18FF01EA#0ACB87DF7E007D50
(946688573.549996) can0 18FF02EA#0ACB87DF7E007D50
(946688573.549996) can0 19B50001#8CA0960000000000
(946688573.549996) can0 19B50008#8286840000000000
(946688573.549996) can0 19B50100#9696969696969696
(946688573.549996) can0 19B50800#8484848484848484
(946688573.569996) can0 001#3E0084FEF4FE0000
(946688573.569996) can0 002#D50393F875050000
(946688573.579996) can0 18FF1515#000000034F01004F
(946688573.579996) can0 400#6465287E297B0000
(946688573.579996) can0 401#008C000000000000
(946688573.589996) can0 001#3D0075FEEAFE0000
(946688573.589996) can0 002#D50347F876050000
(946688573.609996) can0 001#3C0066FEDFFE0000
(946688573.609996) can0 002#D503FDF777050000
(946688573.609996) can0 18FF1515#000000034F01004F
(946688573.609996) can0 400#6663297A27800000
(946688573.609996) can0 401#008E000000000000
(946688573.629996) can0 001#3C0057FED4FE0000
(946688573.629996) can0 002#D503B2F778050000
(946688573.639996) can0 18FF1515#000000034F01004F
(946688573.639996) can0 400#63652879297F0000
(946688573.639996) can0 401#008E000000000000
(946688573.649996) can0 001#3B0049FEC9FE0000
(946688573.649996) can0 002#D50369F779050000
(946688573.659996) can0 18FF01EA#0AD887DF7E007D50
(946688573.659996) can0 18FF02EA#0AD887DF7E007D50
(946688573.659996) can0 19B50001#8CA0960000000000
(946688573.659996) can0 19B50008#8286840000000000
(946688573.659996) can0 19B50100#9696969696969696
(946688573.659996) can0 19B50800#8484848484848484
(946688573.669996) can0 001#3A003AFEBFFE0000
(946688573.669996) can0 002#D50320F77B050000
(946688573.669996) can0 18FF1515#000000034F01004F
(946688573.669996) can0 400#6463287929790000
(946688573.669996) can0 401#008F000000000000
(946688573.689996) can0 001#39002BFEB4FE0000
(946688573.689996) can0 002#D503D7F67C050000
(946688573.699996) can0 18FF1515#000000034F01004F
(946688573.699996) can0 400#6664287E287D0000
(946688573.699996) can0 401#0190000000000000
(946688573.709996) can0 001#38001DFEAAFE0000
(946688573.709996) can0 002#D50390F67D050000
(946688573.729995) can0 001#37000FFE9FFE0000
(946688573.729995) can0 002#D50349F67E050000
(946688573.729995) can0 18FF1515#000000034F01004F
(946688573.729995) can0 400#6463297A29790000
(946688573.729995) can0 401#0090000000000000
(946688573.749995) can0 001#360001FE95FE0000
(946688573.749995) can0 002#D50302F67F050000
(946688573.759995) can0 18FF1515#000000034F01004F
(946688573.759995) can0 400#6564287D297E0000
(946688573.759995) can0 401#0091000000000000
(946688573.769995) can0 001#3600F3FD8BFE0000
(946688573.769995) can0 002#D503BCF580050000
(946688573.769995) can0 18FF01EA#0AE587DF7E007D50
(946688573.769995) can0 18FF02EA#0AE587DF7E007D50
(946688573.769995) can0 19B50001#8CA0960000000000
(946688573.769995) can0 19B50008#8286840000000000
(946688573.769995) can0 19B50100#9696969696969696
(946688573.769995) can0 19B50800#8484848484848484
(946688573.789995) can0 001#3500E5FD81FE0000
(946688573.789995) can0 002#D50377F581050000
(946688573.789995) can0 18FF1515#000000034F01004F
(946688573.789995) can0 400#6565287D29800000
(946688573.789995) can0 401#0093000000000000
(946688573.809995) can0 001#3400D7FD77FE0000
(946688573.809995) can0 002#D50333F582050000
(946688573.819995) can0 18FF1515#000000034F01004F
(946688573.819995) can0 400#66662880287B0000
(946688573.819995) can0 401#0092000000000000
(946688573.829995) can0 001#3300CAFD6DFE0000
(946688573.829995) can0 002#D503EFF483050000
(946688573.849995) can0 001#3200BDFD63FE0000
(946688573.849995) can0 002#D503ADF484050000
(946688573.849995) can0 18FF1515#000000034F01004F
(946688573.849995) can0 400#6467288129800000
(946688573.849995) can0 401#0093000000000000
(946688573.849995) can0 18FF1080#0000000000000000
(946688573.849995) can0 18FF1180#0000000000000000
(946688573.849995) can0 18FF1280#0000000000000000
(946688573.849995) can0 18FFE180#0000000000000000
(946688573.849995) can0 18FFE280#0000000000000000
(946688573.869995) can0 001#3200AFFD59FE0000
(946688573.869995) can0 002#D5036AF485050000
(946688573.879995) can0 18FF1515#000000034F01004F
(946688573.879995) can0 400#6765287B28810000
(946688573.879995) can0 401#0095000000000000
(946688573.879995) can0 18FF01EA#0AF087DF7E007D50
(946688573.879995) can0 18FF02EA#0AF087DF7E007D50
(946688573.879995) can0 19B50001#8CA0960000000000
(946688573.879995) can0 19B50008#8286840000000000
(946688573.879995) can0 19B50100#9696969696969696
(946688573.879995) can0 19B50800#8484848484848484
(946688573.889995) can0 001#3100A2FD50FE0000
(946688573.889995) can0 002#D50329F486050000
(946688573.909995) can0 001#300095FD46FE0000
(946688573.909995) can0 002#D503E9F387050000
(946688573.909995) can0 18FF1515#000000034F01004F
(946688573.909995) can0 400#6466278128810000
(946688573.909995) can0 401#0095000000000000
(946688573.929995) can0 001#2F0089FD3DFE0000
(946688573.929995) can0 002#D503A9F388050000
(946688573.939995) can0 18FF1515#000000034F01004F
(946688573.939995) can0 400#6665297A287B0000
(946688573.939995) can0 401#0196000000000000
(946688573.949995) can0 001#2F007CFD34FE0000
(946688573.949995) can0 002#D5036AF389050000
(946688573.969995) can0 001#2E0070FD2AFE0000
(946688573.969995) can0 002#D5032CF38A050000
(946688573.969995) can0 18FF1515#000000034F01004F
(946688573.969995) can0 400#6667297D297D0000
(946688573.969995) can0 401#0196000000000000
(946688573.989995) can0 001#2D0063FD21FE0000
(946688573.989995) can0 002#D503EFF28B050000
(946688573.989995) can0 18FF01EA#0AFA87DF7E007D50
(946688573.989995) can0 18FF02EA#0AFA87DF7E007D50
(946688573.989995) can0 19B50001#8CA0960000000000
(946688573.989995) can0 19B50008#8286840000000000
(946688573.989995) can0 19B50100#9696969696969696
(946688573.989995) can0 19B50800#8484848484848484
(946688573.999995) can0 18FF1515#000000034F01004F
(946688573.999995) can0 400#6766277928810000
(946688573.999995) can0 401#0196000000000000
(946688574.009995) can0 001#2D0057FD18FE0000
(946688574.009995) can0 002#D503B3F28C050000
(946688574.029995) can0 001#2C004BFD10FE0000
(946688574.029995) can0 002#D50377F28D050000
(946688574.029995) can0 18FF1515#000000034F01004F
(946688574.029995) can0 400#6564297F29780000
(946688574.029995) can0 401#0098000000000000
(946688574.049995) can0 001#2B0040FD07FE0000
(946688574.049995) can0 002#D5033DF28E050000
(946688574.059995) can0 18FF1515#000000034F01004F
(946688574.059995) can0 400#65662881287C0000
(946688574.059995) can0 401#0199000000000000
(946688574.069995) can0 001#2B0034FDFEFD0000
(946688574.069995) can0 002#D50303F28F050000
(946688574.089995) can0 001#2A0029FDF6FD0000
(946688574.089995) can0 002#D503CBF18F050000
(946688574.089995) can0 18FF1515#000000034F01004F
(946688574.089995) can0 400#6564287B297F0000
(946688574.089995) can0 401#0198000000000000
(946688574.099995) can0 18FF01EA#0A0488DF7E007D50
(946688574.099995) can0 18FF02EA#0A0488DF7E007D50
(946688574.099995) can0 19B50001#8CA0960000000000
(946688574.099995) can0 19B50008#8286840000000000
(946688574.099995) can0 19B50100#9696969696969696
(946688574.099995) can0 19B50800#8484848484848484
(946688574.109995) can0 001#29001EFDEEFD0000
(946688574.109995) can0 002#D50393F190050000
(946688574.119995) can0 18FF1515#000000034F01004F
(946688574.119995) can0 400#6765287E29800000
(946688574.119995) can0 401#0199000000000000
(946688574.129995) can0 001#290013FDE5FD0000
(946688574.129995) can0 002#D5035DF191050000
(946688574.149995) can0 001#280008FDDDFD0000
(946688574.149995) can0 002#D50327F192050000
(946688574.149995) can0 18FF1515#000000034F01004F
(946688574.149995) can0 400#6567287928810000
(946688574.149995) can0 401#009A000000000000
(946688574.169995) can0 001#2700FEFCD5FD0000
(946688574.169995) can0 002#D503F2F093050000
(946688574.179995) can0 18FF1515#000000034F01004F
(946688574.179995) can0 400#6665287928790000
(946688574.179995) can0 401#009B000000000000
(946688574.189995) can0 001#2700F3FCCEFD0000
(946688574.189995) can0 002#D503BFF094050000
(946688574.209995) can0 001#2600E9FCC6FD0000
(946688574.209995) can0 002#D5038CF094050000
(946688574.209995) can0 18FF1515#000000034F01004F
(946688574.209995) can0 400#6666297A297B0000
(946688574.209995) can0 401#019C000000000000
(946688574.209995) can0 18FF01EA#0A0D88DF7E007D50
(946688574.209995) can0 18FF02EA#0A0D88DF7E007D50
(946688574.209995) can0 19B50001#8CA0960000000000
(946688574.209995) can0 19B50008#8286840000000000
(946688574.209995) can0 19B50100#9696969696969696
(946688574.209995) can0 19B50800#8484848484848484
(946688574.229995) can0 001#2600DFFCBFFD0000
(946688574.229995) can0 002#D5035AF095050000
(946688574.239995) can0 18FF1515#000000034F01004F
(946688574.239995) can0 400#6665287D297F0000
(946688574.239995) can0 401#019D000000000000
(946688574.249995) can0 001#2500D6FCB7FD0000
(946688574.249995) can0 002#D5032AF096050000
(946688574.269995) can0 001#2500CCFCB0FD0000
(946688574.269995) can0 002#D503FAEF97050000
(946688574.269995) can0 18FF1515#000000034F01004F
(946688574.269995) can0 400#6867287B287E0000
(946688574.269995) can0 401#009D000000000000
(946688574.289995) can0 001#2400C3FCA9FD0000
(946688574.289995) can0 002#D503CCEF97050000
(946688574.299995) can0 18FF1515#000000034F01004F
(946688574.299995) can0 400#6868287828820000
(946688574.299995) can0 401#009C000000000000
(946688574.309995) can0 001#2300BAFCA2FD0000
(946688574.309995) can0 002#D5039FEF98050000
(946688574.319995) can0 18FF01EA#0A1588DF7E007D50
(946688574.319995) can0 18FF02EA#0A1588DF7E007D50
(946688574.319995) can0 19B50001#8CA0960000000000
(946688574.319995) can0 19B50008#8286840000000000
(946688574.319995) can0 19B50100#9696969696969696
(946688574.319995) can0 19B50800#8484848484848484
(946688574.329995) can0 001#2300B1FC9CFD0000
(946688574.329995) can0 002#D50372EF99050000
(946688574.329995) can0 18FF1515#000000034F01004F
(946688574.329995) can0 400#6768297A297C0000
(946688574.329995) can0 401#009E000000000000
(946688574.349995) can0 001#2200A8FC95FD0000
(946688574.349995) can0 002#D50347EF99050000
(946688574.359995) can0 18FF1515#000000034F01004F
(946688574.359995) can0 400#69672979287D0000
(946688574.359995) can0 401#009E000000000000
(946688574.369995) can0 001#2200A0FC8FFD0000
(946688574.369995) can0 002#D5031DEF9A050000
(946688574.389995) can0 001#210098FC88FD0000
(946688574.389995) can0 002#D503F4EE9B050000
(946688574.389995) can0 18FF1515#000000034F01004F
(946688574.389995) can0 400#6766298228780000
(946688574.389995) can0 401#009E000000000000
(946688574.409995) can0 001#210090FC82FD0000
(946688574.409995) can0 002#D503CDEE9B050000
(946688574.419995) can0 18FF1515#000000034F01004F
(946688574.419995) can0 400#66682979287F0000
(946688574.419995) can0 401#009E000000000000
(946688574.429995) can0 001#200088FC7DFD0000
(946688574.429995) can0 002#D503A6EE9C050000
(946688574.429995) can0 18FF01EA#0A1C88DF7E007D50
(946688574.429995) can0 18FF02EA#0A1C88DF7E007D50
(946688574.429995) can0 19B50001#8CA0960000000000
(946688574.429995) can0 19B50008#8286840000000000
(946688574.429995) can0 19B50100#9696969696969696
(946688574.429995) can0 19B50800#8484848484848484
(946688574.449995) can0 001#200081FC77FD0000
(946688574.449995) can0 002#D50381EE9D050000
(946688574.449995) can0 18FF1515#000000034F01004F
(946688574.449995) can0 400#6565297D29800000
(946688574.449995) can0 401#009F000000000000
(946688574.459995) can0 18FF1080#0000000000000000
(946688574.459995) can0 18FF1180#0000000000000000
(946688574.459995) can0 18FF1280#0000000000000000
(946688574.459995) can0 18FFE180#0000000000000000
(946688574.459995) can0 18FFE280#0000000000000000
(946688574.469995) can0 001#1F0079FC71FD0000
(946688574.469995) can0 002#D5035CEE9D050000
(946688574.479995) can0 18FF1515#000000034F01004F
(946688574.479995) can0 400#6769287B287F0000
(946688574.479995) can0 401#00A1000000000000
(946688574.489995) can0 001#1F0072FC6CFD0000
(946688574.489995) can0 002#D50339EE9E050000
(946688574.509995) can0 001#1E006BFC67FD0000
(946688574.509995) can0 002#D50317EE9F050000
(946688574.509995) can0 18FF1515#000000034F01004F
(946688574.509995) can0 400#6666287C287E0000
(946688574.509995) can0 401#00A0000000000000
(946688574.529995) can0 001#1E0065FC62FD0000
(946688574.529995) can0 002#D503F7ED9F050000
(946688574.539995) can0 18FF1515#000000034F01004F
(946688574.539995) can0 400#66662982287E0000
(946688574.539995) can0 401#00A1000000000000
(946688574.539995) can0 18FF01EA#0A2388DF7E007D50
(946688574.539995) can0 18FF02EA#0A2388DF7E007D50
(946688574.539995) can0 19B50001#8CA0960000000000
(946688574.539995) can0 19B50008#8286840000000000
(946688574.539995) can0 19B50100#9696969696969696
(946688574.539995) can0 19B50800#8484848484848484
(946688574.549995) can0 001#1D005FFC5DFD0000
(946688574.549995) can0 002#D503D7EDA0050000
(946688574.569995) can0 001#1D0059FC58FD0000
(946688574.569995) can0 002#D503B9EDA0050000
(946688574.569995) can0 18FF1515#000000034F01004F
(946688574.569995) can0 400#6667287829800000
(946688574.569995) can0 401#00A1000000000000
(946688574.589995) can0 001#1C0053FC54FD0000
(946688574.589995) can0 002#D5039CEDA1050000
(946688574.599995) can0 18FF1515#000000034F01004F
(946688574.599995) can0 400#6866287A29800000
(946688574.599995) can0 401#00A1000000000000
(946688574.609995) can0 001#1C004DFC4FFD0000
(946688574.609995) can0 002#D50380EDA2050000
(946688574.629995) can0 001#1C0048FC4BFD0000
(946688574.629995) can0 002#D50365EDA2050000
(946688574.629995) can0 18FF1515#000000034F01004F
(946688574.629995) can0 400#6869297F29800000
(946688574.629995) can0 401#01A2000000000000
(946688574.649995) can0 001#1B0043FC47FD0000
(946688574.649995) can0 002#D5034CEDA3050000
(946688574.649995) can0 18FF01EA#0A2988DF7E007D50
(946688574.649995) can0 18FF02EA#0A2988DF7E007D50
(946688574.649995) can0 19B50001#8CA0960000000000
(946688574.649995) can0 19B50008#8286840000000000
(946688574.649995) can0 19B50100#9696969696969696
(946688574.649995) can0 19B50800#8484848484848484
(946688574.659995) can0 18FF1515#000000034F01004F
(946688574.659995) can0 400#6766288128800000
(946688574.659995) can0 401#00A1000000000000
(946688574.669995) can0 001#1B003EFC43FD0000
(946688574.669995) can0 002#D50333EDA3050000
(946688574.689995) can0 001#1A0039FC40FD0000
(946688574.689995) can0 002#D5031DEDA4050000
(946688574.689995) can0 18FF1515#000000034F01004F
(946688574.689995) can0 400#6966297928820000
(946688574.689995) can0 401#00A3000000000000
(946688574.709995) can0 001#1A0035FC3CFD0000
(946688574.709995) can0 002#D50307EDA4050000
(946688574.719995) can0 18FF1515#000000034F01004F
(946688574.719995) can0 400#6867297B2A820000
(946688574.719995) can0 401#01A3000000000000
(946688574.729995) can0 001#1A0031FC39FD0000
(946688574.729995) can0 002#D503F2ECA5050000
(946688574.749995) can0 001#19002DFC36FD0000
(946688574.749995) can0 002#D503DFECA5050000
(946688574.749995) can0 18FF1515#000000034F01004F
(946688574.749995) can0 400#6866287B297A0000
(946688574.749995) can0 401#01A3000000000000
(946688574.759995) can0 18FF01EA#0A2F88DF7E007D50
(946688574.759995) can0 18FF02EA#0A2F88DF7E007D50
(946688574.759995) can0 19B50001#8CA0960000000000
(946688574.759995) can0 19B50008#8286840000000000
(946688574.759995) can0 19B50100#9696969696969696
(946688574.759995) can0 19B50800#8484848484848484
(946688574.769994) can0 001#190029FC33FD0000
(946688574.769994) can0 002#D503CDECA6050000
(946688574.779994) can0 18FF1515#000000034F01004F
(946688574.779994) can0 400#6767287D297B0000
(946688574.779994) can0 401#00A2000000000000
(946688574.789994) can0 001#180026FC30FD0000
(946688574.789994) can0 002#D503BDECA6050000
(946688574.809994) can0 001#180023FC2EFD0000
(946688574.809994) can0 002#D503ADECA7050000
(946688574.809994) can0 18FF1515#000000034F01004F
(946688574.809994) can0 400#6667297A29800000
(946688574.809994) can0 401#00A3000000000000
(946688574.829994) can0 001#180020FC2CFD0000
(946688574.829994) can0 002#D5039FECA7050000
(946688574.839994) can0 18FF1515#000000034F01004F
(946688574.839994) can0 400#6769287D28800000
(946688574.839994) can0 401#00A3000000000000
(946688574.849994) can0 001#17001EFC2AFD0000
(946688574.849994) can0 002#D50392ECA8050000
(946688574.869994) can0 001#17001BFC28FD0000
(946688574.869994) can0 002#D50387ECA8050000
(946688574.869994) can0 18FF1515#000000034F01004F
(946688574.869994) can0 400#6869287D28810000
(946688574.869994) can0 401#00A4000000000000
(946688574.869994) can0 18FF01EA#0A3488DF7E007D50
(946688574.869994) can0 18FF02EA#0A3488DF7E007D50
(946688574.869994) can0 19B50001#8CA0960000000000
(946688574.869994) can0 19B50008#8286840000000000
(946688574.869994) can0 19B50100#9696969696969696
(946688574.869994) can0 19B50800#8484848484848484
(946688574.889994) can0 001#170019FC26FD0000
(946688574.889994) can0 002#D5037DECA9050000
(946688574.899994) can0 18FF1515#000000034F01004F
(946688574.899994) can0 400#6966287C28790000
(946688574.899994) can0 401#01A4000000000000
(946688574.909994) can0 001#160018FC24FD0000
(946688574.909994) can0 002#D50374ECA9050000
(946688574.929994) can0 001#160016FC23FD0000
(946688574.929994) can0 002#D5036CECAA050000
(946688574.929994) can0 18FF1515#000000034F01004F
(946688574.929994) can0 400#6A66287D28790000
(946688574.929994) can0 401#00A4000000000000
(946688574.949994) can0 001#150015FC22FD0000
(946688574.949994) can0 002#D50366ECAA050000
(946688574.959994) can0 18FF1515#000000034F01004F
(946688574.959994) can0 400#6668297F29800000
(946688574.959994) can0 401#00A4000000000000
(946688574.969994) can0 001#150014FC21FD0000
(946688574.969994) can0 002#D50361ECAB050000
(946688574.979994) can0 18FF01EA#0A3988DF7E007D50
(946688574.979994) can0 18FF02EA#0A3988DF7E007D50
(946688574.979994) can0 19B50001#8CA0960000000000
(946688574.979994) can0 19B50008#8286840000000000
(946688574.979994) can0 19B50100#9696969696969696
(946688574.979994) can0 19B50800#8484848484848484
(946688574.989994) can0 001#150013FC20FD0000
(946688574.989994) can0 002#D5035DECAB050000
(946688574.989994) can0 18FF1515#000000034F01004F
(946688574.989994) can0 400#6866287E29810000
(946688574.989994) can0 401#00A3000000000000
(946688575.009994) can0 001#140012FC20FD0000
(946688575.009994) can0 002#D5035AECAB050000
(946688575.019994) can0 18FF1515#000000034F01004F
(946688575.019994) can0 400#6969298228780000
(946688575.019994) can0 401#00A4000000000000
(946688575.029994) can0 001#140012FC1FFD0000
(946688575.029994) can0 002#D50359ECAC050000
(946688575.049994) can0 001#140012FC1FFD0000
(946688575.049994) can0 002#D50359ECAC050000
(946688575.049994) can0 18FF1515#000000034F01004F
(946688575.049994) can0 400#686629812A810000
(946688575.049994) can0 401#00A5000000000000
(946688575.069994) can0 001#140013FC1FFD0000
(946688575.069994) can0 002#D5035BECAD050000
(946688575.069994) can0 18FF1080#0000000000000000
(946688575.069994) can0 18FF1180#0000000000000000
(946688575.069994) can0 18FF1280#0000000000000000
(946688575.069994) can0 18FFE180#0000000000000000
(946688575.069994) can0 18FFE280#0000000000000000
(946688575.079994) can0 18FF1515#000000034F01004F
(946688575.079994) can0 400#686A287D2A800000
(946688575.079994) can0 401#00A4000000000000
(946688575.089994) can0 001#130013FC1FFD0000
(946688575.089994) can0 002#D5035DECAD050000
(946688575.089994) can0 18FF01EA#0A3D88DF7E007D50
(946688575.089994) can0 18FF02EA#0A3D88DF7E007D50
(946688575.089994) can0 19B50001#8CA0960000000000
(946688575.089994) can0 19B50008#8286840000000000
(946688575.089994) can0 19B50100#9696969696969696
(946688575.089994) can0 19B50800#8484848484848484
(946688575.109994) can0 001#130014FC20FD0000
(946688575.109994) can0 002#D50361ECAD050000
(946688575.109994) can0 18FF1515#000000034F01004F
(946688575.109994) can0 400#6967297F287C0000
(946688575.109994) can0 401#00A5000000000000
(946688575.129994) can0 001#130015FC20FD0000
(946688575.129994) can0 002#D50366ECAE050000
(946688575.139994) can0 18FF1515#000000034F01004F
(946688575.139994) can0 400#6A67297929810000
(946688575.139994) can0 401#00A5000000000000
(946688575.149994) can0 001#120016FC21FD0000
(946688575.149994) can0 002#D5036DECAE050000
(946688575.169994) can0 001#120018FC22FD0000
(946688575.169994) can0 002#D50375ECAF050000
(946688575.169994) can0 18FF1515#000000034F01004F
(946688575.169994) can0 400#6869297A29810000
(946688575.169994) can0 401#00A4000000000000
(946688575.189994) can0 001#12001AFC23FD0000
(946688575.189994) can0 002#D5037EECAF050000
(946688575.199994) can0 18FF1515#000000034F01004F
(946688575.199994) can0 400#6767297E28820000
(946688575.199994) can0 401#00A4000000000000
(946688575.199994) can0 18FF01EA#0A4288DF7E007D50
(946688575.199994) can0 18FF02EA#0A4288DF7E007D50
(946688575.199994) can0 19B50001#8CA0960000000000
(946688575.199994) can0 19B50008#8286840000000000
(946688575.199994) can0 19B50100#9696969696969696
(946688575.199994) can0 19B50800#8484848484848484
(946688575.209994) can0 001#11001CFC24FD0000
(946688575.209994) can0 002#D50388ECAF050000
(946688575.229994) can0 001#11001EFC26FD0000
(946688575.229994) can0 002#D50394ECB0050000
(946688575.229994) can0 18FF1515#000000034F01004F
(946688575.229994) can0 400#6A67298129800000
(946688575.229994) can0 401#01A4000000000000
(946688575.249994) can0 001#110021FC28FD0000
(946688575.249994) can0 002#D503A1ECB0050000
(946688575.259994) can0 18FF1515#000000034F01004F
(946688575.259994) can0 400#6769297B28800000
(946688575.259994) can0 401#00A4000000000000
(946688575.269994) can0 001#110023FC2AFD0000
(946688575.269994) can0 002#D503AFECB0050000
(946688575.289994) can0 001#100027FC2CFD0000
(946688575.289994) can0 002#D503BFECB1050000
(946688575.289994) can0 18FF1515#000000034F01004F
(946688575.289994) can0 400#6869287A297E0000
(946688575.289994) can0 401#01A3000000000000
(946688575.309994) can0 001#10002AFC2EFD0000
(946688575.309994) can0 002#D503CFECB1050000
(946688575.309994) can0 18FF01EA#0A4588DF7E007D50
(946688575.309994) can0 18FF02EA#0A4588DF7E007D50
(946688575.309994) can0 19B50001#8CA0960000000000
(946688575.309994) can0 19B50008#8286840000000000
(946688575.309994) can0 19B50100#9696969696969696
(946688575.309994) can0 19B50800#8484848484848484
(946688575.319994) can0 18FF1515#000000034F01004F
(946688575.319994) can0 400#686A287F29800000
(946688575.319994) can0 401#00A4000000000000
(946688575.329994) can0 001#10002DFC30FD0000
(946688575.329994) can0 002#D503E1ECB1050000
(946688575.349994) can0 001#100031FC33FD0000
(946688575.349994) can0 002#D503F4ECB2050000
(946688575.349994) can0 18FF1515#000000034F01004F
(946688575.349994) can0 400#6A6A287C29810000
(946688575.349994) can0 401#01A4000000000000
(946688575.369994) can0 001#0F0035FC36FD0000
(946688575.369994) can0 002#D50309EDB2050000
(946688575.379994) can0 18FF1515#000000034F01004F
(946688575.379994) can0 400#6868298228800000
(946688575.379994) can0 401#00A4000000000000
(946688575.389994) can0 001#0F003AFC39FD0000
(946688575.389994) can0 002#D5031FEDB2050000
(946688575.409994) can0 001#0F003EFC3CFD0000
(946688575.409994) can0 002#D50335EDB3050000
(946688575.409994) can0 18FF1515#000000034F01004F
(946688575.409994) can0 400#69692A7E297A0000
(946688575.409994) can0 401#00A2000000000000
(946688575.419994) can0 18FF01EA#0A4988DF7E007D50
(946688575.419994) can0 18FF02EA#0A4988DF7E007D50
(946688575.419994) can0 19B50001#8CA0960000000000
(946688575.419994) can0 19B50008#8286840000000000
(946688575.419994) can0 19B50100#9696969696969696
(946688575.419994) can0 19B50800#8484848484848484
(946688575.429994) can0 001#0F0043FC40FD0000
(946688575.429994) can0 002#D5034EEDB3050000
(946688575.439994) can0 18FF1515#000000034F01004F
(946688575.439994) can0 400#69682A812A7C0000
(946688575.439994) can0 401#00A2000000000000
(946688575.449994) can0 001#0E0048FC43FD0000
(946688575.449994) can0 002#D50367EDB3050000
(946688575.469994) can0 001#0E004EFC47FD0000
(946688575.469994) can0 002#D50382EDB4050000
(946688575.469994) can0 18FF1515#000000034F01004F
(946688575.469994) can0 400#6868287C287E0000
(946688575.469994) can0 401#00A2000000000000
(946688575.489994) can0 001#0E0053FC4BFD0000
(946688575.489994) can0 002#D5039DEDB4050000
(946688575.499994) can0 18FF1515#000000034F01004F
(946688575.499994) can0 400#6968287B2A7E0000
(946688575.499994) can0 401#01A1000000000000
(946688575.509994) can0 001#0E0059FC4FFD0000
(946688575.509994) can0 002#D503BAEDB4050000
(946688575.529994) can0 001#0E005FFC53FD0000
(946688575.529994) can0 002#D503D8EDB4050000
(946688575.529994) can0 18FF1515#000000034F01004F
(946688575.529994) can0 400#6769287E297C0000
(946688575.529994) can0 401#01A2000000000000
(946688575.529994) can0 18FF01EA#0A4C88E07E007D50
(946688575.529994) can0 18FF02EA#0A4C88E07E007D50
(946688575.529994) can0 19B50001#8CA0960000000000
(946688575.529994) can0 19B50008#8286840000000000
(946688575.529994) can0 19B50100#9696969696969696
(946688575.529994) can0 19B50800#8484848484848484
(946688575.549994) can0 001#0D0065FC58FD0000
(946688575.549994) can0 002#D503F8EDB5050000
(946688575.559994) can0 18FF1515#000000034F01004F
(946688575.559994) can0 400#696928792A7C0000
(946688575.559994) can0 401#00A1000000000000
(946688575.569994) can0 001#0D006CFC5DFD0000
(946688575.569994) can0 002#D50318EEB5050000
(946688575.589994) can0 001#0D0072FC61FD0000
(946688575.589994) can0 002#D5033AEEB5050000
(946688575.589994) can0 18FF1515#000000034F01004F
(946688575.589994) can0 400#69682A81297D0000
(946688575.589994) can0 401#00A1000000000000
(946688575.609994) can0 001#0D0079FC66FD0000
(946688575.609994) can0 002#D5035DEEB5050000
(946688575.619994) can0 18FF1515#000000034F01004F
(946688575.619994) can0 400#6867297D287D0000
(946688575.619994) can0 401#00A0000000000000
(946688575.629994) can0 001#0D0081FC6CFD0000
(946688575.629994) can0 002#D50381EEB6050000
(946688575.639994) can0 18FF01EA#0A4F88E07E007D50
(946688575.639994) can0 18FF02EA#0A4F88E07E007D50
(946688575.639994) can0 19B50001#8CA0960000000000
(946688575.639994) can0 19B50008#8286840000000000
(946688575.639994) can0 19B50100#9696969696969696
(946688575.639994) can0 19B50800#8484848484848484
(946688575.649994) can0 001#0C0088FC71FD0000
(946688575.649994) can0 002#D503A6EEB6050000
(946688575.649994) can0 18FF1515#000000034F01004F
(946688575.649994) can0 400#67682880287B0000
(946688575.649994) can0 401#009F000000000000
(946688575.669994) can0 001#0C0090FC76FD0000
(946688575.669994) can0 002#D503CCEEB6050000
(946688575.679994) can0 18FF1515#000000034F01004F
(946688575.679994) can0 400#6969297A2A790000
(946688575.679994) can0 401#019F000000000000
(946688575.679994) can0 18FF1080#0000000000000000
(946688575.679994) can0 18FF1180#0000000000000000
(946688575.679994) can0 18FF1280#0000000000000000
(946688575.679994) can0 18FFE180#0000000000000000
(946688575.679994) can0 18FFE280#0000000000000000
(946688575.689994) can0 001#0C0097FC7CFD0000
(946688575.689994) can0 002#D503F3EEB6050000
(946688575.709994) can0 001#0C00A0FC82FD0000
(946688575.709994) can0 002#D5031CEFB7050000
(946688575.709994) can0 18FF1515#000000034F01004F
(946688575.709994) can0 400#6A682A80297A0000
(946688575.709994) can0 401#009F000000000000
(946688575.729994) can0 001#0C00A8FC88FD0000
(946688575.729994) can0 002#D50345EFB7050000
(946688575.739994) can0 18FF1515#000000034F01004F
(946688575.739994) can0 400#68672A78297F0000
(946688575.739994) can0 401#009F000000000000
(946688575.749994) can0 001#0B00B0FC8EFD0000
(946688575.749994) can0 002#D50370EFB7050000
(946688575.749994) can0 18FF01EA#0A5288E07E007D50
(946688575.749994) can0 18FF02EA#0A5288E07E007D50
(946688575.749994) can0 19B50001#8CA0960000000000
(946688575.749994) can0 19B50008#8286840000000000
(946688575.749994) can0 19B50100#9696969696969696
(946688575.749994) can0 19B50800#8484848484848484
(946688575.769994) can0 001#0B00B9FC95FD0000
(946688575.769994) can0 002#D5039BEFB7050000
(946688575.769994) can0 18FF1515#000000034F01004F
(946688575.769994) can0 400#6B6A288029790000
(946688575.769994) can0 401#009D000000000000
(946688575.789994) can0 001#0B00C2FC9BFD0000
(946688575.789994) can0 002#D503C8EFB8050000
(946688575.799994) can0 18FF1515#000000034F01004F
(946688575.799994) can0 400#6A68297B297A0000
(946688575.799994) can0 401#009E000000000000
(946688575.809994) can0 001#0B00CBFCA2FD0000
(946688575.809994) can0 002#D503F6EFB8050000
(946688575.829993) can0 001#0B00D5FCA9FD0000
(946688575.829993) can0 002#D50325F0B8050000
(946688575.829993) can0 18FF1515#000000034F01004F
(946688575.829993) can0 400#686A2A80287D0000
(946688575.829993) can0 401#019C000000000000
(946688575.849993) can0 001#0A00DEFCB0FD0000
(946688575.849993) can0 002#D50355F0B8050000
(946688575.859993) can0 18FF1515#000000034F01004F
(946688575.859993) can0 400#6A692A7A2A7E0000
(946688575.859993) can0 401#009C000000000000
(946688575.859993) can0 18FF01EA#0A5488E07E007D50
(946688575.859993) can0 18FF02EA#0A5488E07E007D50
(946688575.859993) can0 19B50001#8CA0960000000000
(946688575.859993) can0 19B50008#8286840000000000
(946688575.859993) can0 19B50100#9696969696969696
(946688575.859993) can0 19B50800#8484848484848484
(946688575.869993) can0 001#0A00E8FCB7FD0000
(946688575.869993) can0 002#D50385F0B9050000
(946688575.889993) can0 001#0A00F2FCBEFD0000
(946688575.889993) can0 002#D503B7F0B9050000
(946688575.889993) can0 18FF1515#000000034F01004F
(946688575.889993) can0 400#686B2981297A0000
(946688575.889993) can0 401#019B000000000000
(946688575.909993) can0 001#0A00FCFCC5FD0000
(946688575.909993) can0 002#D503EAF0B9050000
(946688575.919993) can0 18FF1515#000000034F01004F
(946688575.919993) can0 400#68682979287E0000
(946688575.919993) can0 401#009C000000000000
(946688575.929993) can0 001#0A0006FDCDFD0000
(946688575.929993) can0 002#D5031EF1B9050000
(946688575.949993) can0 001#0A0011FDD5FD0000
(946688575.949993) can0 002#D50352F1B9050000
(946688575.949993) can0 18FF1515#000000034F01004F
(946688575.949993) can0 400#696A297F297B0000
(946688575.949993) can0 401#009A000000000000
(946688575.969993) can0 001#09001CFDDCFD0000
(946688575.969993) can0 002#D50388F1BA050000
(946688575.969993) can0 18FF01EA#0A5688E07E007D50
(946688575.969993) can0 18FF02EA#0A5688E07E007D50
(946688575.969993) can0 19B50001#8CA0960000000000
(946688575.969993) can0 19B50008#8286840000000000
(946688575.969993) can0 19B50100#9696969696969696
(946688575.969993) can0 19B50800#8484848484848484
(946688575.979993) can0 18FF1515#000000034F01004F
(946688575.979993) can0 400#6A6A298029800000
(946688575.979993) can0 401#019B000000000000
(946688575.989993) can0 001#090027FDE4FD0000
(946688575.989993) can0 002#D503BFF1BA050000
(946688576.009993) can0 001#090032FDEDFD0000
(946688576.009993) can0 002#D503F6F1BA050000
(946688576.009993) can0 18FF1515#000000034F01004F
(946688576.009993) can0 400#6867297F28790000
(946688576.009993) can0 401#0099000000000000
(946688576.029993) can0 001#09003DFDF5FD0000
(946688576.029993) can0 002#D5032EF2BA050000
(946688576.039993) can0 18FF1515#000000034F01004F
(946688576.039993) can0 400#6968297A287D0000
(946688576.039993) can0 401#0099000000000000
(946688576.049993) can0 001#090048FDFDFD0000
(946688576.049993) can0 002#D50368F2BA050000
(946688576.069993) can0 001#090054FD06FE0000
(946688576.069993) can0 002#D503A2F2BB050000
(946688576.069993) can0 18FF1515#000000034F01004F
(946688576.069993) can0 400#686829792A800000
(946688576.069993) can0 401#0099000000000000
(946688576.079993) can0 18FF01EA#0A5888E07E007D50
(946688576.079993) can0 18FF02EA#0A5888E07E007D50
