(946688569.010000) can0 18FF01EA#0400F5FF0400F5FF
(946688569.010000) can0 18FF02EA#0400090004000900
(946688569.020000) can0 18FF01EA#0600150006001500
(946688569.020000) can0 18FF02EA#0800000008000000
(946688569.020000) can0 18FF1085#0000000306010006
(946688569.020000) can0 400#0000276427670000
(946688569.020000) can0 401#007F000000000000
(946688569.040000) can0 18FF01EA#0F00F2FF0F00F2FF
(946688569.040000) can0 18FF02EA#1000020010000200
(946688569.040000) can0 18FF1085#000000030C01000C
(946688569.040000) can0 400#0001286227630000
(946688569.040000) can0 401#007F000000000000
(946688569.050000) can0 18FF01EA#1200010012000100
(946688569.050000) can0 18FF02EA#1100FBFF1100FBFF
(946688569.060000) can0 18FF01EA#18001E0018001E00
(946688569.060000) can0 18FF02EA#1500180015001800
(946688569.060000) can0 18FF1085#0000000312010012
(946688569.060000) can0 400#0000286327630000
(946688569.060000) can0 401#007E000000000000
(946688569.070000) can0 18FF01EA#1800FCFF1800FCFF
(946688569.070000) can0 18FF02EA#1900060019000600
(946688569.090000) can0 18FF01EA#1F0010001F001000
(946688569.090000) can0 18FF02EA#1D0016001D001600
(946688569.090000) can0 18FF1085#0000000319010019
(946688569.090000) can0 400#00012869275F0000
(946688569.090000) can0 401#017E000000000000
(946688569.110000) can0 18FF01EA#2500170025001700
(946688569.110000) can0 18FF02EA#2500120025001200
(946688569.110000) can0 19B30007#00005E20AC800000
(946688569.110000) can0 19B30100#D7D7D7D7D7D7D7D7
(946688569.120000) can0 18FF1085#0000000320010020
(946688569.120000) can0 400#0202286927610000
(946688569.120000) can0 401#007E000000000000
(946688569.130000) can0 18FF01EA#27003C0027003C00
(946688569.130000) can0 18FF02EA#2900200029002000
(946688569.140000) can0 18FF01EA#2B0034002B003400
(946688569.140000) can0 18FF02EA#2900270029002700
(946688569.140000) can0 18FF1085#0000000323010023
(946688569.140000) can0 400#0002276628670000
(946688569.140000) can0 401#007F000000000000
(946688569.150000) can0 18FF01EA#2C0043002C004300
(946688569.150000) can0 18FF02EA#2C0048002C004800
(946688569.160000) can0 18FF01EA#2E004F002E004F00
(946688569.160000) can0 18FF02EA#3000440030004400
(946688569.160000) can0 18FF1085#0000000327010027
(946688569.160000) can0 400#0300276127640000
(946688569.160000) can0 401#007F000000000000
(946688569.170000) can0 18FF01EA#3000530030005300
(946688569.170000) can0 18FF02EA#31004C0031004C00
(946688569.180000) can0 18FF01EA#32003C0032003C00
(946688569.180000) can0 18FF02EA#33004C0033004C00
(946688569.180000) can0 18FF1085#000000032A01002A
(946688569.180000) can0 400#0003276428670000
(946688569.180000) can0 401#007F000000000000
(946688569.190000) can0 18FF01EA#32004E0032004E00
(946688569.190000) can0 18FF02EA#3300400033004000
(946688569.200000) can0 18FF01EA#3600610036006100
(946688569.200000) can0 18FF02EA#35004A0035004A00
(946688569.200000) can0 18FF1085#000000032C01002C
(946688569.200000) can0 400#0203276327620000
(946688569.200000) can0 401#007F000000000000
(946688569.210000) can0 18FF01EA#3800530038005300
(946688569.210000) can0 18FF02EA#37006F0037006F00
(946688569.210000) can0 19B30007#00005E20AC820000
(946688569.210000) can0 19B30100#D7D7D7D7D7D7D7D7
(946688569.220000) can0 18FF01EA#3900550039005500
(946688569.220000) can0 18FF02EA#3900580039005800
(946688569.220000) can0 18FF1085#000000032F01002F
(946688569.220000) can0 400#0202276028620000
(946688569.220000) can0 401#007F000000000000
(946688569.230000) can0 18FF01EA#3800730038007300
(946688569.230000) can0 18FF02EA#3800640038006400
(946688569.240000) can0 18FF01EA#3B0070003B007000
(946688569.240000) can0 18FF02EA#3900690039006900
(946688569.240000) can0 18FF1085#0000000331010031
(946688569.240000) can0 400#0506276727640000
(946688569.240000) can0 401#007F000000000000
(946688569.260000) can0 18FF01EA#3F007D003F007D00
(946688569.260000) can0 18FF02EA#3D008E003D008E00
(946688569.270000) can0 18FF01EA#3E00A0003E00A000
(946688569.270000) can0 18FF02EA#3E0082003E008200
(946688569.270000) can0 18FF1085#0000000334010034
(946688569.270000) can0 400#0606276227670000
(946688569.270000) can0 401#017F000000000000
(946688569.280000) can0 18FF01EA#4000A1004000A100
(946688569.280000) can0 18FF02EA#3F0085003F008500
(946688569.290000) can0 18FF01EA#3F008C003F008C00
(946688569.290000) can0 18FF02EA#40008D0040008D00
(946688569.290000) can0 18FF1085#0000000336010036
(946688569.290000) can0 400#0604276227690000
(946688569.290000) can0 401#007E000000000000
(946688569.300000) can0 18FF01EA#4200A6004200A600
(946688569.300000) can0 18FF02EA#43009D0043009D00
(946688569.310000) can0 18FF01EA#4100B4004100B400
(946688569.310000) can0 18FF02EA#4400B6004400B600
(946688569.310000) can0 18FF1085#0000000337010037
(946688569.310000) can0 400#0606286727640000
(946688569.310000) can0 401#007E000000000000
(946688569.310000) can0 19B30007#00005E20AC850000
(946688569.310000) can0 19B30100#D7D7D7D7D7D7D7D7
(946688569.320000) can0 18FF01EA#4400B3004400B300
(946688569.320000) can0 18FF02EA#4200BD004200BD00
(946688569.330000) can0 18FF01EA#4300CA004300CA00
(946688569.330000) can0 18FF02EA#4500D2004500D200
(946688569.330000) can0 18FF1085#0000000339010039
(946688569.330000) can0 400#0608286328670000
(946688569.330000) can0 401#007E000000000000
(946688569.340000) can0 18FF01EA#4500D9004500D900
(946688569.340000) can0 18FF02EA#4400CE004400CE00
(946688569.350000) can0 18FF01EA#4500DA004500DA00
(946688569.350000) can0 18FF02EA#4400D4004400D400
(946688569.350000) can0 18FF1085#000000033A01003A
(946688569.350000) can0 400#0705286727630000
(946688569.350000) can0 401#007F000000000000
(946688569.360000) can0 18FF01EA#4600D2004600D200
(946688569.360000) can0 18FF02EA#4400E6004400E600
(946688569.370000) can0 18FF01EA#4800D5004800D500
(946688569.370000) can0 18FF02EA#4800D2004800D200
(946688569.370000) can0 18FF1085#000000033B01003B
(946688569.370000) can0 400#0907286727690000
(946688569.370000) can0 401#007E000000000000
(946688569.380000) can0 18FF01EA#4600E9004600E900
(946688569.380000) can0 18FF02EA#4800FF004800FF00
(946688569.390000) can0 18FF01EA#4800080148000801
(946688569.390000) can0 18FF02EA#4800EB004800EB00
(946688569.390000) can0 18FF1085#000000033C01003C
(946688569.390000) can0 400#0909286328620000
(946688569.390000) can0 401#017E000000000000
(946688569.400000) can0 18FF01EA#4900020149000201
(946688569.400000) can0 18FF02EA#4900FF004900FF00
(946688569.410000) can0 18FF01EA#4A001A014A001A01
(946688569.410000) can0 18FF02EA#4B0007014B000701
(946688569.410000) can0 18FF1085#000000033D01003D
(946688569.410000) can0 400#0A0A2761286B0000
(946688569.410000) can0 401#007E000000000000
(946688569.410000) can0 19B30007#00005E20AC880000
(946688569.410000) can0 19B30100#D7D7D7D7D7D7D7D7
(946688569.420000) can0 18FF01EA#4B0007014B000701
(946688569.420000) can0 18FF02EA#4B000C014B000C01
(946688569.430000) can0 18FF01EA#4B001F014B001F01
(946688569.430000) can0 18FF02EA#4A0010014A001001
(946688569.430000) can0 18FF1085#000000033E01003E
(946688569.430000) can0 400#0B0B276A27620000
(946688569.430000) can0 401#017E000000000000
(946688569.440000) can0 18FF01EA#4900240149002401
(946688569.440000) can0 18FF02EA#4A0021014A002101
(946688569.450000) can0 18FF01EA#4B0025014B002501
(946688569.450000) can0 18FF02EA#4C0026014C002601
(946688569.450000) can0 18FF1085#000000033F01003F
(946688569.450000) can0 400#0D092865286A0000
(946688569.450000) can0 401#007F000000000000
(946688569.460000) can0 18FF01EA#4D0030014D003001
(946688569.460000) can0 18FF02EA#4C0036014C003601
(946688569.470000) can0 18FF01EA#4B0055014B005501
(946688569.470000) can0 18FF02EA#4B004D014B004D01
(946688569.470000) can0 18FF1085#000000033F01003F
(946688569.470000) can0 400#090C286227630000
(946688569.470000) can0 401#007E000000000000
(946688569.480000) can0 18FF01EA#4C0058014C005801
(946688569.480000) can0 18FF02EA#4E0056014E005601
(946688569.490000) can0 18FF01EA#4D004D014D004D01
(946688569.490000) can0 18FF02EA#4E0064014E006401
(946688569.490000) can0 18FF1085#0000000340010040
(946688569.490000) can0 400#0B0D276328650000
(946688569.490000) can0 401#007D000000000000
(946688569.510000) can0 18FF01EA#4F0071014F007101
(946688569.510000) can0 18FF02EA#4E007A014E007A01
(946688569.510000) can0 19B30007#00005E20AC8C0000
(946688569.510000) can0 19B30100#D7D7D7D7D7D7D7D7
(946688569.520000) can0 18FF01EA#4E0065014E006501
(946688569.520000) can0 18FF02EA#4F006D014F006D01
(946688569.520000) can0 18FF1085#0000000341010041
(946688569.520000) can0 400#0D0E286B28650000
(946688569.520000) can0 401#007E000000000000
(946688569.529999) can0 18FF01EA#4C0090014C009001
(946688569.529999) can0 18FF02EA#4D0081014D008101
(946688569.539999) can0 18FF01EA#4C0093014C009301
(946688569.539999) can0 18FF02EA#4E009D014E009D01
(946688569.539999) can0 18FF1085#0000000341010041
(946688569.539999) can0 400#0D0E286828680000
(946688569.539999) can0 401#017E000000000000
(946688569.549999) can0 18FF01EA#5000870150008701
(946688569.549999) can0 18FF02EA#4D0087014D008701
(946688569.559999) can0 18FF01EA#50009B0150009B01
(946688569.559999) can0 18FF02EA#5000A1015000A101
(946688569.559999) can0 18FF1085#0000000342010042
(946688569.559999) can0 400#0F0D276927690000
(946688569.559999) can0 401#007E000000000000
(946688569.569999) can0 18FF01EA#4E00A5014E00A501
(946688569.569999) can0 18FF02EA#5000B3015000B301
(946688569.579999) can0 18FF01EA#5100C2015100C201
(946688569.579999) can0 18FF02EA#5000BF015000BF01
(946688569.579999) can0 18FF1085#0000000342010042
(946688569.579999) can0 400#1110276C286B0000
(946688569.579999) can0 401#007F000000000000
(946688569.589999) can0 18FF01EA#5000C9015000C901
(946688569.589999) can0 18FF02EA#5100CD015100CD01
(946688569.599999) can0 18FF01EA#4F00C4014F00C401
(946688569.599999) can0 18FF02EA#4F00C2014F00C201
(946688569.599999) can0 18FF1085#0000000342010042
(946688569.599999) can0 400#1110276B27640000
(946688569.599999) can0 401#017E000000000000
(946688569.609999) can0 18FF01EA#4F00E3014F00E301
(946688569.609999) can0 18FF02EA#5100C5015100C501
(946688569.609999) can0 19B30007#00005E20AC900000
(946688569.609999) can0 19B30100#D7D7D7D7D7D7D7D7
(946688569.619999) can0 18FF01EA#5200DB015200DB01
(946688569.619999) can0 18FF02EA#4F00CB014F00CB01
(946688569.619999) can0 18FF1085#0000000343010043
(946688569.619999) can0 400#11122765286A0000
(946688569.619999) can0 401#007F000000000000
(946688569.629999) can0 18FF01EA#5100D7015100D701
(946688569.629999) can0 18FF02EA#5000F9015000F901
(946688569.639999) can0 18FF01EA#4F00E8014F00E801
(946688569.639999) can0 18FF02EA#5000E0015000E001
(946688569.639999) can0 18FF1085#0000000343010043
(946688569.639999) can0 400#1013276427690000
(946688569.639999) can0 401#007E000000000000
(946688569.649999) can0 18FF01EA#5000FB015000FB01
(946688569.649999) can0 18FF02EA#5200FB015200FB01
(946688569.659999) can0 18FF01EA#50000A0250000A02
(946688569.659999) can0 18FF02EA#52000B0252000B02
(946688569.659999) can0 18FF1085#0000000343010043
(946688569.659999) can0 400#14132766276A0000
(946688569.659999) can0 401#007E000000000000
(946688569.669999) can0 18FF01EA#5100010251000102
(946688569.669999) can0 18FF02EA#5200130252001302
(946688569.679999) can0 18FF01EA#52002A0252002A02
(946688569.679999) can0 18FF02EA#51001A0251001A02
(946688569.679999) can0 18FF1085#0000000343010043
(946688569.679999) can0 400#12142867276C0000
(946688569.679999) can0 401#017D000000000000
(946688569.689999) can0 18FF01EA#4F001F024F001F02
(946688569.689999) can0 18FF02EA#5100290251002902
(946688569.699999) can0 18FF01EA#5000310250003102
(946688569.699999) can0 18FF02EA#5100370251003702
(946688569.699999) can0 18FF1085#0000000344010044
(946688569.699999) can0 400#1414286A28640000
(946688569.699999) can0 401#017D000000000000
(946688569.709999) can0 18FF01EA#51003D0251003D02
(946688569.709999) can0 18FF02EA#51003D0251003D02
(946688569.709999) can0 19B30007#00005E20AB940000
(946688569.709999) can0 19B30100#D6D6D6D6D6D6D6D6
(946688569.719999) can0 18FF01EA#5000450250004502
(946688569.719999) can0 18FF02EA#5100380251003802
(946688569.719999) can0 18FF1085#0000000344010044
(946688569.719999) can0 400#1514286B28660000
(946688569.719999) can0 401#007E000000000000
(946688569.729999) can0 18FF01EA#51005C0251005C02
(946688569.729999) can0 18FF02EA#5200570252005702
(946688569.739999) can0 18FF01EA#5100550251005502
(946688569.739999) can0 18FF02EA#5200690252006902
(946688569.739999) can0 18FF1085#0000000344010044
(946688569.739999) can0 400#17172767286A0000
(946688569.739999) can0 401#007E000000000000
(946688569.749999) can0 18FF01EA#5100540251005402
(946688569.749999) can0 18FF02EA#5300570253005702
(946688569.759999) can0 18FF01EA#51006C0251006C02
(946688569.759999) can0 18FF02EA#5200620252006202
(946688569.759999) can0 18FF1085#0000000344010044
(946688569.759999) can0 400#1718286A276D0000
(946688569.759999) can0 401#007C000000000000
(946688569.769999) can0 18FF01EA#5200850252008502
(946688569.769999) can0 18FF02EA#50006F0250006F02
(946688569.779999) can0 18FF01EA#5200860252008602
(946688569.779999) can0 18FF02EA#50008E0250008E02
(946688569.779999) can0 18FF1085#0000000344010044
(946688569.779999) can0 400#1515276928660000
(946688569.779999) can0 401#007D000000000000
(946688569.789999) can0 18FF01EA#5100770251007702
(946688569.789999) can0 18FF02EA#5100940251009402
(946688569.799999) can0 18FF01EA#5100950251009502
(946688569.799999) can0 18FF02EA#5300890253008902
(946688569.799999) can0 18FF1085#0000000344010044
(946688569.799999) can0 400#1617276B276D0000
(946688569.799999) can0 401#007D000000000000
(946688569.809999) can0 18FF01EA#5100AF025100AF02
(946688569.809999) can0 18FF02EA#5300A3025300A302
(946688569.809999) can0 19B30007#00005E20AB980000
(946688569.809999) can0 19B30100#D6D6D6D6D6D6D6D6
(946688569.819999) can0 18FF01EA#5300A6025300A602
(946688569.819999) can0 18FF02EA#5100AC025100AC02
(946688569.819999) can0 18FF1085#0000000344010044
(946688569.819999) can0 400#1A18276827670000
(946688569.819999) can0 401#007C000000000000
(946688569.829999) can0 18FF01EA#5400B7025400B702
(946688569.829999) can0 18FF02EA#5200C4025200C402
(946688569.839999) can0 18FF01EA#5300C7025300C702
(946688569.839999) can0 18FF02EA#5300BA025300BA02
(946688569.839999) can0 18FF1085#0000000345010045
(946688569.839999) can0 400#1B1A2868276A0000
(946688569.839999) can0 401#007D000000000000
(946688569.849999) can0 18FF01EA#5300D7025300D702
(946688569.849999) can0 18FF02EA#5100B9025100B902
(946688569.859999) can0 18FF01EA#5400D5025400D502
(946688569.859999) can0 18FF02EA#5300D4025300D402
(946688569.859999) can0 18FF1085#0000000345010045
(946688569.859999) can0 400#1B18286C276C0000
(946688569.859999) can0 401#007C000000000000
(946688569.869999) can0 18FF01EA#5100DC025100DC02
(946688569.869999) can0 18FF02EA#5200CA025200CA02
(946688569.879999) can0 18FF01EA#5200E5025200E502
(946688569.879999) can0 18FF02EA#5500E2025500E202
(946688569.879999) can0 18FF1085#0000000345010045
(946688569.879999) can0 400#191A286C286B0000
(946688569.879999) can0 401#017B000000000000
(946688569.889999) can0 18FF01EA#5300E1025300E102
(946688569.889999) can0 18FF02EA#5200FD025200FD02
(946688569.899999) can0 18FF01EA#5400F7025400F702
(946688569.899999) can0 18FF02EA#5300FC025300FC02
(946688569.899999) can0 18FF1085#0000000345010045
(946688569.899999) can0 400#1A1A286F286C0000
(946688569.899999) can0 401#007C000000000000
(946688569.909999) can0 18FF01EA#5300F0025300F002
(946688569.909999) can0 18FF02EA#52000A0352000A03
(946688569.909999) can0 19B30007#00005E20AB9C0000
(946688569.909999) can0 19B30100#D6D6D6D6D6D6D6D6
(946688569.919999) can0 18FF01EA#5200110352001103
(946688569.919999) can0 18FF02EA#5300070353000703
(946688569.919999) can0 18FF1085#0000000345010045
(946688569.919999) can0 400#1C1B286F276B0000
(946688569.919999) can0 401#017C000000000000
(946688569.929999) can0 18FF01EA#5200250352002503
(946688569.929999) can0 18FF02EA#5200140352001403
(946688569.939999) can0 18FF01EA#5100250351002503
(946688569.939999) can0 18FF02EA#5400190354001903
(946688569.939999) can0 18FF1085#0000000345010045
(946688569.939999) can0 400#1D1E286C27660000
(946688569.939999) can0 401#007C000000000000
(946688569.949999) can0 18FF01EA#55003A0355003A03
(946688569.949999) can0 18FF02EA#54001B0354001B03
(946688569.959999) can0 18FF01EA#5100260351002603
(946688569.959999) can0 18FF02EA#5400200354002003
(946688569.959999) can0 18FF1085#0000000345010045
(946688569.959999) can0 400#1E1F276828670000
(946688569.959999) can0 401#007C000000000000
(946688569.969999) can0 18FF01EA#5200460352004603
(946688569.969999) can0 18FF02EA#5400340354003403
(946688569.979999) can0 18FF01EA#5400370354003703
(946688569.979999) can0 18FF02EA#54003E0354003E03
(946688569.979999) can0 18FF1085#0000000345010045
(946688569.979999) can0 400#201C276727690000
(946688569.979999) can0 401#007B000000000000
(946688569.989999) can0 18FF01EA#51004A0351004A03
(946688569.989999) can0 18FF02EA#5200540352005403
(946688569.999999) can0 18FF01EA#51004B0351004B03
(946688569.999999) can0 18FF02EA#52006C0352006C03
(946688569.999999) can0 18FF1085#0000000345010045
(946688569.999999) can0 400#1F1F2769286F0000
(946688569.999999) can0 401#007C000000000000
(946688570.009999) can0 18FF01EA#5300620353006203
(946688570.009999) can0 18FF02EA#5500710355007103
(946688570.009999) can0 19B30007#00005E20AB9F0000
(946688570.009999) can0 19B30100#D6D6D6D6D6D6D6D6
(946688570.019999) can0 18FF01EA#54007A0354007A03
(946688570.019999) can0 18FF02EA#53005E0353005E03
(946688570.019999) can0 18FF1085#0000000345010045
(946688570.019999) can0 400#1E1F2769276D0000
(946688570.019999) can0 401#007C000000000000
(946688570.029999) can0 18FF01EA#5400700354007003
(946688570.029999) can0 18FF02EA#5300790353007903
(946688570.039999) can0 18FF01EA#5500750355007503
(946688570.039999) can0 18FF02EA#55008A0355008A03
(946688570.039999) can0 18FF1085#0000000345010045
(946688570.039999) can0 400#2221286D27680000
(946688570.039999) can0 401#007C000000000000
(946688570.049999) can0 18FF01EA#52008A0352008A03
(946688570.049999) can0 18FF02EA#5300880353008803
(946688570.059999) can0 18FF01EA#5400A1035400A103
(946688570.059999) can0 18FF02EA#51008C0351008C03
(946688570.059999) can0 18FF1085#0000000345010045
(946688570.059999) can0 400#2120276A286F0000
(946688570.059999) can0 401#007B000000000000
(946688570.069999) can0 18FF01EA#5200920352009203
(946688570.069999) can0 18FF02EA#5300880353008803
(946688570.079999) can0 18FF01EA#5300960353009603
(946688570.079999) can0 18FF02EA#5500920355009203
(946688570.079999) can0 18FF1085#0000000345010045
(946688570.079999) can0 400#2220286B286C0000
(946688570.079999) can0 401#007A000000000000
(946688570.089999) can0 18FF01EA#5200B4035200B403
(946688570.089999) can0 18FF02EA#5500BE035500BE03
(946688570.099999) can0 18FF01EA#5400C0035400C003
(946688570.099999) can0 18FF02EA#5200AF035200AF03
(946688570.099999) can0 18FF1085#0000000345010045
(946688570.099999) can0 400#23212870286D0000
(946688570.099999) can0 401#007A000000000000
(946688570.109999) can0 18FF01EA#5300C8035300C803
(946688570.109999) can0 18FF02EA#5200CE035200CE03
(946688570.109999) can0 19B30007#00005E20ABA30000
(946688570.109999) can0 19B30100#D6D6D6D6D6D6D6D6
(946688570.119999) can0 18FF01EA#5200DB035200DB03
(946688570.119999) can0 18FF02EA#5500C3035500C303
(946688570.119999) can0 18FF1085#0000000345010045
(946688570.119999) can0 400#24242870276C0000
(946688570.119999) can0 401#007B000000000000
(946688570.129999) can0 18FF01EA#5400D7035400D703
(946688570.129999) can0 18FF02EA#5400E1035400E103
(946688570.139999) can0 18FF01EA#5200D3035200D303
(946688570.139999) can0 18FF02EA#5400CA035400CA03
(946688570.139999) can0 18FF1085#0000000345010045
(946688570.139999) can0 400#2525286D286E0000
(946688570.139999) can0 401#007B000000000000
(946688570.149999) can0 18FF01EA#5500DB035500DB03
(946688570.149999) can0 18FF02EA#5200E3035200E303
(946688570.159999) can0 18FF01EA#5400FB035400FB03
(946688570.159999) can0 18FF02EA#5200F2035200F203
(946688570.159999) can0 18FF1085#0000000345010045
(946688570.159999) can0 400#2623276D28710000
(946688570.159999) can0 401#007A000000000000
(946688570.169999) can0 18FF01EA#5400FE035400FE03
(946688570.169999) can0 18FF02EA#5400ED035400ED03
(946688570.179999) can0 18FF01EA#5400130454001304
(946688570.179999) can0 18FF02EA#5400050454000504
(946688570.179999) can0 18FF1085#0000000345010045
(946688570.179999) can0 400#2424286A276C0000
(946688570.179999) can0 401#007A000000000000
(946688570.189999) can0 18FF01EA#5200FC035200FC03
(946688570.189999) can0 18FF02EA#52000F0452000F04
(946688570.199999) can0 18FF01EA#55001B0455001B04
(946688570.199999) can0 18FF02EA#5500010455000104
(946688570.199999) can0 18FF1085#0000000345010045
(946688570.199999) can0 400#2427277128720000
(946688570.199999) can0 401#0079000000000000
(946688570.209999) can0 18FF01EA#5400190454001904
(946688570.209999) can0 18FF02EA#52002C0452002C04
(946688570.209999) can0 19B30007#00005E20ABA70000
(946688570.209999) can0 19B30100#D6D6D6D6D6D6D6D6
(946688570.219999) can0 18FF01EA#55001E0455001E04
(946688570.219999) can0 18FF02EA#55001B0455001B04
(946688570.219999) can0 18FF1085#0000000345010045
(946688570.219999) can0 400#2724286F276B0000
(946688570.219999) can0 401#017B000000000000
(946688570.229999) can0 18FF01EA#5400410454004104
(946688570.229999) can0 18FF02EA#54003D0454003D04
(946688570.239999) can0 18FF01EA#5300360453003604
(946688570.239999) can0 18FF02EA#5300250453002504
(946688570.239999) can0 18FF1085#0000000345010045
(946688570.239999) can0 400#26262869276E0000
(946688570.239999) can0 401#007A000000000000
(946688570.249999) can0 18FF01EA#5500410455004104
(946688570.249999) can0 18FF02EA#5200410452004104
(946688570.259999) can0 18FF01EA#53004B0453004B04
(946688570.259999) can0 18FF02EA#5400430454004304
(946688570.259999) can0 18FF1085#0000000345010045
(946688570.259999) can0 400#2729287127700000
(946688570.259999) can0 401#007A000000000000
(946688570.269999) can0 18FF01EA#5500560455005604
(946688570.269999) can0 18FF02EA#5500590455005904
(946688570.279999) can0 18FF01EA#5300490453004904
(946688570.279999) can0 18FF02EA#5400570454005704
(946688570.279999) can0 18FF1085#0000000345010045
(946688570.279999) can0 400#2726286E286B0000
(946688570.279999) can0 401#007A000000000000
(946688570.289999) can0 18FF01EA#5300610453006104
(946688570.289999) can0 18FF02EA#54006E0454006E04
(946688570.299999) can0 18FF01EA#5100690451006904
(946688570.299999) can0 18FF02EA#5400650454006504
(946688570.299999) can0 18FF1085#0000000345010045
(946688570.299999) can0 400#2B28276F276E0000
(946688570.299999) can0 401#0078000000000000
(946688570.309999) can0 18FF01EA#55006B0455006B04
(946688570.309999) can0 18FF02EA#5300680453006804
(946688570.309999) can0 19B30007#00005E20ABAA0000
(946688570.309999) can0 19B30100#D6D6D6D6D6D6D6D6
(946688570.319999) can0 18FF01EA#53006F0453006F04
(946688570.319999) can0 18FF02EA#5500700455007004
(946688570.319999) can0 18FF1085#0000000345010045
(946688570.319999) can0 400#282A276C286C0000
(946688570.319999) can0 401#007A000000000000
(946688570.329999) can0 18FF01EA#5200900452009004
(946688570.329999) can0 18FF02EA#5300930453009304
(946688570.339999) can0 18FF01EA#5200980452009804
(946688570.339999) can0 18FF02EA#5500800455008004
(946688570.339999) can0 18FF1085#0000000345010045
(946688570.339999) can0 400#2A2B2870286C0000
(946688570.339999) can0 401#0078000000000000
(946688570.349999) can0 18FF01EA#5100950451009504
(946688570.349999) can0 18FF02EA#5300AB045300AB04
(946688570.359999) can0 18FF01EA#5200B1045200B104
(946688570.359999) can0 18FF02EA#5300B5045300B504
(946688570.359999) can0 18FF1085#0000000345010045
(946688570.359999) can0 400#292A287028730000
(946688570.359999) can0 401#007A000000000000
(946688570.369999) can0 18FF01EA#5300AC045300AC04
(946688570.369999) can0 18FF02EA#5300A1045300A104
(946688570.379999) can0 18FF01EA#5500C6045500C604
(946688570.379999) can0 18FF02EA#5300AC045300AC04
(946688570.379999) can0 18FF1085#0000000345010045
(946688570.379999) can0 400#2D29276F28720000
(946688570.379999) can0 401#0178000000000000
(946688570.389999) can0 18FF01EA#5400B3045400B304
(946688570.389999) can0 18FF02EA#5500BF045500BF04
(946688570.399999) can0 18FF01EA#5500BB045500BB04
(946688570.399999) can0 18FF02EA#5200CD045200CD04
(946688570.399999) can0 18FF1085#0000000345010045
(946688570.399999) can0 400#2B2C2871286B0000
(946688570.399999) can0 401#0078000000000000
(946688570.409999) can0 18FF01EA#5300BA045300BA04
(946688570.409999) can0 18FF02EA#5400D6045400D604
(946688570.409999) can0 19B30007#00005E20ABAD0000
(946688570.409999) can0 19B30100#D6D6D6D6D6D6D6D6
(946688570.419999) can0 18FF01EA#5400C2045400C204
(946688570.419999) can0 18FF02EA#5500DF045500DF04
(946688570.419999) can0 18FF1085#0000000345010045
(946688570.419999) can0 400#2E2B2772286B0000
(946688570.419999) can0 401#0079000000000000
(946688570.429999) can0 18FF01EA#5500CC045500CC04
(946688570.429999) can0 18FF02EA#5500DF045500DF04
(946688570.439999) can0 18FF01EA#5200E1045200E104
(946688570.439999) can0 18FF02EA#5300E0045300E004
(946688570.439999) can0 18FF1085#0000000345010045
(946688570.439999) can0 400#2B2C2773276D0000
(946688570.439999) can0 401#0178000000000000
(946688570.449999) can0 18FF01EA#5400EB045400EB04
(946688570.449999) can0 18FF02EA#5400F1045400F104
(946688570.459999) can0 18FF01EA#5300E5045300E504
(946688570.459999) can0 18FF02EA#5300F4045300F404
(946688570.459999) can0 18FF1085#0000000345010045
(946688570.459999) can0 400#2F30276E276E0000
(946688570.459999) can0 401#0078000000000000
(946688570.469999) can0 18FF01EA#5500EF045500EF04
(946688570.469999) can0 18FF02EA#5200F6045200F604
(946688570.479999) can0 18FF01EA#5300FA045300FA04
(946688570.479999) can0 18FF02EA#5200F8045200F804
(946688570.479999) can0 18FF1085#0000000345010045
(946688570.479999) can0 400#2D302770296F0000
(946688570.479999) can0 401#0078000000000000
(946688570.489999) can0 18FF01EA#54001F0554001F05
(946688570.489999) can0 18FF02EA#53000C0553000C05
(946688570.499999) can0 18FF01EA#5300080553000805
(946688570.499999) can0 18FF02EA#5300160553001605
(946688570.499999) can0 18FF1085#0000000345010045
(946688570.499999) can0 400#2D2F287127740000
(946688570.499999) can0 401#0079000000000000
(946688570.509999) can0 18FF01EA#55000E0555000E05
(946688570.509999) can0 18FF02EA#53002B0553002B05
(946688570.509999) can0 19B30007#00005E20ABB00000
(946688570.509999) can0 19B30100#D6D6D6D6D6D6D6D6
(946688570.519999) can0 18FF01EA#5400200554002005
(946688570.519999) can0 18FF02EA#5500380555003805
(946688570.519999) can0 18FF1085#0000000345010045
(946688570.519999) can0 400#30302773276B0000
(946688570.519999) can0 401#0178000000000000
(946688570.529999) can0 18FF01EA#5400400554004005
(946688570.529999) can0 18FF02EA#52001E0552001E05
(946688570.539999) can0 18FF01EA#5400450554004505
(946688570.539999) can0 18FF02EA#5300370553003705
(946688570.539999) can0 18FF1085#0000000345010045
(946688570.539999) can0 400#302E276E28710000
(946688570.539999) can0 401#0078000000000000
(946688570.549999) can0 18FF01EA#53002D0553002D05
(946688570.549999) can0 18FF02EA#55003A0555003A05
(946688570.559999) can0 18FF01EA#5200560552005605
(946688570.559999) can0 18FF02EA#55003F0555003F05
(946688570.559999) can0 18FF1085#0000000345010045
(946688570.559999) can0 400#322F2770286F0000
(946688570.559999) can0 401#0177000000000000
(946688570.569999) can0 18FF01EA#5500610555006105
(946688570.569999) can0 18FF02EA#55003D0555003D05
(946688570.579998) can0 18FF01EA#5200490552004905
(946688570.579998) can0 18FF02EA#5400580554005805
(946688570.579998) can0 18FF1085#0000000345010045
(946688570.579998) can0 400#3232277229700000
(946688570.579998) can0 401#0077000000000000
(946688570.589998) can0 18FF01EA#5200710552007105
(946688570.589998) can0 18FF02EA#5400620554006205
(946688570.599998) can0 18FF01EA#5200720552007205
(946688570.599998) can0 18FF02EA#5200660552006605
(946688570.599998) can0 18FF1085#0000000345010045
(946688570.599998) can0 400#3232276E27720000
(946688570.599998) can0 401#0076000000000000
(946688570.609998) can0 18FF01EA#5400620554006205
(946688570.609998) can0 18FF02EA#5400800554008005
(946688570.609998) can0 19B30007#00005E20ABB30000
(946688570.609998) can0 19B30100#D6D6D6D6D6D6D6D6
(946688570.619998) can0 18FF01EA#5200880552008805
(946688570.619998) can0 18FF02EA#53007E0553007E05
(946688570.619998) can0 18FF1085#0000000345010045
(946688570.619998) can0 400#31342770276F0000
(946688570.619998) can0 401#0177000000000000
(946688570.629998) can0 18FF01EA#53006F0553006F05
(946688570.629998) can0 18FF02EA#53008B0553008B05
(946688570.639998) can0 18FF01EA#54007D0554007D05
(946688570.639998) can0 18FF02EA#5200860552008605
(946688570.639998) can0 18FF1085#0000000345010045
(946688570.639998) can0 400#34332772286C0000
(946688570.639998) can0 401#0077000000000000
(946688570.649998) can0 18FF01EA#5200950552009505
(946688570.649998) can0 18FF02EA#54007C0554007C05
(946688570.659998) can0 18FF01EA#55008C0555008C05
(946688570.659998) can0 18FF02EA#5400A6055400A605
(946688570.659998) can0 18FF1085#0000000345010045
(946688570.659998) can0 400#3234286C286D0000
(946688570.659998) can0 401#0176000000000000
(946688570.669998) can0 18FF01EA#5400A9055400A905
(946688570.669998) can0 18FF02EA#5300970553009705
(946688570.679998) can0 18FF01EA#5400980554009805
(946688570.679998) can0 18FF02EA#5400980554009805
(946688570.679998) can0 18FF1085#0000000345010045
(946688570.679998) can0 400#35362870276C0000
(946688570.679998) can0 401#0076000000000000
(946688570.689998) can0 18FF01EA#5200BD055200BD05
(946688570.689998) can0 18FF02EA#5500AD055500AD05
(946688570.699998) can0 18FF01EA#5300A2055300A205
(946688570.699998) can0 18FF02EA#5300B2055300B205
(946688570.699998) can0 18FF1085#0000000345010045
(946688570.699998) can0 400#3635296D28750000
(946688570.699998) can0 401#0076000000000000
(946688570.709998) can0 18FF01EA#5200CE055200CE05
(946688570.709998) can0 18FF02EA#5300CF055300CF05
(946688570.709998) can0 19B30007#00005E20ABB60000
(946688570.709998) can0 19B30100#D5D5D5D5D5D5D5D5
(946688570.719998) can0 18FF01EA#5500D6055500D605
(946688570.719998) can0 18FF02EA#5500C9055500C905
(946688570.719998) can0 18FF1085#0000000345010045
(946688570.719998) can0 400#3635276F286D0000
(946688570.719998) can0 401#0076000000000000
(946688570.729998) can0 18FF01EA#5200DB055200DB05
(946688570.729998) can0 18FF02EA#5200C2055200C205
(946688570.739998) can0 18FF01EA#5400CD055400CD05
(946688570.739998) can0 18FF02EA#5300E2055300E205
(946688570.739998) can0 18FF1085#0000000345010045
(946688570.739998) can0 400#34372772286E0000
(946688570.739998) can0 401#0075000000000000
(946688570.749998) can0 18FF01EA#5400EC055400EC05
(946688570.749998) can0 18FF02EA#5500D3055500D305
(946688570.759998) can0 18FF01EA#5300EE055300EE05
(946688570.759998) can0 18FF02EA#5200D3055200D305
(946688570.759998) can0 18FF1085#0000000345010045
(946688570.759998) can0 400#3736286C28750000
(946688570.759998) can0 401#0075000000000000
(946688570.769998) can0 18FF01EA#5500E1055500E105
(946688570.769998) can0 18FF02EA#5200ED055200ED05
(946688570.779998) can0 18FF01EA#5200FF055200FF05
(946688570.779998) can0 18FF02EA#5200DC055200DC05
(946688570.779998) can0 18FF1085#0000000345010045
(946688570.779998) can0 400#3737277428750000
(946688570.779998) can0 401#0074000000000000
(946688570.789998) can0 18FF01EA#5300E6055300E605
(946688570.789998) can0 18FF02EA#5300050653000506
(946688570.799998) can0 18FF01EA#5300FC055300FC05
(946688570.799998) can0 18FF02EA#55000A0655000A06
(946688570.799998) can0 18FF1085#0000000345010045
(946688570.799998) can0 400#3639286E28710000
(946688570.799998) can0 401#0175000000000000
(946688570.809998) can0 18FF01EA#5200FF055200FF05
(946688570.809998) can0 18FF02EA#5300F5055300F505
(946688570.809998) can0 19B30007#00005E20ABB90000
(946688570.809998) can0 19B30100#D5D5D5D5D5D5D5D5
(946688570.819998) can0 18FF01EA#52001B0652001B06
(946688570.819998) can0 18FF02EA#5300F9055300F905
(946688570.819998) can0 18FF1085#0000000345010045
(946688570.819998) can0 400#3736277428700000
(946688570.819998) can0 401#0075000000000000
(946688570.829998) can0 18FF01EA#5500160655001606
(946688570.829998) can0 18FF02EA#5400010654000106
(946688570.839998) can0 18FF01EA#52001A0652001A06
(946688570.839998) can0 18FF02EA#54000D0654000D06
(946688570.839998) can0 18FF1085#0000000345010045
(946688570.839998) can0 400#3736287227750000
(946688570.839998) can0 401#0075000000000000
(946688570.849998) can0 18FF01EA#5200320652003206
(946688570.849998) can0 18FF02EA#5300130653001306
(946688570.859998) can0 18FF01EA#5500210655002106
(946688570.859998) can0 18FF02EA#52002A0652002A06
(946688570.859998) can0 18FF1085#0000000345010045
(946688570.859998) can0 400#3A392872276D0000
(946688570.859998) can0 401#0073000000000000
(946688570.869998) can0 18FF01EA#5500410655004106
(946688570.869998) can0 18FF02EA#5300310653003106
(946688570.879998) can0 18FF01EA#54003F0654003F06
(946688570.879998) can0 18FF02EA#52002B0652002B06
(946688570.879998) can0 18FF1085#0000000345010045
(946688570.879998) can0 400#38382771286D0000
(946688570.879998) can0 401#0074000000000000
(946688570.889998) can0 18FF01EA#53002C0653002C06
(946688570.889998) can0 18FF02EA#52004B0652004B06
(946688570.899998) can0 18FF01EA#5400350654003506
(946688570.899998) can0 18FF02EA#54004D0654004D06
(946688570.899998) can0 18FF1085#0000000345010045
(946688570.899998) can0 400#383C2773276F0000
(946688570.899998) can0 401#0074000000000000
(946688570.909998) can0 18FF01EA#5500410655004106
(946688570.909998) can0 18FF02EA#5200430652004306
(946688570.909998) can0 19B30007#00005E20ABBB0000
(946688570.909998) can0 19B30100#D5D5D5D5D5D5D5D5
(946688570.919998) can0 18FF01EA#5500480655004806
(946688570.919998) can0 18FF02EA#55005D0655005D06
(946688570.919998) can0 18FF1085#0000000345010045
(946688570.919998) can0 400#3B38287729730000
(946688570.919998) can0 401#0074000000000000
(946688570.929998) can0 18FF01EA#5500690655006906
(946688570.929998) can0 18FF02EA#5500660655006606
(946688570.939998) can0 18FF01EA#5400700654007006
(946688570.939998) can0 18FF02EA#55005E0655005E06
(946688570.939998) can0 18FF1085#0000000345010045
(946688570.939998) can0 400#3C3A2876286D0000
(946688570.939998) can0 401#0075000000000000
(946688570.949998) can0 18FF01EA#5400690654006906
(946688570.949998) can0 18FF02EA#55005D0655005D06
(946688570.959998) can0 18FF01EA#53007E0653007E06
(946688570.959998) can0 18FF02EA#5200740652007406
(946688570.959998) can0 18FF1085#0000000345010045
(946688570.959998) can0 400#3C3D287727720000
(946688570.959998) can0 401#0074000000000000
(946688570.969998) can0 18FF01EA#5200740652007406
(946688570.969998) can0 18FF02EA#55005F0655005F06
(946688570.979998) can0 18FF01EA#5500720655007206
(946688570.979998) can0 18FF02EA#55008B0655008B06
(946688570.979998) can0 18FF1085#0000000345010045
(946688570.979998) can0 400#3D3A287028770000
(946688570.979998) can0 401#0073000000000000
(946688570.989998) can0 18FF01EA#5500840655008406
(946688570.989998) can0 18FF02EA#5400850654008506
(946688571.009998) can0 18FF01EA#55008C0655008C06
(946688571.009998) can0 18FF02EA#55008E0655008E06
(946688571.009998) can0 18FF1085#0000000345010045
(946688571.009998) can0 400#3D3E287627760000
(946688571.009998) can0 401#0072000000000000
(946688571.019998) can0 19B30007#00005E20AABE0000
(946688571.019998) can0 19B30100#D5D5D5D5D5D5D5D5
(946688571.029998) can0 18FF01EA#5400950654009506
(946688571.029998) can0 18FF02EA#5500930655009306
(946688571.039998) can0 18FF1085#0000000345010045
(946688571.039998) can0 400#3F3E287627750000
(946688571.039998) can0 401#0073000000000000
(946688571.049998) can0 18FF01EA#5400AB065400AB06
(946688571.049998) can0 18FF02EA#5400A7065400A706
(946688571.069998) can0 18FF01EA#5500C1065500C106
(946688571.069998) can0 18FF02EA#5300A2065300A206
(946688571.069998) can0 18FF1085#0000000345010045
(946688571.069998) can0 400#3F3F277328760000
(946688571.069998) can0 401#0172000000000000
(946688571.089998) can0 18FF01EA#5300B1065300B106
(946688571.089998) can0 18FF02EA#5500CC065500CC06
(946688571.099998) can0 18FF1085#0000000345010045
(946688571.099998) can0 400#3F3D287628770000
(946688571.099998) can0 401#0073000000000000
(946688571.109998) can0 18FF01EA#5300BA065300BA06
(946688571.109998) can0 18FF02EA#5200BC065200BC06
(946688571.129998) can0 18FF01EA#5300E2065300E206
(946688571.129998) can0 18FF02EA#5300CF065300CF06
(946688571.129998) can0 18FF1085#0000000345010045
(946688571.129998) can0 400#4040287228760000
(946688571.129998) can0 401#0072000000000000
(946688571.129998) can0 19B30007#00005E20AAC10000
(946688571.129998) can0 19B30100#D5D5D5D5D5D5D5D5
(946688571.149998) can0 18FF01EA#5500D9065500D906
(946688571.149998) can0 18FF02EA#5500F0065500F006
(946688571.159998) can0 18FF1085#0000000345010045
(946688571.159998) can0 400#3E40287427770000
(946688571.159998) can0 401#0172000000000000
(946688571.169998) can0 18FF01EA#5400E8065400E806
(946688571.169998) can0 18FF02EA#5400DE065400DE06
(946688571.189998) can0 18FF01EA#5300EA065300EA06
(946688571.189998) can0 18FF02EA#5200F6065200F606
(946688571.189998) can0 18FF1085#0000000345010045
(946688571.189998) can0 400#4041297528780000
(946688571.189998) can0 401#0171000000000000
(946688571.209998) can0 18FF01EA#55000F0755000F07
(946688571.209998) can0 18FF02EA#5400F9065400F906
(946688571.219998) can0 18FF1085#0000000345010045
(946688571.219998) can0 400#4241287228780000
(946688571.219998) can0 401#0070000000000000
(946688571.229998) can0 18FF01EA#54001D0754001D07
(946688571.229998) can0 18FF02EA#5200220752002207
(946688571.239998) can0 19B30007#00005E20AAC30000
(946688571.239998) can0 19B30100#D5D5D5D5D5D5D5D5
(946688571.249998) can0 18FF01EA#52000B0752000B07
(946688571.249998) can0 18FF02EA#5500300755003007
(946688571.249998) can0 18FF1085#0000000345010045
(946688571.249998) can0 400#4043277028700000
(946688571.249998) can0 401#0071000000000000
(946688571.269998) can0 18FF01EA#5500270755002707
(946688571.269998) can0 18FF02EA#5400200754002007
(946688571.279998) can0 18FF1085#0000000345010045
(946688571.279998) can0 400#4144297728740000
(946688571.279998) can0 401#0071000000000000
(946688571.289998) can0 18FF01EA#5200230752002307
(946688571.289998) can0 18FF02EA#5400410754004107
(946688571.309998) can0 18FF01EA#5300340753003407
(946688571.309998) can0 18FF02EA#52003C0752003C07
(946688571.309998) can0 18FF1085#0000000345010045
(946688571.309998) can0 400#4343277328740000
(946688571.309998) can0 401#006F000000000000
(946688571.329998) can0 18FF01EA#53005A0753005A07
(946688571.329998) can0 18FF02EA#5200560752005607
(946688571.339998) can0 18FF1085#0000000345010045
(946688571.339998) can0 400#4642297428700000
(946688571.339998) can0 401#0070000000000000
(946688571.349998) can0 18FF01EA#5300640753006407
(946688571.349998) can0 18FF02EA#5200480752004807
(946688571.349998) can0 19B30007#00005E20AAC50000
(946688571.349998) can0 19B30100#D5D5D5D5D5D5D5D5
(946688571.369998) can0 18FF01EA#55006D0755006D07
(946688571.369998) can0 18FF02EA#5200690752006907
(946688571.369998) can0 18FF1085#0000000345010045
(946688571.369998) can0 400#4244287628770000
(946688571.369998) can0 401#006F000000000000
(946688571.389998) can0 18FF01EA#5300750753007507
(946688571.389998) can0 18FF02EA#5300710753007107
(946688571.399998) can0 18FF1085#0000000345010045
(946688571.399998) can0 400#4746287928790000
(946688571.399998) can0 401#006E000000000000
(946688571.409998) can0 18FF01EA#55006E0755006E07
(946688571.409998) can0 18FF02EA#5300810753008107
(946688571.429998) can0 18FF01EA#5200740752007407
(946688571.429998) can0 18FF02EA#52007A0752007A07
(946688571.429998) can0 18FF1085#0000000345010045
(946688571.429998) can0 400#4747277928750000
(946688571.429998) can0 401#006F000000000000
(946688571.449998) can0 18FF01EA#5500780755007807
(946688571.449998) can0 18FF02EA#52008C0752008C07
(946688571.459998) can0 18FF1085#0000000345010045
(946688571.459998) can0 400#4645287127710000
(946688571.459998) can0 401#006F000000000000
(946688571.459998) can0 19B30007#00005E20AAC80000
(946688571.459998) can0 19B30100#D5D5D5D5D5D5D5D5
(946688571.469998) can0 18FF01EA#52009B0752009B07
(946688571.469998) can0 18FF02EA#5400980754009807
(946688571.489998) can0 18FF01EA#55008E0755008E07
(946688571.489998) can0 18FF02EA#53008E0753008E07
(946688571.489998) can0 18FF1085#0000000345010045
(946688571.489998) can0 400#4848277628750000
(946688571.489998) can0 401#006E000000000000
(946688571.509998) can0 18FF01EA#5300B7075300B707
(946688571.509998) can0 18FF02EA#52009D0752009D07
(946688571.519998) can0 18FF1085#0000000345010045
(946688571.519998) can0 400#4547277727710000
(946688571.519998) can0 401#006E000000000000
(946688571.529998) can0 18FF01EA#5300B8075300B807
(946688571.529998) can0 18FF02EA#5400C3075400C307
(946688571.549998) can0 18FF01EA#5300C7075300C707
(946688571.549998) can0 18FF02EA#5500AC075500AC07
(946688571.549998) can0 18FF1085#0000000345010045
(946688571.549998) can0 400#4848287A28780000
(946688571.549998) can0 401#006E000000000000
(946688571.569998) can0 18FF01EA#5500C4075500C407
(946688571.569998) can0 18FF02EA#5500CF075500CF07
(946688571.569998) can0 19B30007#00005E20AACA0000
(946688571.569998) can0 19B30100#D5D5D5D5D5D5D5D5
(946688571.579998) can0 18FF1085#0000000345010045
(946688571.579998) can0 400#4747287727770000
(946688571.579998) can0 401#016E000000000000
(946688571.589998) can0 18FF01EA#5300BF075300BF07
(946688571.589998) can0 18FF02EA#5400BB075400BB07
(946688571.609998) can0 18FF01EA#5500D9075500D907
(946688571.609998) can0 18FF02EA#5400D6075400D607
(946688571.609998) can0 18FF1085#0000000345010045
(946688571.609998) can0 400#4A4A287A28740000
(946688571.609998) can0 401#006D000000000000
(946688571.629997) can0 18FF01EA#5500DD075500DD07
(946688571.629997) can0 18FF02EA#5300EF075300EF07
(946688571.639997) can0 18FF1085#0000000345010045
(946688571.639997) can0 400#4949287A27740000
(946688571.639997) can0 401#006D000000000000
(946688571.649997) can0 18FF01EA#5300F3075300F307
(946688571.649997) can0 18FF02EA#5400F5075400F507
(946688571.669997) can0 18FF01EA#5200020852000208
(946688571.669997) can0 18FF02EA#5300E6075300E607
(946688571.669997) can0 18FF1085#0000000345010045
(946688571.669997) can0 400#484B287828740000
(946688571.669997) can0 401#006C000000000000
(946688571.679997) can0 19B30007#00005E20AACC0000
(946688571.679997) can0 19B30100#D5D5D5D5D5D5D5D5
(946688571.689997) can0 18FF01EA#5200F3075200F307
(946688571.689997) can0 18FF02EA#5200EB075200EB07
(946688571.699997) can0 18FF1085#0000000345010045
(946688571.699997) can0 400#4A49297829710000
(946688571.699997) can0 401#006C000000000000
(946688571.709997) can0 18FF01EA#5200FC075200FC07
(946688571.709997) can0 18FF02EA#53000C0853000C08
(946688571.729997) can0 18FF01EA#55001C0855001C08
(946688571.729997) can0 18FF02EA#5200210852002108
(946688571.729997) can0 18FF1085#0000000345010045
(946688571.729997) can0 400#494C287B27780000
(946688571.729997) can0 401#006C000000000000
(946688571.749997) can0 18FF01EA#5500160855001608
(946688571.749997) can0 18FF02EA#5300200853002008
(946688571.759997) can0 18FF1085#0000000345010045
(946688571.759997) can0 400#4D49287127770000
(946688571.759997) can0 401#006C000000000000
(946688571.769997) can0 18FF01EA#55002D0855002D08
(946688571.769997) can0 18FF02EA#53000F0853000F08
(946688571.789997) can0 18FF01EA#5400390854003908
(946688571.789997) can0 18FF02EA#5400160854001608
(946688571.789997) can0 18FF1085#0000000345010045
(946688571.789997) can0 400#4C4C287927770000
(946688571.789997) can0 401#006D000000000000
(946688571.789997) can0 19B30007#00005E20AACD0000
(946688571.789997) can0 19B30100#D5D5D5D5D5D5D5D5
(946688571.809997) can0 18FF01EA#54002F0854002F08
(946688571.809997) can0 18FF02EA#52002F0852002F08
(946688571.819997) can0 18FF1085#0000000345010045
(946688571.819997) can0 400#4C4D287A28780000
(946688571.819997) can0 401#006B000000000000
(946688571.829997) can0 18FF01EA#52003D0852003D08
(946688571.829997) can0 18FF02EA#5300330853003308
(946688571.849997) can0 18FF01EA#5400340854003408
(946688571.849997) can0 18FF02EA#53003D0853003D08
(946688571.849997) can0 18FF1085#0000000345010045
(946688571.849997) can0 400#4A4B2878287B0000
(946688571.849997) can0 401#016B000000000000
(946688571.869997) can0 18FF01EA#5500400855004008
(946688571.869997) can0 18FF02EA#5300540853005408
(946688571.879997) can0 18FF1085#0000000345010045
(946688571.879997) can0 400#4E4D287427780000
(946688571.879997) can0 401#016B000000000000
(946688571.889997) can0 18FF01EA#5500430855004308
(946688571.889997) can0 18FF02EA#5500620855006208
(946688571.899997) can0 19B30007#00005E20AACF0000
(946688571.899997) can0 19B30100#D5D5D5D5D5D5D5D5
(946688571.909997) can0 18FF01EA#5300610853006108
(946688571.909997) can0 18FF02EA#54005F0854005F08
(946688571.909997) can0 18FF1085#0000000345010045
(946688571.909997) can0 400#4F4C287428770000
(946688571.909997) can0 401#006C000000000000
(946688571.929997) can0 18FF01EA#5400670854006708
(946688571.929997) can0 18FF02EA#54006C0854006C08
(946688571.939997) can0 18FF1085#0000000345010045
(946688571.939997) can0 400#4C4E277328740000
(946688571.939997) can0 401#006C000000000000
(946688571.949997) can0 18FF01EA#5200750852007508
(946688571.949997) can0 18FF02EA#5500670855006708
(946688571.969997) can0 18FF01EA#54006D0854006D08
(946688571.969997) can0 18FF02EA#5400630854006308
(946688571.969997) can0 18FF1085#0000000345010045
(946688571.969997) can0 400#4E4D287C28750000
(946688571.969997) can0 401#016C000000000000
(946688571.989997) can0 18FF01EA#52007F0852007F08
(946688571.989997) can0 18FF02EA#5300730853007308
(946688571.999997) can0 18FF1085#0000000345010045
(946688571.999997) can0 400#504D287B28730000
(946688571.999997) can0 401#006A000000000000
(946688572.009997) can0 18FF01EA#5500740855007408
(946688572.009997) can0 18FF02EA#5500760855007608
(946688572.009997) can0 19B30007#00005E20AAD10000
(946688572.009997) can0 19B30100#D5D5D5D5D5D5D5D5
(946688572.029997) can0 18FF01EA#5500880855008808
(946688572.029997) can0 18FF02EA#5500990855009908
(946688572.029997) can0 18FF1085#0000000345010045
(946688572.029997) can0 400#504E297B28750000
(946688572.029997) can0 401#0069000000000000
(946688572.049997) can0 18FF01EA#5300850853008508
(946688572.049997) can0 18FF02EA#5200900852009008
(946688572.059997) can0 18FF1085#0000000345010045
(946688572.059997) can0 400#514E297428780000
(946688572.059997) can0 401#006A000000000000
(946688572.069997) can0 18FF01EA#54008F0854008F08
(946688572.069997) can0 18FF02EA#5400920854009208
(946688572.089997) can0 18FF01EA#5200A5085200A508
(946688572.089997) can0 18FF02EA#5300A4085300A408
(946688572.089997) can0 18FF1085#0000000345010045
(946688572.089997) can0 400#5051287728780000
(946688572.089997) can0 401#016A000000000000
(946688572.109997) can0 18FF01EA#5400AF085400AF08
(946688572.109997) can0 18FF02EA#5500A9085500A908
(946688572.119997) can0 18FF1085#0000000345010045
(946688572.119997) can0 400#514F287728770000
(946688572.119997) can0 401#006A000000000000
(946688572.119997) can0 19B30007#00005E20AAD20000
(946688572.119997) can0 19B30100#D5D5D5D5D5D5D5D5
(946688572.129997) can0 18FF01EA#5200B4085200B408
(946688572.129997) can0 18FF02EA#5200AC085200AC08
(946688572.149997) can0 18FF01EA#5200C1085200C108
(946688572.149997) can0 18FF02EA#5400A9085400A908
(946688572.149997) can0 18FF1085#0000000345010045
(946688572.149997) can0 400#51512878297D0000
(946688572.149997) can0 401#016A000000000000
(946688572.169997) can0 18FF01EA#5400B7085400B708
(946688572.169997) can0 18FF02EA#5300C7085300C708
(946688572.179997) can0 18FF1085#0000000345010045
(946688572.179997) can0 400#5051287629730000
(946688572.179997) can0 401#0069000000000000
(946688572.189997) can0 18FF01EA#5400C4085400C408
(946688572.189997) can0 18FF02EA#5300B1085300B108
(946688572.209997) can0 18FF01EA#5500C8085500C808
(946688572.209997) can0 18FF02EA#5500D1085500D108
(946688572.209997) can0 18FF1085#0000000345010045
(946688572.209997) can0 400#5051287427740000
(946688572.209997) can0 401#0069000000000000
(946688572.229997) can0 18FF01EA#5500D7085500D708
(946688572.229997) can0 18FF02EA#5500D9085500D908
(946688572.229997) can0 19B30007#00005E20AAD40000
(946688572.229997) can0 19B30100#D4D4D4D4D4D4D4D4
(946688572.239997) can0 18FF1085#0000000345010045
(946688572.239997) can0 400#5252297428780000
(946688572.239997) can0 401#0168000000000000
(946688572.249997) can0 18FF01EA#5300C6085300C608
(946688572.249997) can0 18FF02EA#5500C3085500C308
(946688572.269997) can0 18FF01EA#5300EB085300EB08
(946688572.269997) can0 18FF02EA#5300DA085300DA08
(946688572.269997) can0 18FF1085#0000000345010045
(946688572.269997) can0 400#5253287927730000
(946688572.269997) can0 401#0068000000000000
(946688572.289997) can0 18FF01EA#5300DA085300DA08
(946688572.289997) can0 18FF02EA#5200CC085200CC08
(946688572.299997) can0 18FF1085#0000000345010045
(946688572.299997) can0 400#5253287428770000
(946688572.299997) can0 401#0069000000000000
(946688572.309997) can0 18FF01EA#5500F2085500F208
(946688572.309997) can0 18FF02EA#5200F6085200F608
(946688572.329997) can0 18FF01EA#5400E5085400E508
(946688572.329997) can0 18FF02EA#5400F2085400F208
(946688572.329997) can0 18FF1085#0000000345010045
(946688572.329997) can0 400#5353287B287D0000
(946688572.329997) can0 401#0067000000000000
(946688572.339997) can0 19B30007#00005E20AAD50000
(946688572.339997) can0 19B30100#D4D4D4D4D4D4D4D4
(946688572.349997) can0 18FF01EA#5200E8085200E808
(946688572.349997) can0 18FF02EA#5300FC085300FC08
(946688572.359997) can0 18FF1085#0000000345010045
(946688572.359997) can0 400#5155287428790000
(946688572.359997) can0 401#0068000000000000
(946688572.369997) can0 18FF01EA#5300E3085300E308
(946688572.369997) can0 18FF02EA#5200090952000909
(946688572.389997) can0 18FF01EA#5200EB085200EB08
(946688572.389997) can0 18FF02EA#5400FA085400FA08
(946688572.389997) can0 18FF1085#0000000345010045
(946688572.389997) can0 400#5252297927730000
(946688572.389997) can0 401#0068000000000000
(946688572.409997) can0 18FF01EA#52000E0952000E09
(946688572.409997) can0 18FF02EA#5300140953001409
(946688572.419997) can0 18FF1085#0000000345010045
(946688572.419997) can0 400#5354277C287A0000
(946688572.419997) can0 401#0069000000000000
(946688572.429997) can0 18FF01EA#5400100954001009
(946688572.429997) can0 18FF02EA#5200F2085200F208
(946688572.449997) can0 18FF01EA#55001D0955001D09
(946688572.449997) can0 18FF02EA#5500FC085500FC08
(946688572.449997) can0 18FF1085#0000000345010045
(946688572.449997) can0 400#5553287929740000
(946688572.449997) can0 401#0167000000000000
(946688572.449997) can0 19B30007#00005E20AAD60000
(946688572.449997) can0 19B30100#D4D4D4D4D4D4D4D4
(946688572.469997) can0 18FF01EA#5400090954000909
(946688572.469997) can0 18FF02EA#5500050955000509
(946688572.479997) can0 18FF1085#0000000345010045
(946688572.479997) can0 400#5454277A297C0000
(946688572.479997) can0 401#0068000000000000
(946688572.489997) can0 18FF01EA#5400170954001709
(946688572.489997) can0 18FF02EA#5300200953002009
(946688572.509997) can0 18FF01EA#5500130955001309
(946688572.509997) can0 18FF02EA#5500090955000909
(946688572.509997) can0 18FF1085#0000000345010045
(946688572.509997) can0 400#5653287A287B0000
(946688572.509997) can0 401#0066000000000000
(946688572.529997) can0 18FF01EA#52000F0952000F09
(946688572.529997) can0 18FF02EA#5200300952003009
(946688572.539997) can0 18FF1085#0000000345010045
(946688572.539997) can0 400#5355297C287D0000
(946688572.539997) can0 401#0167000000000000
(946688572.549997) can0 18FF01EA#5200170952001709
(946688572.549997) can0 18FF02EA#52001D0952001D09
(946688572.559997) can0 19B30007#00005E20AAD70000
(946688572.559997) can0 19B30100#D4D4D4D4D4D4D4D4
(946688572.569997) can0 18FF01EA#5300360953003609
(946688572.569997) can0 18FF02EA#55002D0955002D09
(946688572.569997) can0 18FF1085#0000000345010045
(946688572.569997) can0 400#5453287C29750000
(946688572.569997) can0 401#0067000000000000
(946688572.589997) can0 18FF01EA#52001E0952001E09
(946688572.589997) can0 18FF02EA#5500280955002809
(946688572.599997) can0 18FF1085#0000000345010045
(946688572.599997) can0 400#5657287D29790000
(946688572.599997) can0 401#0067000000000000
(946688572.609997) can0 18FF01EA#5300340953003409
(946688572.609997) can0 18FF02EA#52004A0952004A09
(946688572.629997) can0 18FF01EA#5400280954002809
(946688572.629997) can0 18FF02EA#5400360954003609
(946688572.629997) can0 18FF1085#0000000345010045
(946688572.629997) can0 400#5455287527760000
(946688572.629997) can0 401#0067000000000000
(946688572.649997) can0 18FF01EA#5500360955003609
(946688572.649997) can0 18FF02EA#5500320955003209
(946688572.659997) can0 18FF1085#0000000345010045
(946688572.659997) can0 400#5554297828760000
(946688572.659997) can0 401#0066000000000000
(946688572.669997) can0 18FF01EA#5300550953005509
(946688572.669997) can0 18FF02EA#5500360955003609
(946688572.669997) can0 19B30007#00005E20AAD80000
(946688572.669997) can0 19B30100#D4D4D4D4D4D4D4D4
(946688572.689996) can0 18FF01EA#5300580953005809
(946688572.689996) can0 18FF02EA#54005D0954005D09
(946688572.689996) can0 18FF1085#0000000345010045
(946688572.689996) can0 400#56572974287D0000
(946688572.689996) can0 401#0066000000000000
(946688572.709996) can0 18FF01EA#55005D0955005D09
(946688572.709996) can0 18FF02EA#53004F0953004F09
(946688572.719996) can0 18FF1085#0000000345010045
(946688572.719996) can0 400#5856277A277D0000
(946688572.719996) can0 401#0167000000000000
(946688572.729996) can0 18FF01EA#53005D0953005D09
(946688572.729996) can0 18FF02EA#5200580952005809
(946688572.749996) can0 18FF01EA#5300500953005009
(946688572.749996) can0 18FF02EA#5400530954005309
(946688572.749996) can0 18FF1085#0000000345010045
(946688572.749996) can0 400#5857297B287B0000
(946688572.749996) can0 401#0066000000000000
(946688572.769996) can0 18FF01EA#5200610952006109
(946688572.769996) can0 18FF02EA#5500540955005409
(946688572.779996) can0 18FF1085#0000000345010045
(946688572.779996) can0 400#5759287A28760000
(946688572.779996) can0 401#0167000000000000
(946688572.779996) can0 19B30007#00005E20AAD90000
(946688572.779996) can0 19B30100#D4D4D4D4D4D4D4D4
(946688572.789996) can0 18FF01EA#5300700953007009
(946688572.789996) can0 18FF02EA#53006E0953006E09
(946688572.809996) can0 18FF01EA#55005A0955005A09
(946688572.809996) can0 18FF02EA#5300620953006209
(946688572.809996) can0 18FF1085#0000000345010045
(946688572.809996) can0 400#56552974277C0000
(946688572.809996) can0 401#0066000000000000
(946688572.829996) can0 18FF01EA#53005E0953005E09
(946688572.829996) can0 18FF02EA#5300640953006409
(946688572.839996) can0 18FF1085#0000000345010045
(946688572.839996) can0 400#5856277D27780000
(946688572.839996) can0 401#0065000000000000
(946688572.849996) can0 18FF01EA#5200700952007009
(946688572.849996) can0 18FF02EA#5400630954006309
(946688572.869996) can0 18FF01EA#55006B0955006B09
(946688572.869996) can0 18FF02EA#5300820953008209
(946688572.869996) can0 18FF1085#0000000345010045
(946688572.869996) can0 400#5856287928790000
(946688572.869996) can0 401#0165000000000000
(946688572.889996) can0 18FF01EA#5300810953008109
(946688572.889996) can0 18FF02EA#52006E0952006E09
(946688572.889996) can0 19B30007#00005E20AADA0000
(946688572.889996) can0 19B30100#D4D4D4D4D4D4D4D4
(946688572.899996) can0 18FF1085#0000000345010045
(946688572.899996) can0 400#5857277C28770000
(946688572.899996) can0 401#0166000000000000
(946688572.909996) can0 18FF01EA#52008A0952008A09
(946688572.909996) can0 18FF02EA#55008C0955008C09
(946688572.929996) can0 18FF01EA#5200740952007409
(946688572.929996) can0 18FF02EA#5500880955008809
(946688572.929996) can0 18FF1085#0000000345010045
(946688572.929996) can0 400#5957297728790000
(946688572.929996) can0 401#0165000000000000
(946688572.949996) can0 18FF01EA#5500900955009009
(946688572.949996) can0 18FF02EA#5500710955007109
(946688572.959996) can0 18FF1085#0000000345010045
(946688572.959996) can0 400#5959287628780000
(946688572.959996) can0 401#0065000000000000
(946688572.969996) can0 18FF01EA#5400960954009609
(946688572.969996) can0 18FF02EA#5300750953007509
(946688572.989996) can0 18FF01EA#5200800952008009
(946688572.989996) can0 18FF02EA#5300970953009709
(946688572.989996) can0 18FF1085#0000000345010045
(946688572.989996) can0 400#585A277C28750000
(946688572.989996) can0 401#0165000000000000
(946688572.999996) can0 19B30007#00005E20AADB0000
(946688572.999996) can0 19B30100#D4D4D4D4D4D4D4D4
(946688573.009996) can0 18FF01EA#5400810954008109
(946688573.009996) can0 18FF02EA#5400990954009909
(946688573.009996) can0 18FF1085#0000000345010045
(946688573.009996) can0 400#5757277E297A0000
(946688573.009996) can0 401#0066000000000000
(946688573.029996) can0 18FF01EA#54008F0954008F09
(946688573.029996) can0 18FF02EA#52008D0952008D09
(946688573.039996) can0 18FF1085#0000000345010045
(946688573.039996) can0 400#59582878277E0000
(946688573.039996) can0 401#0165000000000000
(946688573.049996) can0 18FF01EA#5500A6095500A609
(946688573.049996) can0 18FF02EA#54008C0954008C09
(946688573.069996) can0 18FF01EA#5500970955009709
(946688573.069996) can0 18FF02EA#5500970955009709
(946688573.069996) can0 18FF1085#0000000345010045
(946688573.069996) can0 400#585B2877287E0000
(946688573.069996) can0 401#0065000000000000
(946688573.089996) can0 18FF01EA#5400AA095400AA09
(946688573.089996) can0 18FF02EA#5300B1095300B109
(946688573.099996) can0 18FF1085#0000000345010045
(946688573.099996) can0 400#57592778297C0000
(946688573.099996) can0 401#0066000000000000
(946688573.109996) can0 18FF01EA#5500920955009209
(946688573.109996) can0 18FF02EA#55009E0955009E09
(946688573.109996) can0 19B30007#00005E20AADC0000
(946688573.109996) can0 19B30100#D4D4D4D4D4D4D4D4
(946688573.129996) can0 18FF01EA#5300940953009409
(946688573.129996) can0 18FF02EA#5500B3095500B309
(946688573.129996) can0 18FF1085#0000000345010045
(946688573.129996) can0 400#5959287D287B0000
(946688573.129996) can0 401#0166000000000000
(946688573.149996) can0 18FF01EA#5500950955009509
(946688573.149996) can0 18FF02EA#5200A6095200A609
(946688573.159996) can0 18FF1085#0000000345010045
(946688573.159996) can0 400#595B277E297C0000
(946688573.159996) can0 401#0065000000000000
(946688573.169996) can0 18FF01EA#5200BC095200BC09
(946688573.169996) can0 18FF02EA#5400BD095400BD09
(946688573.189996) can0 18FF01EA#5300AB095300AB09
(946688573.189996) can0 18FF02EA#5400B7095400B709
(946688573.189996) can0 18FF1085#0000000345010045
(946688573.189996) can0 400#5958297E287A0000
(946688573.189996) can0 401#0065000000000000
(946688573.209996) can0 18FF01EA#5300B2095300B209
(946688573.209996) can0 18FF02EA#5400C2095400C209
(946688573.219996) can0 18FF1085#0000000345010045
(946688573.219996) can0 400#5A5B2878297E0000
(946688573.219996) can0 401#0064000000000000
(946688573.219996) can0 19B30007#00005E20AADC0000
(946688573.219996) can0 19B30100#D4D4D4D4D4D4D4D4
(946688573.229996) can0 18FF01EA#5400B6095400B609
(946688573.229996) can0 18FF02EA#5300AB095300AB09
(946688573.249996) can0 18FF01EA#5200AE095200AE09
(946688573.249996) can0 18FF02EA#5200AA095200AA09
(946688573.249996) can0 18FF1085#0000000345010045
(946688573.249996) can0 400#5A5A287E297C0000
(946688573.249996) can0 401#0165000000000000
(946688573.269996) can0 18FF01EA#5300CC095300CC09
(946688573.269996) can0 18FF02EA#5200AC095200AC09
(946688573.279996) can0 18FF1085#0000000345010045
(946688573.279996) can0 400#5B5A277A287A0000
(946688573.279996) can0 401#0066000000000000
(946688573.289996) can0 18FF01EA#5500BE095500BE09
(946688573.289996) can0 18FF02EA#5500CF095500CF09
(946688573.309996) can0 18FF01EA#5400C9095400C909
(946688573.309996) can0 18FF02EA#5400CE095400CE09
(946688573.309996) can0 18FF1085#0000000345010045
(946688573.309996) can0 400#5A59287F297B0000
(946688573.309996) can0 401#0065000000000000
(946688573.329996) can0 18FF01EA#5200C5095200C509
(946688573.329996) can0 18FF02EA#5400B9095400B909
(946688573.329996) can0 19B30007#00005E20AADD0000
(946688573.329996) can0 19B30100#D4D4D4D4D4D4D4D4
(946688573.339996) can0 18FF1085#0000000345010045
(946688573.339996) can0 400#5A59297E297B0000
(946688573.339996) can0 401#0165000000000000
(946688573.349996) can0 18FF01EA#5400BB095400BB09
(946688573.349996) can0 18FF02EA#5300CC095300CC09
(946688573.369996) can0 18FF01EA#5300C7095300C709
(946688573.369996) can0 18FF02EA#5400D7095400D709
(946688573.369996) can0 18FF1085#0000000345010045
(946688573.369996) can0 400#5C59277F287D0000
(946688573.369996) can0 401#0066000000000000
(946688573.389996) can0 18FF01EA#5200D7095200D709
(946688573.389996) can0 18FF02EA#5300C4095300C409
(946688573.399996) can0 18FF1085#0000000345010045
(946688573.399996) can0 400#5D5A2877287C0000
(946688573.399996) can0 401#0066000000000000
(946688573.409996) can0 18FF01EA#5300DE095300DE09
(946688573.409996) can0 18FF02EA#5500C7095500C709
(946688573.429996) can0 18FF01EA#5300D4095300D409
(946688573.429996) can0 18FF02EA#5200CC095200CC09
(946688573.429996) can0 18FF1085#0000000345010045
(946688573.429996) can0 400#5A5B287628750000
(946688573.429996) can0 401#0165000000000000
(946688573.439996) can0 19B30007#00005E20AADE0000
(946688573.439996) can0 19B30100#D4D4D4D4D4D4D4D4
(946688573.449996) can0 18FF01EA#5400D4095400D409
(946688573.449996) can0 18FF02EA#5200D5095200D509
(946688573.459996) can0 18FF1085#0000000345010045
(946688573.459996) can0 400#5B5D277C28770000
(946688573.459996) can0 401#0166000000000000
(946688573.469996) can0 18FF01EA#5200E6095200E609
(946688573.469996) can0 18FF02EA#5400E1095400E109
(946688573.489996) can0 18FF01EA#5500E4095500E409
(946688573.489996) can0 18FF02EA#5400D4095400D409
(946688573.489996) can0 18FF1085#0000000345010045
(946688573.489996) can0 400#5A5A297B277A0000
(946688573.489996) can0 401#0164000000000000
(946688573.509996) can0 18FF01EA#5500E7095500E709
(946688573.509996) can0 18FF02EA#5200DB095200DB09
(946688573.519996) can0 18FF1085#0000000345010045
(946688573.519996) can0 400#5B5B297528770000
(946688573.519996) can0 401#0066000000000000
(946688573.529996) can0 18FF01EA#5300E7095300E709
(946688573.529996) can0 18FF02EA#5500EB095500EB09
(946688573.549996) can0 18FF01EA#5300EB095300EB09
(946688573.549996) can0 18FF02EA#5500DF095500DF09
(946688573.549996) can0 18FF1085#0000000345010045
(946688573.549996) can0 400#5A5A287B29760000
(946688573.549996) can0 401#0066000000000000
(946688573.549996) can0 19B30007#00005E20AADE0000
(946688573.549996) can0 19B30100#D4D4D4D4D4D4D4D4
(946688573.569996) can0 18FF01EA#5500E3095500E309
(946688573.569996) can0 18FF02EA#5300DB095300DB09
(946688573.579996) can0 18FF1085#0000000345010045
(946688573.579996) can0 400#5B5E2875287D0000
(946688573.579996) can0 401#0065000000000000
(946688573.589996) can0 18FF01EA#5500E0095500E009
(946688573.589996) can0 18FF02EA#5300E0095300E009
(946688573.609996) can0 18FF01EA#5300EA095300EA09
(946688573.609996) can0 18FF02EA#5500E8095500E809
(946688573.609996) can0 18FF1085#0000000345010045
(946688573.609996) can0 400#5C5A287A28780000
(946688573.609996) can0 401#0066000000000000
(946688573.629996) can0 18FF01EA#5300F1095300F109
(946688573.629996) can0 18FF02EA#5500EF095500EF09
(946688573.639996) can0 18FF1085#0000000345010045
(946688573.639996) can0 400#5A5C2876277F0000
(946688573.639996) can0 401#0165000000000000
(946688573.649996) can0 18FF01EA#5300060A5300060A
(946688573.649996) can0 18FF02EA#5200E3095200E309
(946688573.659996) can0 19B30007#00005E20AADF0000
(946688573.659996) can0 19B30100#D4D4D4D4D4D4D4D4
(946688573.669996) can0 18FF01EA#5500E2095500E209
(946688573.669996) can0 18FF02EA#5400E8095400E809
(946688573.669996) can0 18FF1085#0000000345010045
(946688573.669996) can0 400#5A5C287628760000
(946688573.669996) can0 401#0066000000000000
(946688573.689996) can0 18FF01EA#5200080A5200080A
(946688573.689996) can0 18FF02EA#5200F4095200F409
(946688573.699996) can0 18FF1085#0000000345010045
(946688573.699996) can0 400#5C5E287C28770000
(946688573.699996) can0 401#0066000000000000
(946688573.709996) can0 18FF01EA#5400F4095400F409
(946688573.709996) can0 18FF02EA#5300EF095300EF09
(946688573.729995) can0 18FF01EA#55000A0A55000A0A
(946688573.729995) can0 18FF02EA#5400000A5400000A
(946688573.729995) can0 18FF1085#0000000345010045
(946688573.729995) can0 400#5E5E297B277C0000
(946688573.729995) can0 401#0066000000000000
(946688573.749995) can0 18FF01EA#5500000A5500000A
(946688573.749995) can0 18FF02EA#54000B0A54000B0A
(946688573.759995) can0 18FF1085#0000000345010045
(946688573.759995) can0 400#5B5D287628770000
(946688573.759995) can0 401#0065000000000000
(946688573.769995) can0 18FF01EA#5500110A5500110A
(946688573.769995) can0 18FF02EA#5300F9095300F909
(946688573.769995) can0 19B30007#00005E20AADF0000
(946688573.769995) can0 19B30100#D4D4D4D4D4D4D4D4
(946688573.789995) can0 18FF01EA#55000F0A55000F0A
(946688573.789995) can0 18FF02EA#5200130A5200130A
(946688573.789995) can0 18FF1085#0000000345010045
(946688573.789995) can0 400#5E5D297728790000
(946688573.789995) can0 401#0165000000000000
(946688573.809995) can0 18FF01EA#5200020A5200020A
(946688573.809995) can0 18FF02EA#54000B0A54000B0A
(946688573.819995) can0 18FF1085#0000000345010045
(946688573.819995) can0 400#5F5D287B287D0000
(946688573.819995) can0 401#0066000000000000
(946688573.829995) can0 18FF01EA#5200130A5200130A
(946688573.829995) can0 18FF02EA#5300090A5300090A
(946688573.849995) can0 18FF01EA#5400FC095400FC09
(946688573.849995) can0 18FF02EA#52000B0A52000B0A
(946688573.849995) can0 18FF1085#0000000345010045
(946688573.849995) can0 400#5B5C287A297C0000
(946688573.849995) can0 401#0065000000000000
(946688573.869995) can0 18FF01EA#54000D0A54000D0A
(946688573.869995) can0 18FF02EA#5400060A5400060A
(946688573.879995) can0 18FF1085#0000000345010045
(946688573.879995) can0 400#5E5F2979297B0000
(946688573.879995) can0 401#0066000000000000
(946688573.879995) can0 19B30007#00005E20AAE00000
(946688573.879995) can0 19B30100#D4D4D4D4D4D4D4D4
(946688573.889995) can0 18FF01EA#5300100A5300100A
(946688573.889995) can0 18FF02EA#55001A0A55001A0A
(946688573.909995) can0 18FF01EA#5500090A5500090A
(946688573.909995) can0 18FF02EA#5300150A5300150A
(946688573.909995) can0 18FF1085#0000000345010045
(946688573.909995) can0 400#5C5E297D297C0000
(946688573.909995) can0 401#0067000000000000
(946688573.929995) can0 18FF01EA#5500010A5500010A
(946688573.929995) can0 18FF02EA#5500090A5500090A
(946688573.939995) can0 18FF1085#0000000345010045
(946688573.939995) can0 400#5E5F277E287F0000
(946688573.939995) can0 401#0166000000000000
(946688573.949995) can0 18FF01EA#5200070A5200070A
(946688573.949995) can0 18FF02EA#55000B0A55000B0A
(946688573.969995) can0 18FF01EA#5500160A5500160A
(946688573.969995) can0 18FF02EA#5400020A5400020A
(946688573.969995) can0 18FF1085#0000000345010045
(946688573.969995) can0 400#5E5D2877277B0000
(946688573.969995) can0 401#0066000000000000
(946688573.989995) can0 18FF01EA#5300120A5300120A
(946688573.989995) can0 18FF02EA#55001D0A55001D0A
(946688573.989995) can0 19B30007#00005E20AAE00000
(946688573.989995) can0 19B30100#D4D4D4D4D4D4D4D4
(946688573.999995) can0 18FF1085#0000000345010045
(946688573.999995) can0 400#5F5F2879297E0000
(946688573.999995) can0 401#0066000000000000
(946688574.009995) can0 18FF01EA#54000C0A54000C0A
(946688574.009995) can0 18FF02EA#54001F0A54001F0A
(946688574.029995) can0 18FF01EA#5500100A5500100A
(946688574.029995) can0 18FF02EA#54001C0A54001C0A
(946688574.029995) can0 18FF1085#0000000345010045
(946688574.029995) can0 400#5E5C2779287B0000
(946688574.029995) can0 401#0067000000000000
(946688574.049995) can0 18FF01EA#5200220A5200220A
(946688574.049995) can0 18FF02EA#5200220A5200220A
(946688574.059995) can0 18FF1085#0000000345010045
(946688574.059995) can0 400#5F5F277D28770000
(946688574.059995) can0 401#0067000000000000
(946688574.069995) can0 18FF01EA#52001E0A52001E0A
(946688574.069995) can0 18FF02EA#53002B0A53002B0A
(946688574.089995) can0 18FF01EA#5300190A5300190A
(946688574.089995) can0 18FF02EA#5300350A5300350A
(946688574.089995) can0 18FF1085#0000000345010045
(946688574.089995) can0 400#5F5F297C297D0000
(946688574.089995) can0 401#0066000000000000
(946688574.099995) can0 19B30007#00005E20AAE10000
(946688574.099995) can0 19B30100#D4D4D4D4D4D4D4D4
(946688574.109995) can0 18FF01EA#5200350A5200350A
(946688574.109995) can0 18FF02EA#5400110A5400110A
(946688574.119995) can0 18FF1085#0000000345010045
(946688574.119995) can0 400#5E5F287A297C0000
(946688574.119995) can0 401#0067000000000000
(946688574.129995) can0 18FF01EA#5400160A5400160A
(946688574.129995) can0 18FF02EA#5400300A5400300A
(946688574.149995) can0 18FF01EA#5200170A5200170A
(946688574.149995) can0 18FF02EA#5300240A5300240A
(946688574.149995) can0 18FF1085#0000000345010045
(946688574.149995) can0 400#5F5E297829770000
(946688574.149995) can0 401#0066000000000000
(946688574.169995) can0 18FF01EA#5500230A5500230A
(946688574.169995) can0 18FF02EA#5500220A5500220A
(946688574.179995) can0 18FF1085#0000000345010045
(946688574.179995) can0 400#5E5E297F297B0000
(946688574.179995) can0 401#0067000000000000
(946688574.189995) can0 18FF01EA#52002F0A52002F0A
(946688574.189995) can0 18FF02EA#55002B0A55002B0A
(946688574.209995) can0 18FF01EA#5500380A5500380A
(946688574.209995) can0 18FF02EA#53001C0A53001C0A
(946688574.209995) can0 18FF1085#0000000345010045
(946688574.209995) can0 400#5D5F287C297C0000
(946688574.209995) can0 401#0068000000000000
(946688574.209995) can0 19B30007#00005E20AAE10000
(946688574.209995) can0 19B30100#D4D4D4D4D4D4D4D4
(946688574.229995) can0 18FF01EA#5500330A5500330A
(946688574.229995) can0 18FF02EA#5300340A5300340A
(946688574.239995) can0 18FF1085#0000000345010045
(946688574.239995) can0 400#5D5E297828760000
(946688574.239995) can0 401#0067000000000000
(946688574.249995) can0 18FF01EA#52001B0A52001B0A
(946688574.249995) can0 18FF02EA#5300360A5300360A
(946688574.269995) can0 18FF01EA#5500390A5500390A
(946688574.269995) can0 18FF02EA#5200250A5200250A
(946688574.269995) can0 18FF1085#0000000345010045
(946688574.269995) can0 400#5D5D287B28790000
(946688574.269995) can0 401#0066000000000000
(946688574.289995) can0 18FF01EA#5200250A5200250A
(946688574.289995) can0 18FF02EA#5400310A5400310A
(946688574.299995) can0 18FF1085#0000000345010045
(946688574.299995) can0 400#5F5D2978297B0000
(946688574.299995) can0 401#0066000000000000
(946688574.309995) can0 18FF01EA#5200240A5200240A
(946688574.309995) can0 18FF02EA#5200230A5200230A
(946688574.319995) can0 19B30007#00005E20AAE10000
(946688574.319995) can0 19B30100#D4D4D4D4D4D4D4D4
(946688574.329995) can0 18FF01EA#55002F0A55002F0A
(946688574.329995) can0 18FF02EA#5200230A5200230A
(946688574.329995) can0 18FF1085#0000000345010045
(946688574.329995) can0 400#5F60287E28780000
(946688574.329995) can0 401#0067000000000000
(946688574.349995) can0 18FF01EA#55003C0A55003C0A
(946688574.349995) can0 18FF02EA#54002A0A54002A0A
(946688574.359995) can0 18FF1085#0000000345010045
(946688574.359995) can0 400#6060287A297C0000
(946688574.359995) can0 401#0067000000000000
(946688574.369995) can0 18FF01EA#5200420A5200420A
(946688574.369995) can0 18FF02EA#5300300A5300300A
(946688574.389995) can0 18FF01EA#5300400A5300400A
(946688574.389995) can0 18FF02EA#53004A0A53004A0A
(946688574.389995) can0 18FF1085#0000000345010045
(946688574.389995) can0 400#5E60287D297F0000
(946688574.389995) can0 401#0167000000000000
(946688574.409995) can0 18FF01EA#5400380A5400380A
(946688574.409995) can0 18FF02EA#5200280A5200280A
(946688574.419995) can0 18FF1085#0000000345010045
(946688574.419995) can0 400#6160297B297D0000
(946688574.419995) can0 401#0068000000000000
(946688574.429995) can0 18FF01EA#5500390A5500390A
(946688574.429995) can0 18FF02EA#5500420A5500420A
(946688574.429995) can0 19B30007#00005E20AAE20000
(946688574.429995) can0 19B30100#D4D4D4D4D4D4D4D4
(946688574.449995) can0 18FF01EA#5200500A5200500A
(946688574.449995) can0 18FF02EA#53004C0A53004C0A
(946688574.449995) can0 18FF1085#0000000345010045
(946688574.449995) can0 400#615F287F29770000
(946688574.449995) can0 401#0068000000000000
(946688574.469995) can0 18FF01EA#54004E0A54004E0A
(946688574.469995) can0 18FF02EA#55002C0A55002C0A
(946688574.479995) can0 18FF1085#0000000345010045
(946688574.479995) can0 400#605D2979287F0000
(946688574.479995) can0 401#0068000000000000
(946688574.489995) can0 18FF01EA#53004E0A53004E0A
(946688574.489995) can0 18FF02EA#5500490A5500490A
(946688574.509995) can0 18FF01EA#54004F0A54004F0A
(946688574.509995) can0 18FF02EA#5400300A5400300A
(946688574.509995) can0 18FF1085#0000000345010045
(946688574.509995) can0 400#5E5F287C29780000
(946688574.509995) can0 401#0067000000000000
(946688574.529995) can0 18FF01EA#5500450A5500450A
(946688574.529995) can0 18FF02EA#5200370A5200370A
(946688574.539995) can0 18FF1085#0000000345010045
(946688574.539995) can0 400#5F5F287E297E0000
(946688574.539995) can0 401#0069000000000000
(946688574.539995) can0 19B30007#00005E20AAE20000
(946688574.539995) can0 19B30100#D4D4D4D4D4D4D4D4
(946688574.549995) can0 18FF01EA#5400480A5400480A
(946688574.549995) can0 18FF02EA#5400550A5400550A
(946688574.569995) can0 18FF01EA#54003F0A54003F0A
(946688574.569995) can0 18FF02EA#53004A0A53004A0A
(946688574.569995) can0 18FF1085#0000000345010045
(946688574.569995) can0 400#5E5F287628780000
(946688574.569995) can0 401#006A000000000000
(946688574.589995) can0 18FF01EA#5300370A5300370A
(946688574.589995) can0 18FF02EA#53003D0A53003D0A
(946688574.599995) can0 18FF1085#0000000345010045
(946688574.599995) can0 400#615F297E287B0000
(946688574.599995) can0 401#0169000000000000
(946688574.609995) can0 18FF01EA#55005B0A55005B0A
(946688574.609995) can0 18FF02EA#5200530A5200530A
(946688574.629995) can0 18FF01EA#5200540A5200540A
(946688574.629995) can0 18FF02EA#55003F0A55003F0A
(946688574.629995) can0 18FF1085#0000000345010045
(946688574.629995) can0 400#5E60297D28770000
(946688574.629995) can0 401#0068000000000000
(946688574.649995) can0 18FF01EA#53003D0A53003D0A
(946688574.649995) can0 18FF02EA#54004E0A54004E0A
(946688574.649995) can0 19B30007#00005E20AAE20000
(946688574.649995) can0 19B30100#D4D4D4D4D4D4D4D4
(946688574.659995) can0 18FF1085#0000000345010045
(946688574.659995) can0 400#5F60297728760000
(946688574.659995) can0 401#016A000000000000
(946688574.669995) can0 18FF01EA#54003A0A54003A0A
(946688574.669995) can0 18FF02EA#5300480A5300480A
(946688574.689995) can0 18FF01EA#55005F0A55005F0A
(946688574.689995) can0 18FF02EA#5400490A5400490A
(946688574.689995) can0 18FF1085#0000000345010045
(946688574.689995) can0 400#5F5E287F29780000
(946688574.689995) can0 401#0069000000000000
(946688574.709995) can0 18FF01EA#5400490A5400490A
(946688574.709995) can0 18FF02EA#5200550A5200550A
(946688574.719995) can0 18FF1085#0000000345010045
(946688574.719995) can0 400#6060297E28800000
(946688574.719995) can0 401#0069000000000000
(946688574.729995) can0 18FF01EA#5200500A5200500A
(946688574.729995) can0 18FF02EA#5300400A5300400A
(946688574.749995) can0 18FF01EA#54004E0A54004E0A
(946688574.749995) can0 18FF02EA#5200560A5200560A
(946688574.749995) can0 18FF1085#0000000345010045
(946688574.749995) can0 400#5E5F2879287B0000
(946688574.749995) can0 401#0169000000000000
(946688574.759995) can0 19B30007#00005E20AAE20000
(946688574.759995) can0 19B30100#D4D4D4D4D4D4D4D4
(946688574.769994) can0 18FF01EA#53005B0A53005B0A
(946688574.769994) can0 18FF02EA#53004E0A53004E0A
(946688574.779994) can0 18FF1085#0000000345010045
(946688574.779994) can0 400#5F602980287C0000
(946688574.779994) can0 401#0069000000000000
(946688574.789994) can0 18FF01EA#5200660A5200660A
(946688574.789994) can0 18FF02EA#5500650A5500650A
(946688574.809994) can0 18FF01EA#5400650A5400650A
(946688574.809994) can0 18FF02EA#5300520A5300520A
(946688574.809994) can0 18FF1085#0000000345010045
(946688574.809994) can0 400#5E5E287C297E0000
(946688574.809994) can0 401#016B000000000000
(946688574.829994) can0 18FF01EA#5300570A5300570A
(946688574.829994) can0 18FF02EA#53005E0A53005E0A
(946688574.839994) can0 18FF1085#0000000345010045
(946688574.839994) can0 400#615F2980287B0000
(946688574.839994) can0 401#006A000000000000
(946688574.849994) can0 18FF01EA#52006A0A52006A0A
(946688574.849994) can0 18FF02EA#55005A0A55005A0A
(946688574.869994) can0 18FF01EA#5500630A5500630A
(946688574.869994) can0 18FF02EA#55005A0A55005A0A
(946688574.869994) can0 18FF1085#0000000345010045
(946688574.869994) can0 400#615F297F28780000
(946688574.869994) can0 401#006B000000000000
(946688574.869994) can0 19B30007#00005E20AAE30000
(946688574.869994) can0 19B30100#D4D4D4D4D4D4D4D4
(946688574.889994) can0 18FF01EA#5200480A5200480A
(946688574.889994) can0 18FF02EA#5300580A5300580A
(946688574.899994) can0 18FF1085#0000000345010045
(946688574.899994) can0 400#5F5E297B29790000
(946688574.899994) can0 401#006B000000000000
(946688574.909994) can0 18FF01EA#55005F0A55005F0A
(946688574.909994) can0 18FF02EA#5400680A5400680A
(946688574.929994) can0 18FF01EA#53006A0A53006A0A
(946688574.929994) can0 18FF02EA#53006B0A53006B0A
(946688574.929994) can0 18FF1085#0000000345010045
(946688574.929994) can0 400#615F297F297E0000
(946688574.929994) can0 401#006B000000000000
(946688574.949994) can0 18FF01EA#5300500A5300500A
(946688574.949994) can0 18FF02EA#5400580A5400580A
(946688574.959994) can0 18FF1085#0000000345010045
(946688574.959994) can0 400#5E62287D29770000
(946688574.959994) can0 401#016A000000000000
(946688574.969994) can0 18FF01EA#5200610A5200610A
(946688574.969994) can0 18FF02EA#5300530A5300530A
(946688574.979994) can0 19B30007#00005E20AAE30000
(946688574.979994) can0 19B30100#D4D4D4D4D4D4D4D4
(946688574.989994) can0 18FF01EA#53005D0A53005D0A
(946688574.989994) can0 18FF02EA#5300500A5300500A
(946688574.989994) can0 18FF1085#0000000345010045
(946688574.989994) can0 400#605F287C28770000
(946688574.989994) can0 401#016B000000000000
(946688575.009994) can0 18FF01EA#5200710A5200710A
(946688575.009994) can0 18FF02EA#54006B0A54006B0A
(946688575.019994) can0 18FF1085#0000000345010045
(946688575.019994) can0 400#6060287A287A0000
(946688575.019994) can0 401#016C000000000000
(946688575.029994) can0 18FF01EA#5500620A5500620A
(946688575.029994) can0 18FF02EA#5400720A5400720A
(946688575.049994) can0 18FF01EA#53005F0A53005F0A
(946688575.049994) can0 18FF02EA#55005C0A55005C0A
(946688575.049994) can0 18FF1085#0000000345010045
(946688575.049994) can0 400#6062287828780000
(946688575.049994) can0 401#006C000000000000
(946688575.069994) can0 18FF01EA#55006D0A55006D0A
(946688575.069994) can0 18FF02EA#53006F0A53006F0A
(946688575.079994) can0 18FF1085#0000000345010045
(946688575.079994) can0 400#5F5E297B29790000
(946688575.079994) can0 401#006C000000000000
(946688575.089994) can0 18FF01EA#5400510A5400510A
(946688575.089994) can0 18FF02EA#5300700A5300700A
(946688575.089994) can0 19B30007#00005E20AAE30000
(946688575.089994) can0 19B30100#D4D4D4D4D4D4D4D4
(946688575.109994) can0 18FF01EA#5300600A5300600A
(946688575.109994) can0 18FF02EA#5200550A5200550A
(946688575.109994) can0 18FF1085#0000000345010045
(946688575.109994) can0 400#6261297D297E0000
(946688575.109994) can0 401#006D000000000000
(946688575.129994) can0 18FF01EA#52005D0A52005D0A
(946688575.129994) can0 18FF02EA#53005A0A53005A0A
(946688575.139994) can0 18FF1085#0000000345010045
(946688575.139994) can0 400#6162297B28790000
(946688575.139994) can0 401#006D000000000000
(946688575.149994) can0 18FF01EA#5500590A5500590A
(946688575.149994) can0 18FF02EA#5500640A5500640A
(946688575.169994) can0 18FF01EA#5400770A5400770A
(946688575.169994) can0 18FF02EA#55005C0A55005C0A
(946688575.169994) can0 18FF1085#0000000345010045
(946688575.169994) can0 400#61602A77287B0000
(946688575.169994) can0 401#006C000000000000
(946688575.189994) can0 18FF01EA#5400650A5400650A
(946688575.189994) can0 18FF02EA#5300560A5300560A
(946688575.199994) can0 18FF1085#0000000345010045
(946688575.199994) can0 400#6160297E28790000
(946688575.199994) can0 401#016D000000000000
(946688575.199994) can0 19B30007#00005E20AAE30000
(946688575.199994) can0 19B30100#D4D4D4D4D4D4D4D4
(946688575.209994) can0 18FF01EA#5300540A5300540A
(946688575.209994) can0 18FF02EA#53006D0A53006D0A
(946688575.229994) can0 18FF01EA#5500640A5500640A
(946688575.229994) can0 18FF02EA#5300610A5300610A
(946688575.229994) can0 18FF1085#0000000345010045
(946688575.229994) can0 400#625F297E287A0000
(946688575.229994) can0 401#006E000000000000
(946688575.249994) can0 18FF01EA#5200700A5200700A
(946688575.249994) can0 18FF02EA#5400730A5400730A
(946688575.259994) can0 18FF1085#0000000345010045
(946688575.259994) can0 400#5E612878287E0000
(946688575.259994) can0 401#016E000000000000
(946688575.269994) can0 18FF01EA#54006F0A54006F0A
(946688575.269994) can0 18FF02EA#55006C0A55006C0A
(946688575.289994) can0 18FF01EA#5400570A5400570A
(946688575.289994) can0 18FF02EA#52005E0A52005E0A
(946688575.289994) can0 18FF1085#0000000345010045
(946688575.289994) can0 400#5F62297D287E0000
(946688575.289994) can0 401#006D000000000000
(946688575.309994) can0 18FF01EA#5500690A5500690A
(946688575.309994) can0 18FF02EA#54006E0A54006E0A
(946688575.309994) can0 19B30007#00005E20AAE30000
(946688575.309994) can0 19B30100#D4D4D4D4D4D4D4D4
(946688575.319994) can0 18FF1085#0000000345010045
(946688575.319994) can0 400#6161298028800000
(946688575.319994) can0 401#006F000000000000
(946688575.329994) can0 18FF01EA#5400670A5400670A
(946688575.329994) can0 18FF02EA#54005C0A54005C0A
(946688575.349994) can0 18FF01EA#53005E0A53005E0A
(946688575.349994) can0 18FF02EA#5300590A5300590A
(946688575.349994) can0 18FF1085#0000000345010045
(946688575.349994) can0 400#61602877287F0000
(946688575.349994) can0 401#006E000000000000
(946688575.369994) can0 18FF01EA#5500750A5500750A
(946688575.369994) can0 18FF02EA#52005B0A52005B0A
(946688575.379994) can0 18FF1085#0000000345010045
(946688575.379994) can0 400#60622877287F0000
(946688575.379994) can0 401#006F000000000000
(946688575.389994) can0 18FF01EA#5500630A5500630A
(946688575.389994) can0 18FF02EA#52005C0A52005C0A
(946688575.409994) can0 18FF01EA#5500600A5500600A
(946688575.409994) can0 18FF02EA#52006B0A52006B0A
(946688575.409994) can0 18FF1085#0000000345010045
(946688575.409994) can0 400#6261287A29780000
(946688575.409994) can0 401#016E000000000000
(946688575.419994) can0 19B30007#00005E20AAE30000
(946688575.419994) can0 19B30100#D4D4D4D4D4D4D4D4
(946688575.429994) can0 18FF01EA#53007D0A53007D0A
(946688575.429994) can0 18FF02EA#5500690A5500690A
(946688575.439994) can0 18FF1085#0000000345010045
(946688575.439994) can0 400#6163287C29780000
(946688575.439994) can0 401#006E000000000000
(946688575.449994) can0 18FF01EA#55007E0A55007E0A
(946688575.449994) can0 18FF02EA#5300630A5300630A
(946688575.469994) can0 18FF01EA#53007C0A53007C0A
(946688575.469994) can0 18FF02EA#5300670A5300670A
(946688575.469994) can0 18FF1085#0000000345010045
(946688575.469994) can0 400#6161297B287B0000
(946688575.469994) can0 401#0070000000000000
(946688575.489994) can0 18FF01EA#5500850A5500850A
(946688575.489994) can0 18FF02EA#5200840A5200840A
(946688575.499994) can0 18FF1085#0000000345010045
(946688575.499994) can0 400#6162287C28780000
(946688575.499994) can0 401#0070000000000000
(946688575.509994) can0 18FF01EA#54006B0A54006B0A
(946688575.509994) can0 18FF02EA#5400700A5400700A
(946688575.529994) can0 18FF01EA#5400660A5400660A
(946688575.529994) can0 18FF02EA#54007B0A54007B0A
(946688575.529994) can0 18FF1085#0000000345010045
(946688575.529994) can0 400#5F622A7729780000
(946688575.529994) can0 401#0070000000000000
(946688575.529994) can0 19B30007#00005E20A9E40000
(946688575.529994) can0 19B30100#D4D4D4D4D4D4D4D4
(946688575.549994) can0 18FF01EA#5400840A5400840A
(946688575.549994) can0 18FF02EA#55006B0A55006B0A
(946688575.559994) can0 18FF1085#0000000345010045
(946688575.559994) can0 400#625F287F28800000
(946688575.559994) can0 401#006F000000000000
(946688575.569994) can0 18FF01EA#5500640A5500640A
(946688575.569994) can0 18FF02EA#5300830A5300830A
(946688575.589994) can0 18FF01EA#53006B0A53006B0A
(946688575.589994) can0 18FF02EA#53007A0A53007A0A
(946688575.589994) can0 18FF1085#0000000345010045
(946688575.589994) can0 400#606029772A780000
(946688575.589994) can0 401#0071000000000000
(946688575.609994) can0 18FF01EA#5400710A5400710A
(946688575.609994) can0 18FF02EA#53006B0A53006B0A
(946688575.619994) can0 18FF1085#0000000345010045
(946688575.619994) can0 400#6061297B297B0000
(946688575.619994) can0 401#0070000000000000
(946688575.629994) can0 18FF01EA#55007A0A55007A0A
(946688575.629994) can0 18FF02EA#5300890A5300890A
(946688575.639994) can0 19B30007#00005E20A9E40000
(946688575.639994) can0 19B30100#D4D4D4D4D4D4D4D4
(946688575.649994) can0 18FF01EA#54007F0A54007F0A
(946688575.649994) can0 18FF02EA#53006E0A53006E0A
(946688575.649994) can0 18FF1085#0000000345010045
(946688575.649994) can0 400#62602A77287B0000
(946688575.649994) can0 401#0170000000000000
(946688575.669994) can0 18FF01EA#5300670A5300670A
(946688575.669994) can0 18FF02EA#5400630A5400630A
(946688575.679994) can0 18FF1085#0000000345010045
(946688575.679994) can0 400#635F287F297A0000
(946688575.679994) can0 401#0072000000000000
(946688575.689994) can0 18FF01EA#5400690A5400690A
(946688575.689994) can0 18FF02EA#5200640A5200640A
(946688575.709994) can0 18FF01EA#5300820A5300820A
(946688575.709994) can0 18FF02EA#53007C0A53007C0A
(946688575.709994) can0 18FF1085#0000000345010045
(946688575.709994) can0 400#6261297928770000
(946688575.709994) can0 401#0071000000000000
(946688575.729994) can0 18FF01EA#53006A0A53006A0A
(946688575.729994) can0 18FF02EA#5500660A5500660A
(946688575.739994) can0 18FF1085#0000000345010045
(946688575.739994) can0 400#6063288028760000
(946688575.739994) can0 401#0072000000000000
(946688575.749994) can0 18FF01EA#5300670A5300670A
(946688575.749994) can0 18FF02EA#55008B0A55008B0A
(946688575.749994) can0 19B30007#00005E20A9E40000
(946688575.749994) can0 19B30100#D4D4D4D4D4D4D4D4
(946688575.769994) can0 18FF01EA#54007E0A54007E0A
(946688575.769994) can0 18FF02EA#52006B0A52006B0A
(946688575.769994) can0 18FF1085#0000000345010045
(946688575.769994) can0 400#6060297A297B0000
(946688575.769994) can0 401#0072000000000000
(946688575.789994) can0 18FF01EA#5200880A5200880A
(946688575.789994) can0 18FF02EA#5300780A5300780A
(946688575.799994) can0 18FF1085#0000000345010045
(946688575.799994) can0 400#60612A7C287F0000
(946688575.799994) can0 401#0072000000000000
(946688575.809994) can0 18FF01EA#53008A0A53008A0A
(946688575.809994) can0 18FF02EA#5400800A5400800A
(946688575.829993) can0 18FF01EA#52006C0A52006C0A
(946688575.829993) can0 18FF02EA#5200830A5200830A
(946688575.829993) can0 18FF1085#0000000345010045
(946688575.829993) can0 400#63612A7D287B0000
(946688575.829993) can0 401#0072000000000000
(946688575.849993) can0 18FF01EA#5200710A5200710A
(946688575.849993) can0 18FF02EA#5500830A5500830A
(946688575.859993) can0 18FF1085#0000000345010045
(946688575.859993) can0 400#6262287729770000
(946688575.859993) can0 401#0073000000000000
(946688575.859993) can0 19B30007#00005E20A9E40000
(946688575.859993) can0 19B30100#D4D4D4D4D4D4D4D4
(946688575.869993) can0 18FF01EA#55006C0A55006C0A
(946688575.869993) can0 18FF02EA#54007C0A54007C0A
(946688575.889993) can0 18FF01EA#52007B0A52007B0A
(946688575.889993) can0 18FF02EA#5300710A5300710A
(946688575.889993) can0 18FF1085#0000000345010045
(946688575.889993) can0 400#6262287828770000
(946688575.889993) can0 401#0173000000000000
(946688575.909993) can0 18FF01EA#54008C0A54008C0A
(946688575.909993) can0 18FF02EA#5300880A5300880A
(946688575.919993) can0 18FF1085#0000000345010045
(946688575.919993) can0 400#62622A7E297B0000
(946688575.919993) can0 401#0073000000000000
(946688575.929993) can0 18FF01EA#5300740A5300740A
(946688575.929993) can0 18FF02EA#55008A0A55008A0A
(946688575.949993) can0 18FF01EA#52006A0A52006A0A
(946688575.949993) can0 18FF02EA#5200700A5200700A
(946688575.949993) can0 18FF1085#0000000345010045
(946688575.949993) can0 400#616129772A7F0000
(946688575.949993) can0 401#0074000000000000
(946688575.969993) can0 18FF01EA#5300720A5300720A
(946688575.969993) can0 18FF02EA#52007D0A52007D0A
(946688575.969993) can0 19B30007#00005E20A9E40000
(946688575.969993) can0 19B30100#D4D4D4D4D4D4D4D4
(946688575.979993) can0 18FF1085#0000000345010045
(946688575.979993) can0 400#6161297728800000
(946688575.979993) can0 401#0074000000000000
(946688575.989993) can0 18FF01EA#52008F0A52008F0A
(946688575.989993) can0 18FF02EA#52007F0A52007F0A
(946688576.009993) can0 18FF01EA#5500900A5500900A
(946688576.009993) can0 18FF02EA#53007F0A53007F0A
(946688576.009993) can0 18FF1085#0000000345010045
(946688576.009993) can0 400#6062287F297D0000
(946688576.009993) can0 401#0174000000000000
(946688576.029993) can0 18FF01EA#5300880A5300880A
(946688576.029993) can0 18FF02EA#55008E0A55008E0A
(946688576.039993) can0 18FF1085#0000000345010045
(946688576.039993) can0 400#636329802A7E0000
(946688576.039993) can0 401#0074000000000000
(946688576.049993) can0 18FF01EA#52007A0A52007A0A
(946688576.049993) can0 18FF02EA#5500760A5500760A
(946688576.069993) can0 18FF01EA#5500850A5500850A
(946688576.069993) can0 18FF02EA#5200760A5200760A
(946688576.069993) can0 18FF1085#0000000345010045
(946688576.069993) can0 400#61612A7C28780000
(946688576.069993) can0 401#0076000000000000
(946688576.079993) can0 19B30007#00005E20A9E40000
(946688576.079993) can0 19B30100#D4D4D4D4D4D4D4D4
(946688576.089993) can0 18FF01EA#5500920A5500920A
(946688576.089993) can0 18FF02EA#5400700A5400700A
(946688576.099993) can0 18FF1085#0000000345010045
(946688576.099993) can0 400#6262297A287C0000
(946688576.099993) can0 401#0174000000000000
(946688576.109993) can0 18FF01EA#54006F0A54006F0A
(946688576.109993) can0 18FF02EA#5200880A5200880A
(946688576.129993) can0 18FF01EA#54008C0A54008C0A
(946688576.129993) can0 18FF02EA#5200920A5200920A
(946688576.129993) can0 18FF1085#0000000345010045
(946688576.129993) can0 400#62622A7D297A0000
(946688576.129993) can0 401#0176000000000000
(946688576.149993) can0 18FF01EA#5300920A5300920A
(946688576.149993) can0 18FF02EA#5400900A5400900A
(946688576.159993) can0 18FF1085#0000000345010045
(946688576.159993) can0 400#61622878287B0000
(946688576.159993) can0 401#0076000000000000
(946688576.169993) can0 18FF01EA#54008E0A54008E0A
(946688576.169993) can0 18FF02EA#54008B0A54008B0A
(946688576.189993) can0 18FF01EA#5200910A5200910A
(946688576.189993) can0 18FF02EA#5400830A5400830A
(946688576.189993) can0 18FF1085#0000000345010045
(946688576.189993) can0 400#6161287B29800000
(946688576.189993) can0 401#0175000000000000
(946688576.189993) can0 19B30007#00005E20A9E40000
(946688576.189993) can0 19B30100#D4D4D4D4D4D4D4D4
(946688576.209993) can0 18FF01EA#5200930A5200930A
(946688576.209993) can0 18FF02EA#5500730A5500730A
(946688576.219993) can0 18FF1085#0000000345010045
(946688576.219993) can0 400#605F287B297A0000
(946688576.219993) can0 401#0177000000000000
(946688576.229993) can0 18FF01EA#5400780A5400780A
(946688576.229993) can0 18FF02EA#5400790A5400790A
(946688576.249993) can0 18FF01EA#5200780A5200780A
(946688576.249993) can0 18FF02EA#5400880A5400880A
(946688576.249993) can0 18FF1085#0000000345010045
(946688576.249993) can0 400#63622A7928780000
(946688576.249993) can0 401#0076000000000000
(946688576.269993) can0 18FF01EA#5500940A5500940A
(946688576.269993) can0 18FF02EA#53007C0A53007C0A
(946688576.279993) can0 18FF1085#0000000345010045
(946688576.279993) can0 400#60622A7B28770000
(946688576.279993) can0 401#0077000000000000
(946688576.289993) can0 18FF01EA#5200830A5200830A
(946688576.289993) can0 18FF02EA#5500740A5500740A
(946688576.299993) can0 19B30007#00005E20A9E40000
(946688576.299993) can0 19B30100#D4D4D4D4D4D4D4D4
(946688576.309993) can0 18FF01EA#55008E0A55008E0A
(946688576.309993) can0 18FF02EA#53007E0A53007E0A
(946688576.309993) can0 18FF1085#0000000345010045
(946688576.309993) can0 400#61612A7F287B0000
(946688576.309993) can0 401#0078000000000000
(946688576.329993) can0 18FF01EA#53007F0A53007F0A
(946688576.329993) can0 18FF02EA#52008D0A52008D0A
(946688576.339993) can0 18FF1085#0000000345010045
(946688576.339993) can0 400#6262297C287D0000
(946688576.339993) can0 401#0078000000000000
(946688576.349993) can0 18FF01EA#5400910A5400910A
(946688576.349993) can0 18FF02EA#5200830A5200830A
(946688576.369993) can0 18FF01EA#5500900A5500900A
(946688576.369993) can0 18FF02EA#5400910A5400910A
(946688576.369993) can0 18FF1085#0000000345010045
(946688576.369993) can0 400#6160297B297F0000
(946688576.369993) can0 401#0079000000000000
(946688576.389993) can0 18FF01EA#5300810A5300810A
(946688576.389993) can0 18FF02EA#5300930A5300930A
(946688576.399993) can0 18FF1085#0000000345010045
(946688576.399993) can0 400#62622A78297F0000
(946688576.399993) can0 401#0078000000000000
(946688576.409993) can0 18FF01EA#5200810A5200810A
(946688576.409993) can0 18FF02EA#52008F0A52008F0A
(946688576.409993) can0 19B30007#00005E20A9E40000
(946688576.409993) can0 19B30100#D4D4D4D4D4D4D4D4
(946688576.429993) can0 18FF01EA#53008F0A53008F0A
(946688576.429993) can0 18FF02EA#54008C0A54008C0A
(946688576.429993) can0 18FF1085#0000000345010045
(946688576.429993) can0 400#60612A7F287B0000
(946688576.429993) can0 401#0079000000000000
(946688576.449993) can0 18FF01EA#55008F0A55008F0A
(946688576.449993) can0 18FF02EA#5200990A5200990A
(946688576.459993) can0 18FF1085#0000000345010045
(946688576.459993) can0 400#6161287E2A770000
(946688576.459993) can0 401#0078000000000000
(946688576.469993) can0 18FF01EA#55008C0A55008C0A
(946688576.469993) can0 18FF02EA#5200890A5200890A
(946688576.489993) can0 18FF01EA#54009B0A54009B0A
(946688576.489993) can0 18FF02EA#5400840A5400840A
(946688576.489993) can0 18FF1085#0000000345010045
(946688576.489993) can0 400#6062287B287C0000
(946688576.489993) can0 401#0179000000000000
(946688576.509993) can0 18FF01EA#5300880A5300880A
(946688576.509993) can0 18FF02EA#53008F0A53008F0A
(946688576.519993) can0 18FF1085#0000000345010045
(946688576.519993) can0 400#6060297829790000
(946688576.519993) can0 401#007A000000000000
(946688576.519993) can0 19B30007#00005E20A9E40000
(946688576.519993) can0 19B30100#D4D4D4D4D4D4D4D4
(946688576.529993) can0 18FF01EA#53009D0A53009D0A
(946688576.529993) can0 18FF02EA#53007E0A53007E0A
(946688576.549993) can0 18FF01EA#5300850A5300850A
(946688576.549993) can0 18FF02EA#5400980A5400980A
(946688576.549993) can0 18FF1085#0000000345010045
(946688576.549993) can0 400#6163297B297E0000
(946688576.549993) can0 401#007A000000000000
(946688576.569993) can0 18FF01EA#5400980A5400980A
(946688576.569993) can0 18FF02EA#5300810A5300810A
(946688576.579993) can0 18FF1085#0000000345010045
(946688576.579993) can0 400#6362287F28800000
(946688576.579993) can0 401#017A000000000000
(946688576.589993) can0 18FF01EA#5400930A5400930A
(946688576.589993) can0 18FF02EA#55008F0A55008F0A
(946688576.609993) can0 18FF01EA#5500980A5500980A
(946688576.609993) can0 18FF02EA#55008F0A55008F0A
(946688576.609993) can0 18FF1085#0000000345010045
(946688576.609993) can0 400#60642A7B297E0000
(946688576.609993) can0 401#017A000000000000
(946688576.629993) can0 18FF01EA#5400830A5400830A
(946688576.629993) can0 18FF02EA#5200810A5200810A
(946688576.629993) can0 19B30007#00005E20A9E50000
(946688576.629993) can0 19B30100#D4D4D4D4D4D4D4D4
(946688576.639993) can0 18FF1085#0000000345010045
(946688576.639993) can0 400#63622A7B287B0000
(946688576.639993) can0 401#007B000000000000
(946688576.649993) can0 18FF01EA#54007E0A54007E0A
(946688576.649993) can0 18FF02EA#5300840A5300840A
(946688576.669993) can0 18FF01EA#5400840A5400840A
(946688576.669993) can0 18FF02EA#5300870A5300870A
(946688576.669993) can0 18FF1085#0000000345010045
(946688576.669993) can0 400#61622A79287E0000
(946688576.669993) can0 401#017A000000000000
(946688576.689993) can0 18FF01EA#54008C0A54008C0A
(946688576.689993) can0 18FF02EA#5400850A5400850A
(946688576.699993) can0 18FF1085#0000000345010045
(946688576.699993) can0 400#6162297D28800000
(946688576.699993) can0 401#017C000000000000
(946688576.709993) can0 18FF01EA#52007C0A52007C0A
(946688576.709993) can0 18FF02EA#5400960A5400960A
(946688576.729993) can0 18FF01EA#5200810A5200810A
(946688576.729993) can0 18FF02EA#5200A00A5200A00A
(946688576.729993) can0 18FF1085#0000000345010045
(946688576.729993) can0 400#64602A7B297C0000
(946688576.729993) can0 401#007C000000000000
(946688576.739993) can0 19B30007#00005E20A9E50000
(946688576.739993) can0 19B30100#D4D4D4D4D4D4D4D4
(946688576.749993) can0 18FF01EA#52008A0A52008A0A
(946688576.749993) can0 18FF02EA#55009E0A55009E0A
(946688576.759993) can0 18FF1085#0000000345010045
(946688576.759993) can0 400#60642A7F29770000
(946688576.759993) can0 401#007D000000000000
(946688576.769993) can0 18FF01EA#55009B0A55009B0A
(946688576.769993) can0 18FF02EA#53008D0A53008D0A
(946688576.789993) can0 18FF01EA#53007B0A53007B0A
(946688576.789993) can0 18FF02EA#5200870A5200870A
(946688576.789993) can0 18FF1085#0000000345010045
(946688576.789993) can0 400#6163297C297F0000
(946688576.789993) can0 401#017C000000000000
(946688576.809993) can0 18FF01EA#5200950A5200950A
(946688576.809993) can0 18FF02EA#5500900A5500900A
(946688576.819993) can0 18FF1085#0000000345010045
(946688576.819993) can0 400#6161297D2A7A0000
(946688576.819993) can0 401#017D000000000000
(946688576.829993) can0 18FF01EA#5300880A5300880A
(946688576.829993) can0 18FF02EA#5400880A5400880A
(946688576.849993) can0 18FF01EA#5500930A5500930A
(946688576.849993) can0 18FF02EA#53009E0A53009E0A
(946688576.849993) can0 18FF1085#0000000345010045
(946688576.849993) can0 400#6063297A297C0000
(946688576.849993) can0 401#007D000000000000
(946688576.849993) can0 19B30007#00005E20A9E50000
(946688576.849993) can0 19B30100#D4D4D4D4D4D4D4D4
(946688576.869992) can0 18FF01EA#55008B0A55008B0A
(946688576.869992) can0 18FF02EA#5500890A5500890A
(946688576.879992) can0 18FF1085#0000000345010045
(946688576.879992) can0 400#6261287C2A7D0000
(946688576.879992) can0 401#007D000000000000
(946688576.889992) can0 18FF01EA#5400880A5400880A
(946688576.889992) can0 18FF02EA#53009D0A53009D0A
(946688576.909992) can0 18FF01EA#54008D0A54008D0A
(946688576.909992) can0 18FF02EA#53008E0A53008E0A
(946688576.909992) can0 18FF1085#0000000345010045
(946688576.909992) can0 400#6161287F287D0000
(946688576.909992) can0 401#007D000000000000
(946688576.929992) can0 18FF01EA#5400870A5400870A
(946688576.929992) can0 18FF02EA#5400980A5400980A
(946688576.939992) can0 18FF1085#0000000345010045
(946688576.939992) can0 400#61622A7F2A7A0000
(946688576.939992) can0 401#007D000000000000
(946688576.949992) can0 18FF01EA#5400A10A5400A10A
(946688576.949992) can0 18FF02EA#5400880A5400880A
(946688576.959992) can0 19B30007#00005E20A9E50000
(946688576.959992) can0 19B30100#D4D4D4D4D4D4D4D4
(946688576.969992) can0 18FF01EA#5500860A5500860A
(946688576.969992) can0 18FF02EA#5300960A5300960A
(946688576.969992) can0 18FF1085#0000000345010045
(946688576.969992) can0 400#62632A7828770000
(946688576.969992) can0 401#007E000000000000
(946688576.989992) can0 18FF01EA#5300920A5300920A
(946688576.989992) can0 18FF02EA#54008A0A54008A0A
(946688576.999992) can0 18FF1085#0000000345010045
(946688576.999992) can0 400#64642A7E29780000
(946688576.999992) can0 401#007E000000000000
(946688577.009992) can0 18FF01EA#52009F0A52009F0A
(946688577.009992) can0 18FF02EA#5500860A5500860A
(946688577.029992) can0 18FF01EA#5500920A5500920A
(946688577.029992) can0 18FF02EA#54009D0A54009D0A
(946688577.029992) can0 18FF1085#0000000345010045
(946688577.029992) can0 400#606129782A780000
(946688577.029992) can0 401#007E000000000000
(946688577.049992) can0 18FF01EA#5500820A5500820A
(946688577.049992) can0 18FF02EA#54007F0A54007F0A
(946688577.059992) can0 18FF1085#0000000345010045
(946688577.059992) can0 400#63642A7D2A780000
(946688577.059992) can0 401#007E000000000000
(946688577.069992) can0 18FF01EA#54008E0A54008E0A
(946688577.069992) can0 18FF02EA#5200800A5200800A
(946688577.069992) can0 19B30007#00005E20A9E50000
(946688577.069992) can0 19B30100#D4D4D4D4D4D4D4D4
(946688577.089992) can0 18FF01EA#5200A00A5200A00A
(946688577.089992) can0 18FF02EA#5400A10A5400A10A
(946688577.089992) can0 18FF1085#0000000345010045
(946688577.089992) can0 400#61602A76297E0000
(946688577.089992) can0 401#007F000000000000
(946688577.109992) can0 18FF01EA#55008D0A55008D0A
(946688577.109992) can0 18FF02EA#5500980A5500980A
(946688577.119992) can0 18FF1085#0000000345010045
(946688577.119992) can0 400#6162297C29770000
(946688577.119992) can0 401#007F000000000000
(946688577.129992) can0 18FF01EA#5300A40A5300A40A
(946688577.129992) can0 18FF02EA#52007F0A52007F0A
(946688577.149992) can0 18FF01EA#53008B0A53008B0A
(946688577.149992) can0 18FF02EA#53009A0A53009A0A
(946688577.149992) can0 18FF1085#0000000345010045
(946688577.149992) can0 400#61612A7C2A800000
