(946688569.010000) can0 001#1C00000000000000
(946688569.010000) can0 002#D503000000000000
(946688569.020000) can0 001#3600000000000000
(946688569.020000) can0 002#D503000000000000
(946688569.020000) can0 18FF1515#0000000306010006
(946688569.020000) can0 400#0001276327640000
(946688569.020000) can0 401#007E000000000000
(946688569.040000) can0 001#6700010000000000
(946688569.040000) can0 002#D503050002000000
(946688569.040000) can0 18FF1515#000000030C01000C
(946688569.040000) can0 400#0000286128620000
(946688569.040000) can0 401#007E000000000000
(946688569.050000) can0 001#7E00010000000000
(946688569.050000) can0 002#D503090003000000
(946688569.060000) can0 001#9400020000000000
(946688569.060000) can0 002#D5030D0005000000
(946688569.060000) can0 18FF1515#0000000312010012
(946688569.060000) can0 400#0002286128620000
(946688569.060000) can0 401#017E000000000000
(946688569.070000) can0 001#A800030000000000
(946688569.070000) can0 002#D503120007000000
(946688569.090000) can0 001#CE00060000000000
(946688569.090000) can0 002#D5031E000B000000
(946688569.090000) can0 18FF1515#0000000319010019
(946688569.090000) can0 400#0000276228630000
(946688569.090000) can0 401#007E000000000000
(946688569.110000) can0 001#F100080000000000
(946688569.110000) can0 002#D5032C000F000000
(946688569.110000) can0 18FF01EA#0A1F7DB57D007D50
(946688569.110000) can0 18FF02EA#0A1F7DB57D007D50
(946688569.110000) can0 19B50001#8CA0960000000000
(946688569.110000) can0 19B50008#8286840000000000
(946688569.110000) can0 19B50100#9696969696969696
(946688569.110000) can0 19B50800#8484848484848484
(946688569.120000) can0 18FF1515#0000000320010020
(946688569.120000) can0 400#0102276727660000
(946688569.120000) can0 401#007E000000000000
(946688569.130000) can0 001#10010C0000000000
(946688569.130000) can0 002#D5033C0015000000
(946688569.140000) can0 001#1E010D0000000000
(946688569.140000) can0 002#D503450017000000
(946688569.140000) can0 18FF1515#0000000323010023
(946688569.140000) can0 400#0000276528680000
(946688569.140000) can0 401#007F000000000000
(946688569.150000) can0 001#2C010F0000000000
(946688569.150000) can0 002#D5034E001A000000
(946688569.160000) can0 001#3901110000000000
(946688569.160000) can0 002#D50358001E000000
(946688569.160000) can0 18FF1515#0000000327010027
(946688569.160000) can0 400#0000286027600000
(946688569.160000) can0 401#017F000000000000
(946688569.170000) can0 001#4501130000000000
(946688569.170000) can0 002#D503620021000000
(946688569.180000) can0 001#5001150000000000
(946688569.180000) can0 002#D5036C0024000000
(946688569.180000) can0 18FF1515#000000032A01002A
(946688569.180000) can0 400#0301286128610000
(946688569.180000) can0 401#007F000000000000
(946688569.190000) can0 001#5B01170000000000
(946688569.190000) can0 002#D503770028000000
(946688569.200000) can0 001#66011A0000000000
(946688569.200000) can0 002#D50382002B000000
(946688569.200000) can0 18FF1515#000000032C01002C
(946688569.200000) can0 400#0401286127680000
(946688569.200000) can0 401#007F000000000000
(946688569.210000) can0 001#70011C0000000000
(946688569.210000) can0 002#D5038D002F000000
(946688569.210000) can0 18FF01EA#0A5D7D147E007D50
(946688569.210000) can0 18FF02EA#0A5D7D147E007D50
(946688569.210000) can0 19B50001#8CA0960000000000
(946688569.210000) can0 19B50008#8286840000000000
(946688569.210000) can0 19B50100#9696969696969696
(946688569.210000) can0 19B50800#8484848484848484
(946688569.220000) can0 001#79011E0000000000
(946688569.220000) can0 002#D503990033000000
(946688569.220000) can0 18FF1515#000000032F01002F
(946688569.220000) can0 400#0302276628610000
(946688569.220000) can0 401#017F000000000000
(946688569.230000) can0 001#8201210000000000
(946688569.230000) can0 002#D503A50037000000
(946688569.240000) can0 001#8A01230001000000
(946688569.240000) can0 002#D503B1003A000000
(946688569.240000) can0 18FF1515#0000000331010031
(946688569.240000) can0 400#0403286528660000
(946688569.240000) can0 401#017F000000000000
(946688569.260000) can0 001#9A01280001000000
(946688569.260000) can0 002#D503CA0043000000
(946688569.270000) can0 001#A1012B0001000000
(946688569.270000) can0 002#D503D70047000000
(946688569.270000) can0 18FF1515#0000000334010034
(946688569.270000) can0 400#0506276228690000
(946688569.270000) can0 401#017F000000000000
(946688569.280000) can0 001#A8012D0001000000
(946688569.280000) can0 002#D503E4004B000000
(946688569.290000) can0 001#AE01300001000000
(946688569.290000) can0 002#D503F1004F000000
(946688569.290000) can0 18FF1515#0000000336010036
(946688569.290000) can0 400#0407286228670000
(946688569.290000) can0 401#007E000000000000
(946688569.300000) can0 001#B401320002000000
(946688569.300000) can0 002#D503FE0054000000
(946688569.310000) can0 001#BA01350002000000
(946688569.310000) can0 002#D5030C0158000000
(946688569.310000) can0 18FF1515#0000000337010037
(946688569.310000) can0 400#0806276128640000
(946688569.310000) can0 401#007F000000000000
(946688569.310000) can0 18FF01EA#0AAF7D4E7E007D50
(946688569.310000) can0 18FF02EA#0AAF7D4E7E007D50
(946688569.310000) can0 19B50001#8CA0960000000000
(946688569.310000) can0 19B50008#8286840000000000
(946688569.310000) can0 19B50100#9696969696969696
(946688569.310000) can0 19B50800#8484848484848484
(946688569.320000) can0 001#BF01380002000000
(946688569.320000) can0 002#D50319015D000000
(946688569.330000) can0 001#C4013B0002000000
(946688569.330000) can0 002#D503270161000000
(946688569.330000) can0 18FF1515#0000000339010039
(946688569.330000) can0 400#0506276328640000
(946688569.330000) can0 401#007F000000000000
(946688569.340000) can0 001#C9013D0003000000
(946688569.340000) can0 002#D503350166000000
(946688569.350000) can0 001#CD01400003000000
(946688569.350000) can0 002#D50343016A000000
(946688569.350000) can0 18FF1515#000000033A01003A
(946688569.350000) can0 400#0809286628680000
(946688569.350000) can0 401#007F000000000000
(946688569.360000) can0 001#D101430003000000
(946688569.360000) can0 002#D50351016F000000
(946688569.370000) can0 001#D501460004000000
(946688569.370000) can0 002#D5035F0174000000
(946688569.370000) can0 18FF1515#000000033B01003B
(946688569.370000) can0 400#0709286427640000
(946688569.370000) can0 401#017E000000000000
(946688569.380000) can0 001#D901490004000000
(946688569.380000) can0 002#D5036D0178000000
(946688569.390000) can0 001#DD014C0004000000
(946688569.390000) can0 002#D5037C017D000000
(946688569.390000) can0 18FF1515#000000033C01003C
(946688569.390000) can0 400#0808276728670000
(946688569.390000) can0 401#007D000000000000
(946688569.400000) can0 001#E0014E0005000000
(946688569.400000) can0 002#D5038A0182000000
(946688569.410000) can0 001#E301510005000000
(946688569.410000) can0 002#D503990187000000
(946688569.410000) can0 18FF1515#000000033D01003D
(946688569.410000) can0 400#0907286528690000
(946688569.410000) can0 401#007E000000000000
(946688569.410000) can0 18FF01EA#0A0B7E707E007D50
(946688569.410000) can0 18FF02EA#0A0B7E707E007D50
(946688569.410000) can0 19B50001#8CA0960000000000
(946688569.410000) can0 19B50008#8286840000000000
(946688569.410000) can0 19B50100#9696969696969696
(946688569.410000) can0 19B50800#8484848484848484
(946688569.420000) can0 001#E601540005000000
(946688569.420000) can0 002#D503A7018C000000
(946688569.430000) can0 001#E901570006000000
(946688569.430000) can0 002#D503B60191000000
(946688569.430000) can0 18FF1515#000000033E01003E
(946688569.430000) can0 400#0C08286327640000
(946688569.430000) can0 401#007E000000000000
(946688569.440000) can0 001#EB015A0006000000
(946688569.440000) can0 002#D503C50195000000
(946688569.450000) can0 001#ED015D0007000000
(946688569.450000) can0 002#D503D4019A000000
(946688569.450000) can0 18FF1515#000000033F01003F
(946688569.450000) can0 400#0C0C286B28680000
(946688569.450000) can0 401#007D000000000000
(946688569.460000) can0 001#F001600007000000
(946688569.460000) can0 002#D503E2019F000000
(946688569.470000) can0 001#F201630008000000
(946688569.470000) can0 002#D503F101A4000000
(946688569.470000) can0 18FF1515#000000033F01003F
(946688569.470000) can0 400#0A0B286828620000
(946688569.470000) can0 401#017F000000000000
(946688569.480000) can0 001#F301660008000000
(946688569.480000) can0 002#D5030002A9000000
(946688569.490000) can0 001#F501690009000000
(946688569.490000) can0 002#D5030F02AE000000
(946688569.490000) can0 18FF1515#0000000340010040
(946688569.490000) can0 400#0D0B2769286B0000
(946688569.490000) can0 401#017F000000000000
(946688569.510000) can0 001#F8016F000A000000
(946688569.510000) can0 002#D5032E02B8000000
(946688569.510000) can0 18FF01EA#0A6E7E857E007D50
(946688569.510000) can0 18FF02EA#0A6E7E857E007D50
(946688569.510000) can0 19B50001#8CA0960000000000
(946688569.510000) can0 19B50008#8286840000000000
(946688569.510000) can0 19B50100#9696969696969696
(946688569.510000) can0 19B50800#8484848484848484
(946688569.520000) can0 001#F90172000A000000
(946688569.520000) can0 002#D5033D02BD000000
(946688569.520000) can0 18FF1515#0000000341010041
(946688569.520000) can0 400#0C0B276428630000
(946688569.520000) can0 401#007E000000000000
(946688569.529999) can0 001#FB0175000B000000
(946688569.529999) can0 002#D5034C02C3000000
(946688569.539999) can0 001#FC0178000C000000
(946688569.539999) can0 002#D5035B02C8000000
(946688569.539999) can0 18FF1515#0000000341010041
(946688569.539999) can0 400#0E0E2767286C0000
(946688569.539999) can0 401#017E000000000000
(946688569.549999) can0 001#FD017B000C000000
(946688569.549999) can0 002#D5036A02CD000000
(946688569.559999) can0 001#FE017E000D000000
(946688569.559999) can0 002#D5037902D2000000
(946688569.559999) can0 18FF1515#0000000342010042
(946688569.559999) can0 400#0E10276428640000
(946688569.559999) can0 401#007E000000000000
(946688569.569999) can0 001#FE0181000E000000
(946688569.569999) can0 002#D5038902D7000000
(946688569.579999) can0 001#FF0184000E000000
(946688569.579999) can0 002#D5039802DC000000
(946688569.579999) can0 18FF1515#0000000342010042
(946688569.579999) can0 400#0E11286728660000
(946688569.579999) can0 401#007F000000000000
(946688569.589999) can0 001#000287000F000000
(946688569.589999) can0 002#D503A702E1000000
(946688569.599999) can0 001#00028B0010000000
(946688569.599999) can0 002#D503B702E6000000
(946688569.599999) can0 18FF1515#0000000342010042
(946688569.599999) can0 400#1011286A276C0000
(946688569.599999) can0 401#007E000000000000
(946688569.599999) can0 18FF1080#0000000000000000
(946688569.599999) can0 18FF1180#0000000000000000
(946688569.599999) can0 18FF1280#0000000000000000
(946688569.599999) can0 18FFE180#0000000000000000
(946688569.599999) can0 18FFE280#0000000000000000
(946688569.609999) can0 001#00028E0010000000
(946688569.609999) can0 002#D503C602EB000000
(946688569.609999) can0 18FF01EA#0AD37E917E007D50
(946688569.609999) can0 18FF02EA#0AD37E917E007D50
(946688569.609999) can0 19B50001#8CA0960000000000
(946688569.609999) can0 19B50008#8286840000000000
(946688569.609999) can0 19B50100#9696969696969696
(946688569.609999) can0 19B50800#8484848484848484
(946688569.619999) can0 001#0102910011000000
(946688569.619999) can0 002#D503D502F1000000
(946688569.619999) can0 18FF1515#0000000343010043
(946688569.619999) can0 400#1011276727630000
(946688569.619999) can0 401#007E000000000000
(946688569.629999) can0 001#0102940012000000
(946688569.629999) can0 002#D503E502F6000000
(946688569.639999) can0 001#0102970013000000
(946688569.639999) can0 002#D503F402FB000000
(946688569.639999) can0 18FF1515#0000000343010043
(946688569.639999) can0 400#1010276927670000
(946688569.639999) can0 401#017D000000000000
(946688569.649999) can0 001#01029A0013000000
(946688569.649999) can0 002#D503030300010000
(946688569.659999) can0 001#01029D0014000000
(946688569.659999) can0 002#D503130305010000
(946688569.659999) can0 18FF1515#0000000343010043
(946688569.659999) can0 400#13112865286A0000
(946688569.659999) can0 401#007D000000000000
(946688569.669999) can0 001#0102A00015000000
(946688569.669999) can0 002#D50322030A010000
(946688569.679999) can0 001#0102A30016000000
(946688569.679999) can0 002#D50331030F010000
(946688569.679999) can0 18FF1515#0000000343010043
(946688569.679999) can0 400#1313286B276D0000
(946688569.679999) can0 401#017C000000000000
(946688569.689999) can0 001#0102A60017000000
(946688569.689999) can0 002#D503410315010000
(946688569.699999) can0 001#0102A90018000000
(946688569.699999) can0 002#D50350031A010000
(946688569.699999) can0 18FF1515#0000000344010044
(946688569.699999) can0 400#1613276627660000
(946688569.699999) can0 401#007D000000000000
(946688569.709999) can0 001#0002AC0019000000
(946688569.709999) can0 002#D5035F031F010000
(946688569.709999) can0 18FF01EA#0A387F987E007D50
(946688569.709999) can0 18FF02EA#0A387F987E007D50
(946688569.709999) can0 19B50001#8CA0960000000000
(946688569.709999) can0 19B50008#8286840000000000
(946688569.709999) can0 19B50100#9696969696969696
(946688569.709999) can0 19B50800#8484848484848484
(946688569.719999) can0 001#0002AF0019000000
(946688569.719999) can0 002#D5036F0324010000
(946688569.719999) can0 18FF1515#0000000344010044
(946688569.719999) can0 400#16162767286E0000
(946688569.719999) can0 401#007D000000000000
(946688569.729999) can0 001#0002B2001A000000
(946688569.729999) can0 002#D5037E0329010000
(946688569.739999) can0 001#FF01B6001B000000
(946688569.739999) can0 002#D5038E032E010000
(946688569.739999) can0 18FF1515#0000000344010044
(946688569.739999) can0 400#1415276C276E0000
(946688569.739999) can0 401#007E000000000000
(946688569.749999) can0 001#FF01B9001C000000
(946688569.749999) can0 002#D5039D0333010000
(946688569.759999) can0 001#FE01BC001D000000
(946688569.759999) can0 002#D503AC0338010000
(946688569.759999) can0 18FF1515#0000000344010044
(946688569.759999) can0 400#14182769286C0000
(946688569.759999) can0 401#007C000000000000
(946688569.769999) can0 001#FE01BF001E000000
(946688569.769999) can0 002#D503BC033D010000
(946688569.779999) can0 001#FD01C2001F000000
(946688569.779999) can0 002#D503CB0343010000
(946688569.779999) can0 18FF1515#0000000344010044
(946688569.779999) can0 400#1716286827670000
(946688569.779999) can0 401#017E000000000000
(946688569.789999) can0 001#FC01C50020000000
(946688569.789999) can0 002#D503DA0348010000
(946688569.799999) can0 001#FC01C80021000000
(946688569.799999) can0 002#D503EA034D010000
(946688569.799999) can0 18FF1515#0000000344010044
(946688569.799999) can0 400#17172767296D0000
(946688569.799999) can0 401#007E000000000000
(946688569.809999) can0 001#FB01CB0022000000
(946688569.809999) can0 002#D503F90352010000
(946688569.809999) can0 18FF01EA#0A9D7F9D7E007D50
(946688569.809999) can0 18FF02EA#0A9D7F9D7E007D50
(946688569.809999) can0 19B50001#8CA0960000000000
(946688569.809999) can0 19B50008#8286840000000000
(946688569.809999) can0 19B50100#9696969696969696
(946688569.809999) can0 19B50800#8484848484848484
(946688569.819999) can0 001#FA01CE0023000000
(946688569.819999) can0 002#D503080457010000
(946688569.819999) can0 18FF1515#0000000344010044
(946688569.819999) can0 400#1818276627660000
(946688569.819999) can0 401#007D000000000000
(946688569.829999) can0 001#F901D10024000000
(946688569.829999) can0 002#D50317045C010000
(946688569.839999) can0 001#F901D40025000000
(946688569.839999) can0 002#D503270461010000
(946688569.839999) can0 18FF1515#0000000345010045
(946688569.839999) can0 400#1A18286C28680000
(946688569.839999) can0 401#007C000000000000
(946688569.849999) can0 001#F801D70027000000
(946688569.849999) can0 002#D503360466010000
(946688569.859999) can0 001#F701DA0028000000
(946688569.859999) can0 002#D50345046B010000
(946688569.859999) can0 18FF1515#0000000345010045
(946688569.859999) can0 400#1A1A286C28690000
(946688569.859999) can0 401#007C000000000000
(946688569.869999) can0 001#F601DD0029000000
(946688569.869999) can0 002#D503550470010000
(946688569.879999) can0 001#F501E0002A000000
(946688569.879999) can0 002#D503640475010000
(946688569.879999) can0 18FF1515#0000000345010045
(946688569.879999) can0 400#1C19276929670000
(946688569.879999) can0 401#017C000000000000
(946688569.889999) can0 001#F401E3002B000000
(946688569.889999) can0 002#D50373047A010000
(946688569.899999) can0 001#F301E6002C000000
(946688569.899999) can0 002#D50382047F010000
(946688569.899999) can0 18FF1515#0000000345010045
(946688569.899999) can0 400#1B19276A276B0000
(946688569.899999) can0 401#007C000000000000
(946688569.909999) can0 001#F201E9002D000000
(946688569.909999) can0 002#D503910484010000
(946688569.909999) can0 18FF01EA#0A0180A07E007D50
(946688569.909999) can0 18FF02EA#0A0180A07E007D50
(946688569.909999) can0 19B50001#8CA0960000000000
(946688569.909999) can0 19B50008#8286840000000000
(946688569.909999) can0 19B50100#9696969696969696
(946688569.909999) can0 19B50800#8484848484848484
(946688569.919999) can0 001#F101ED002F000000
(946688569.919999) can0 002#D503A10489010000
(946688569.919999) can0 18FF1515#0000000345010045
(946688569.919999) can0 400#1B1C276B286E0000
(946688569.919999) can0 401#007D000000000000
(946688569.929999) can0 001#F001F00030000000
(946688569.929999) can0 002#D503B0048E010000
(946688569.939999) can0 001#EF01F30031000000
(946688569.939999) can0 002#D503BF0493010000
(946688569.939999) can0 18FF1515#0000000345010045
(946688569.939999) can0 400#1C1B2767286B0000
(946688569.939999) can0 401#007C000000000000
(946688569.949999) can0 001#ED01F60032000000
(946688569.949999) can0 002#D503CE0498010000
(946688569.959999) can0 001#EC01F90033000000
(946688569.959999) can0 002#D503DD049D010000
(946688569.959999) can0 18FF1515#0000000345010045
(946688569.959999) can0 400#1E1D276B28660000
(946688569.959999) can0 401#007C000000000000
(946688569.969999) can0 001#EB01FC0035000000
(946688569.969999) can0 002#D503EC04A2010000
(946688569.979999) can0 001#EA01FF0036000000
(946688569.979999) can0 002#D503FB04A7010000
(946688569.979999) can0 18FF1515#0000000345010045
(946688569.979999) can0 400#1D1F276D276E0000
(946688569.979999) can0 401#007B000000000000
(946688569.989999) can0 001#E901020137000000
(946688569.989999) can0 002#D5030A05AC010000
(946688569.999999) can0 001#E701050139000000
(946688569.999999) can0 002#D5031905B0010000
(946688569.999999) can0 18FF1515#0000000345010045
(946688569.999999) can0 400#1F1E286B27670000
(946688569.999999) can0 401#007B000000000000
(946688570.009999) can0 001#E60108013A000000
(946688570.009999) can0 002#D5032805B5010000
(946688570.009999) can0 18FF01EA#0A6280A17E007D50
(946688570.009999) can0 18FF02EA#0A6280A17E007D50
(946688570.009999) can0 19B50001#8CA0960000000000
(946688570.009999) can0 19B50008#8286840000000000
(946688570.009999) can0 19B50100#9696969696969696
(946688570.009999) can0 19B50800#8484848484848484
(946688570.019999) can0 001#E5010B013B000000
(946688570.019999) can0 002#D5033705BA010000
(946688570.019999) can0 18FF1515#0000000345010045
(946688570.019999) can0 400#2021286A27700000
(946688570.019999) can0 401#007C000000000000
(946688570.029999) can0 001#E4010E013C000000
(946688570.029999) can0 002#D5034605BF010000
(946688570.039999) can0 001#E20111013E000000
(946688570.039999) can0 002#D5035505C4010000
(946688570.039999) can0 18FF1515#0000000345010045
(946688570.039999) can0 400#201F276E28680000
(946688570.039999) can0 401#007B000000000000
(946688570.049999) can0 001#E10114013F000000
(946688570.049999) can0 002#D5036405C9010000
(946688570.059999) can0 001#E001170141000000
(946688570.059999) can0 002#D5037305CD010000
(946688570.059999) can0 18FF1515#0000000345010045
(946688570.059999) can0 400#2321286F286B0000
(946688570.059999) can0 401#007C000000000000
(946688570.069999) can0 001#DE011A0142000000
(946688570.069999) can0 002#D5038205D2010000
(946688570.079999) can0 001#DD011D0143000000
(946688570.079999) can0 002#D5039105D7010000
(946688570.079999) can0 18FF1515#0000000345010045
(946688570.079999) can0 400#2220286A28700000
(946688570.079999) can0 401#007B000000000000
(946688570.089999) can0 001#DC011F0145000000
(946688570.089999) can0 002#D5039F05DC010000
(946688570.099999) can0 001#DA01220146000000
(946688570.099999) can0 002#D503AE05E1010000
(946688570.099999) can0 18FF1515#0000000345010045
(946688570.099999) can0 400#2321286A28680000
(946688570.099999) can0 401#017C000000000000
(946688570.109999) can0 001#D901250148000000
(946688570.109999) can0 002#D503BD05E5010000
(946688570.109999) can0 18FF01EA#0AC180A27E007D50
(946688570.109999) can0 18FF02EA#0AC180A27E007D50
(946688570.109999) can0 19B50001#8CA0960000000000
(946688570.109999) can0 19B50008#8286840000000000
(946688570.109999) can0 19B50100#9696969696969696
(946688570.109999) can0 19B50800#8484848484848484
(946688570.119999) can0 001#D701280149000000
(946688570.119999) can0 002#D503CC05EA010000
(946688570.119999) can0 18FF1515#0000000345010045
(946688570.119999) can0 400#2522276C28710000
(946688570.119999) can0 401#007B000000000000
(946688570.129999) can0 001#D6012B014A000000
(946688570.129999) can0 002#D503DB05EF010000
(946688570.139999) can0 001#D5012E014C000000
(946688570.139999) can0 002#D503E905F3010000
(946688570.139999) can0 18FF1515#0000000345010045
(946688570.139999) can0 400#2524286C286C0000
(946688570.139999) can0 401#007B000000000000
(946688570.149999) can0 001#D30131014D000000
(946688570.149999) can0 002#D503F805F8010000
(946688570.159999) can0 001#D20134014F000000
(946688570.159999) can0 002#D5030706FD010000
(946688570.159999) can0 18FF1515#0000000345010045
(946688570.159999) can0 400#2523276E276B0000
(946688570.159999) can0 401#017A000000000000
(946688570.169999) can0 001#D001370150000000
(946688570.169999) can0 002#D503150601020000
(946688570.179999) can0 001#CF013A0152000000
(946688570.179999) can0 002#D503240606020000
(946688570.179999) can0 18FF1515#0000000345010045
(946688570.179999) can0 400#2523276A28710000
(946688570.179999) can0 401#007B000000000000
(946688570.189999) can0 001#CD013D0153000000
(946688570.189999) can0 002#D50332060B020000
(946688570.199999) can0 001#CC01400155000000
(946688570.199999) can0 002#D50341060F020000
(946688570.199999) can0 18FF1515#0000000345010045
(946688570.199999) can0 400#2627276C28690000
(946688570.199999) can0 401#007A000000000000
(946688570.199999) can0 18FF1080#0000000000000000
(946688570.199999) can0 18FF1180#0000000000000000
(946688570.199999) can0 18FF1280#0000000000000000
(946688570.199999) can0 18FFE180#0000000000000000
(946688570.199999) can0 18FFE280#0000000000000000
(946688570.209999) can0 001#CA01430156000000
(946688570.209999) can0 002#D503500614020000
(946688570.209999) can0 18FF01EA#0A1D81A37E007D50
(946688570.209999) can0 18FF02EA#0A1D81A37E007D50
(946688570.209999) can0 19B50001#8CA0960000000000
(946688570.209999) can0 19B50008#8286840000000000
(946688570.209999) can0 19B50100#9696969696969696
(946688570.209999) can0 19B50800#8484848484848484
(946688570.219999) can0 001#C901460158000000
(946688570.219999) can0 002#D5035E0618020000
(946688570.219999) can0 18FF1515#0000000345010045
(946688570.219999) can0 400#2525286E276F0000
(946688570.219999) can0 401#007B000000000000
(946688570.229999) can0 001#C701490159000000
(946688570.229999) can0 002#D5036D061D020000
(946688570.239999) can0 001#C6014B015B000000
(946688570.239999) can0 002#D5037B0621020000
(946688570.239999) can0 18FF1515#0000000345010045
(946688570.239999) can0 400#2628276E276C0000
(946688570.239999) can0 401#017A000000000000
(946688570.249999) can0 001#C4014E015C000000
(946688570.249999) can0 002#D503890626020000
(946688570.259999) can0 001#C30151015E000000
(946688570.259999) can0 002#D50398062A020000
(946688570.259999) can0 18FF1515#0000000345010045
(946688570.259999) can0 400#2728286C28720000
(946688570.259999) can0 401#007A000000000000
(946688570.269999) can0 001#C101540160000000
(946688570.269999) can0 002#D503A6062F020000
(946688570.279999) can0 001#BF01570161000000
(946688570.279999) can0 002#D503B50633020000
(946688570.279999) can0 18FF1515#0000000345010045
(946688570.279999) can0 400#2728286D276D0000
(946688570.279999) can0 401#0079000000000000
(946688570.289999) can0 001#BE015A0163000000
(946688570.289999) can0 002#D503C30638020000
(946688570.299999) can0 001#BC015D0164000000
(946688570.299999) can0 002#D503D1063C020000
(946688570.299999) can0 18FF1515#0000000345010045
(946688570.299999) can0 400#2B2A2871286B0000
(946688570.299999) can0 401#007A000000000000
(946688570.309999) can0 001#BB015F0166000000
(946688570.309999) can0 002#D503DF0641020000
(946688570.309999) can0 18FF01EA#0A7781A37E007D50
(946688570.309999) can0 18FF02EA#0A7781A37E007D50
(946688570.309999) can0 19B50001#8CA0960000000000
(946688570.309999) can0 19B50008#8286840000000000
(946688570.309999) can0 19B50100#9696969696969696
(946688570.309999) can0 19B50800#8484848484848484
(946688570.319999) can0 001#B901620168000000
(946688570.319999) can0 002#D503EE0645020000
(946688570.319999) can0 18FF1515#0000000345010045
(946688570.319999) can0 400#2B2A286C286A0000
(946688570.319999) can0 401#007A000000000000
(946688570.329999) can0 001#B801650169000000
(946688570.329999) can0 002#D503FC064A020000
(946688570.339999) can0 001#B60168016B000000
(946688570.339999) can0 002#D5030A074E020000
(946688570.339999) can0 18FF1515#0000000345010045
(946688570.339999) can0 400#2A2A286A28720000
(946688570.339999) can0 401#0079000000000000
(946688570.349999) can0 001#B4016B016D000000
(946688570.349999) can0 002#D503180752020000
(946688570.359999) can0 001#B3016E016E000000
(946688570.359999) can0 002#D503260757020000
(946688570.359999) can0 18FF1515#0000000345010045
(946688570.359999) can0 400#2A2A277328700000
(946688570.359999) can0 401#0179000000000000
(946688570.369999) can0 001#B101700170000000
(946688570.369999) can0 002#D50334075B020000
(946688570.379999) can0 001#AF01730172000000
(946688570.379999) can0 002#D50342075F020000
(946688570.379999) can0 18FF1515#0000000345010045
(946688570.379999) can0 400#2D2A276B276F0000
(946688570.379999) can0 401#0078000000000000
(946688570.389999) can0 001#AE01760173000000
(946688570.389999) can0 002#D503500764020000
(946688570.399999) can0 001#AC01790175000000
(946688570.399999) can0 002#D5035E0768020000
(946688570.399999) can0 18FF1515#0000000345010045
(946688570.399999) can0 400#2C2B276D28730000
(946688570.399999) can0 401#0179000000000000
(946688570.409999) can0 001#AB017C0177000000
(946688570.409999) can0 002#D5036C076C020000
(946688570.409999) can0 18FF01EA#0ACD81A37E007D50
(946688570.409999) can0 18FF02EA#0ACD81A37E007D50
(946688570.409999) can0 19B50001#8CA0960000000000
(946688570.409999) can0 19B50008#8286840000000000
(946688570.409999) can0 19B50100#9696969696969696
(946688570.409999) can0 19B50800#8484848484848484
(946688570.419999) can0 001#A9017E0178000000
(946688570.419999) can0 002#D5037A0771020000
(946688570.419999) can0 18FF1515#0000000345010045
(946688570.419999) can0 400#2C2E277227730000
(946688570.419999) can0 401#0079000000000000
(946688570.429999) can0 001#A70181017A000000
(946688570.429999) can0 002#D503880775020000
(946688570.439999) can0 001#A60184017C000000
(946688570.439999) can0 002#D503960779020000
(946688570.439999) can0 18FF1515#0000000345010045
(946688570.439999) can0 400#2F2E286F27740000
(946688570.439999) can0 401#0178000000000000
(946688570.449999) can0 001#A40187017D000000
(946688570.449999) can0 002#D503A4077D020000
(946688570.459999) can0 001#A2018A017F000000
(946688570.459999) can0 002#D503B20781020000
(946688570.459999) can0 18FF1515#0000000345010045
(946688570.459999) can0 400#2D2E286F27730000
(946688570.459999) can0 401#0079000000000000
(946688570.469999) can0 001#A1018C0181000000
(946688570.469999) can0 002#D503BF0786020000
(946688570.479999) can0 001#9F018F0183000000
(946688570.479999) can0 002#D503CD078A020000
(946688570.479999) can0 18FF1515#0000000345010045
(946688570.479999) can0 400#302D296C286D0000
(946688570.479999) can0 401#0177000000000000
(946688570.489999) can0 001#9D01920184000000
(946688570.489999) can0 002#D503DB078E020000
(946688570.499999) can0 001#9C01950186000000
(946688570.499999) can0 002#D503E90792020000
(946688570.499999) can0 18FF1515#0000000345010045
(946688570.499999) can0 400#3030286B286E0000
(946688570.499999) can0 401#0079000000000000
(946688570.509999) can0 001#9A01970188000000
(946688570.509999) can0 002#D503F60796020000
(946688570.509999) can0 18FF01EA#0A1F82A37E007D50
(946688570.509999) can0 18FF02EA#0A1F82A37E007D50
(946688570.509999) can0 19B50001#8CA0960000000000
(946688570.509999) can0 19B50008#8286840000000000
(946688570.509999) can0 19B50100#9696969696969696
(946688570.509999) can0 19B50800#8484848484848484
(946688570.519999) can0 001#98019A018A000000
(946688570.519999) can0 002#D50304089A020000
(946688570.519999) can0 18FF1515#0000000345010045
(946688570.519999) can0 400#2F2E276C276B0000
(946688570.519999) can0 401#0077000000000000
(946688570.529999) can0 001#97019D018B000000
(946688570.529999) can0 002#D50311089E020000
(946688570.539999) can0 001#95019F018D000000
(946688570.539999) can0 002#D5031F08A2020000
(946688570.539999) can0 18FF1515#0000000345010045
(946688570.539999) can0 400#2F30276F276C0000
(946688570.539999) can0 401#0077000000000000
(946688570.549999) can0 001#9301A2018F000000
(946688570.549999) can0 002#D5032C08A6020000
(946688570.559999) can0 001#9201A50191000000
(946688570.559999) can0 002#D5033A08AA020000
(946688570.559999) can0 18FF1515#0000000345010045
(946688570.559999) can0 400#3332276F27700000
(946688570.559999) can0 401#0076000000000000
(946688570.569999) can0 001#9001A70192000000
(946688570.569999) can0 002#D5034708AE020000
(946688570.579998) can0 001#8E01AA0194000000
(946688570.579998) can0 002#D5035508B2020000
(946688570.579998) can0 18FF1515#0000000345010045
(946688570.579998) can0 400#3130276F27700000
(946688570.579998) can0 401#0077000000000000
(946688570.589998) can0 001#8D01AD0196000000
(946688570.589998) can0 002#D5036208B6020000
(946688570.599998) can0 001#8B01AF0198000000
(946688570.599998) can0 002#D5036F08BA020000
(946688570.599998) can0 18FF1515#0000000345010045
(946688570.599998) can0 400#3331287127740000
(946688570.599998) can0 401#0076000000000000
(946688570.609998) can0 001#8901B2019A000000
(946688570.609998) can0 002#D5037D08BE020000
(946688570.609998) can0 18FF01EA#0A6F82A37E007D50
(946688570.609998) can0 18FF02EA#0A6F82A37E007D50
(946688570.609998) can0 19B50001#8CA0960000000000
(946688570.609998) can0 19B50008#8286840000000000
(946688570.609998) can0 19B50100#9696969696969696
(946688570.609998) can0 19B50800#8484848484848484
(946688570.619998) can0 001#8801B5019B000000
(946688570.619998) can0 002#D5038A08C2020000
(946688570.619998) can0 18FF1515#0000000345010045
(946688570.619998) can0 400#3332277427740000
(946688570.619998) can0 401#0077000000000000
(946688570.629998) can0 001#8601B7019D000000
(946688570.629998) can0 002#D5039708C6020000
(946688570.639998) can0 001#8401BA019F000000
(946688570.639998) can0 002#D503A408CA020000
(946688570.639998) can0 18FF1515#0000000345010045
(946688570.639998) can0 400#3533277029750000
(946688570.639998) can0 401#0077000000000000
(946688570.649998) can0 001#8301BD01A1000000
(946688570.649998) can0 002#D503B108CE020000
(946688570.659998) can0 001#8101BF01A3000000
(946688570.659998) can0 002#D503BE08D2020000
(946688570.659998) can0 18FF1515#0000000345010045
(946688570.659998) can0 400#33342775286E0000
(946688570.659998) can0 401#0177000000000000
(946688570.669998) can0 001#7F01C201A4000000
(946688570.669998) can0 002#D503CB08D5020000
(946688570.679998) can0 001#7E01C501A6000000
(946688570.679998) can0 002#D503D908D9020000
(946688570.679998) can0 18FF1515#0000000345010045
(946688570.679998) can0 400#36322775286E0000
(946688570.679998) can0 401#0076000000000000
(946688570.689998) can0 001#7C01C701A8000000
(946688570.689998) can0 002#D503E508DD020000
(946688570.699998) can0 001#7A01CA01AA000000
(946688570.699998) can0 002#D503F208E1020000
(946688570.699998) can0 18FF1515#0000000345010045
(946688570.699998) can0 400#33342876286F0000
(946688570.699998) can0 401#0075000000000000
(946688570.709998) can0 001#7901CC01AC000000
(946688570.709998) can0 002#D503FF08E5020000
(946688570.709998) can0 18FF01EA#0ABB82A37E007D50
(946688570.709998) can0 18FF02EA#0ABB82A37E007D50
(946688570.709998) can0 19B50001#8CA0960000000000
(946688570.709998) can0 19B50008#8286840000000000
(946688570.709998) can0 19B50100#9696969696969696
(946688570.709998) can0 19B50800#8484848484848484
(946688570.719998) can0 001#7701CF01AE000000
(946688570.719998) can0 002#D5030C09E8020000
(946688570.719998) can0 18FF1515#0000000345010045
(946688570.719998) can0 400#3436276D286E0000
(946688570.719998) can0 401#0176000000000000
(946688570.729998) can0 001#7501D101AF000000
(946688570.729998) can0 002#D5031909EC020000
(946688570.739998) can0 001#7301D401B1000000
(946688570.739998) can0 002#D5032609F0020000
(946688570.739998) can0 18FF1515#0000000345010045
(946688570.739998) can0 400#3535287428700000
(946688570.739998) can0 401#0074000000000000
(946688570.749998) can0 001#7201D701B3000000
(946688570.749998) can0 002#D5033309F4020000
(946688570.759998) can0 001#7001D901B5000000
(946688570.759998) can0 002#D5033F09F7020000
(946688570.759998) can0 18FF1515#0000000345010045
(946688570.759998) can0 400#35372773276F0000
(946688570.759998) can0 401#0074000000000000
(946688570.769998) can0 001#6E01DC01B7000000
(946688570.769998) can0 002#D5034C09FB020000
(946688570.779998) can0 001#6D01DE01B9000000
(946688570.779998) can0 002#D5035909FF020000
(946688570.779998) can0 18FF1515#0000000345010045
(946688570.779998) can0 400#38352770286D0000
(946688570.779998) can0 401#0074000000000000
(946688570.789998) can0 001#6B01E101BB000000
(946688570.789998) can0 002#D503650902030000
(946688570.799998) can0 001#6901E301BC000000
(946688570.799998) can0 002#D503720906030000
(946688570.799998) can0 18FF1515#0000000345010045
(946688570.799998) can0 400#39382875276F0000
(946688570.799998) can0 401#0175000000000000
(946688570.799998) can0 18FF1080#0000000000000000
(946688570.799998) can0 18FF1180#0000000000000000
(946688570.799998) can0 18FF1280#0000000000000000
(946688570.799998) can0 18FFE180#0000000000000000
(946688570.799998) can0 18FFE280#0000000000000000
(946688570.809998) can0 001#6801E601BE000000
(946688570.809998) can0 002#D5037E0909030000
(946688570.809998) can0 18FF01EA#0A0483A37E007D50
(946688570.809998) can0 18FF02EA#0A0483A37E007D50
(946688570.809998) can0 19B50001#8CA0960000000000
(946688570.809998) can0 19B50008#8286840000000000
(946688570.809998) can0 19B50100#9696969696969696
(946688570.809998) can0 19B50800#8484848484848484
(946688570.819998) can0 001#6601E801C0000000
(946688570.819998) can0 002#D5038B090D030000
(946688570.819998) can0 18FF1515#0000000345010045
(946688570.819998) can0 400#3836287428750000
(946688570.819998) can0 401#0175000000000000
(946688570.829998) can0 001#6401EB01C2000000
(946688570.829998) can0 002#D503970911030000
(946688570.839998) can0 001#6301ED01C4000000
(946688570.839998) can0 002#D503A40914030000
(946688570.839998) can0 18FF1515#0000000345010045
(946688570.839998) can0 400#39392872286E0000
(946688570.839998) can0 401#0074000000000000
(946688570.849998) can0 001#6101F001C6000000
(946688570.849998) can0 002#D503B00918030000
(946688570.859998) can0 001#5F01F201C8000000
(946688570.859998) can0 002#D503BC091B030000
(946688570.859998) can0 18FF1515#0000000345010045
(946688570.859998) can0 400#383A276F27750000
(946688570.859998) can0 401#0074000000000000
(946688570.869998) can0 001#5E01F501CA000000
(946688570.869998) can0 002#D503C9091F030000
(946688570.879998) can0 001#5C01F701CB000000
(946688570.879998) can0 002#D503D50922030000
(946688570.879998) can0 18FF1515#0000000345010045
(946688570.879998) can0 400#3A3A276D28750000
(946688570.879998) can0 401#0074000000000000
(946688570.889998) can0 001#5A01F901CD000000
(946688570.889998) can0 002#D503E10926030000
(946688570.899998) can0 001#5901FC01CF000000
(946688570.899998) can0 002#D503ED0929030000
(946688570.899998) can0 18FF1515#0000000345010045
(946688570.899998) can0 400#393B276D286E0000
(946688570.899998) can0 401#0075000000000000
(946688570.909998) can0 001#5701FE01D1000000
(946688570.909998) can0 002#D503F9092D030000
(946688570.909998) can0 18FF01EA#0A4983A37E007D50
(946688570.909998) can0 18FF02EA#0A4983A37E007D50
(946688570.909998) can0 19B50001#8CA0960000000000
(946688570.909998) can0 19B50008#8286840000000000
(946688570.909998) can0 19B50100#9696969696969696
(946688570.909998) can0 19B50800#8484848484848484
(946688570.919998) can0 001#55010102D3000000
(946688570.919998) can0 002#D503050A30030000
(946688570.919998) can0 18FF1515#0000000345010045
(946688570.919998) can0 400#3B3B297128740000
(946688570.919998) can0 401#0173000000000000
(946688570.929998) can0 001#54010302D5000000
(946688570.929998) can0 002#D503110A33030000
(946688570.939998) can0 001#52010502D7000000
(946688570.939998) can0 002#D5031D0A37030000
(946688570.939998) can0 18FF1515#0000000345010045
(946688570.939998) can0 400#393B287128750000
(946688570.939998) can0 401#0073000000000000
(946688570.949998) can0 001#50010802D8000000
(946688570.949998) can0 002#D503290A3A030000
(946688570.959998) can0 001#4F010A02DA000000
(946688570.959998) can0 002#D503350A3D030000
(946688570.959998) can0 18FF1515#0000000345010045
(946688570.959998) can0 400#3A3A2875296F0000
(946688570.959998) can0 401#0073000000000000
(946688570.969998) can0 001#4D010D02DC000000
(946688570.969998) can0 002#D503410A41030000
(946688570.979998) can0 001#4C010F02DE000000
(946688570.979998) can0 002#D5034D0A44030000
(946688570.979998) can0 18FF1515#0000000345010045
(946688570.979998) can0 400#3B3A277728730000
(946688570.979998) can0 401#0174000000000000
(946688570.989998) can0 001#4A011102E0000000
(946688570.989998) can0 002#D503580A47030000
(946688571.009998) can0 001#47011602E4000000
(946688571.009998) can0 002#D503700A4E030000
(946688571.009998) can0 18FF1515#0000000345010045
(946688571.009998) can0 400#3E3C297228730000
(946688571.009998) can0 401#0072000000000000
(946688571.019998) can0 18FF01EA#0A9283A37E007D50
(946688571.019998) can0 18FF02EA#0A9283A37E007D50
(946688571.019998) can0 19B50001#8CA0960000000000
(946688571.019998) can0 19B50008#8286840000000000
(946688571.019998) can0 19B50100#9696969696969696
(946688571.019998) can0 19B50800#8484848484848484
(946688571.029998) can0 001#43011B02E7000000
(946688571.029998) can0 002#D503870A54030000
(946688571.039998) can0 18FF1515#0000000345010045
(946688571.039998) can0 400#3E3E277227710000
(946688571.039998) can0 401#0172000000000000
(946688571.049998) can0 001#40011F02EB000000
(946688571.049998) can0 002#D5039E0A5B030000
(946688571.069998) can0 001#3D012402EF000000
(946688571.069998) can0 002#D503B50A61030000
(946688571.069998) can0 18FF1515#0000000345010045
(946688571.069998) can0 400#3D3D297028730000
(946688571.069998) can0 401#0072000000000000
(946688571.089998) can0 001#3A012802F3000000
(946688571.089998) can0 002#D503CC0A68030000
(946688571.099998) can0 18FF1515#0000000345010045
(946688571.099998) can0 400#3E40287527700000
(946688571.099998) can0 401#0072000000000000
(946688571.109998) can0 001#37012D02F6000000
(946688571.109998) can0 002#D503E20A6E030000
(946688571.129998) can0 001#33013102FA000000
(946688571.129998) can0 002#D503F80A74030000
(946688571.129998) can0 18FF1515#0000000345010045
(946688571.129998) can0 400#3E3E287029710000
(946688571.129998) can0 401#0072000000000000
(946688571.129998) can0 18FF01EA#0AD783A37E007D50
(946688571.129998) can0 18FF02EA#0AD783A37E007D50
(946688571.129998) can0 19B50001#8CA0960000000000
(946688571.129998) can0 19B50008#8286840000000000
(946688571.129998) can0 19B50100#9696969696969696
(946688571.129998) can0 19B50800#8484848484848484
(946688571.149998) can0 001#30013602FE000000
(946688571.149998) can0 002#D5030E0B7A030000
(946688571.159998) can0 18FF1515#0000000345010045
(946688571.159998) can0 400#4041277728730000
(946688571.159998) can0 401#0071000000000000
(946688571.169998) can0 001#2D013A0202010000
(946688571.169998) can0 002#D503240B80030000
(946688571.189998) can0 001#2A013E0205010000
(946688571.189998) can0 002#D5033A0B86030000
(946688571.189998) can0 18FF1515#0000000345010045
(946688571.189998) can0 400#403F287427760000
(946688571.189998) can0 401#0071000000000000
(946688571.209998) can0 001#2701430209010000
(946688571.209998) can0 002#D503500B8C030000
(946688571.219998) can0 18FF1515#0000000345010045
(946688571.219998) can0 400#42412872276F0000
(946688571.219998) can0 401#0171000000000000
(946688571.229998) can0 001#240147020D010000
(946688571.229998) can0 002#D503650B92030000
(946688571.239998) can0 18FF01EA#0A1884A37E007D50
(946688571.239998) can0 18FF02EA#0A1884A37E007D50
(946688571.239998) can0 19B50001#8CA0960000000000
(946688571.239998) can0 19B50008#8286840000000000
(946688571.239998) can0 19B50100#9696969696969696
(946688571.239998) can0 19B50800#8484848484848484
(946688571.249998) can0 001#21014B0210010000
(946688571.249998) can0 002#D5037A0B98030000
(946688571.249998) can0 18FF1515#0000000345010045
(946688571.249998) can0 400#4140277427780000
(946688571.249998) can0 401#0070000000000000
(946688571.269998) can0 001#1D014F0214010000
(946688571.269998) can0 002#D5038F0B9D030000
(946688571.279998) can0 18FF1515#0000000345010045
(946688571.279998) can0 400#4242277128770000
(946688571.279998) can0 401#0071000000000000
(946688571.289998) can0 001#1A01540218010000
(946688571.289998) can0 002#D503A40BA3030000
(946688571.309998) can0 001#170158021B010000
(946688571.309998) can0 002#D503B80BA9030000
(946688571.309998) can0 18FF1515#0000000345010045
(946688571.309998) can0 400#4543277927760000
(946688571.309998) can0 401#0071000000000000
(946688571.329998) can0 001#14015C021F010000
(946688571.329998) can0 002#D503CD0BAE030000
(946688571.339998) can0 18FF1515#0000000345010045
(946688571.339998) can0 400#4643277728710000
(946688571.339998) can0 401#0170000000000000
(946688571.349998) can0 001#1101600223010000
(946688571.349998) can0 002#D503E10BB4030000
(946688571.349998) can0 18FF01EA#0A5584A37E007D50
(946688571.349998) can0 18FF02EA#0A5584A37E007D50
(946688571.349998) can0 19B50001#8CA0960000000000
(946688571.349998) can0 19B50008#8286840000000000
(946688571.349998) can0 19B50100#9696969696969696
(946688571.349998) can0 19B50800#8484848484848484
(946688571.369998) can0 001#0E01640226010000
(946688571.369998) can0 002#D503F50BB9030000
(946688571.369998) can0 18FF1515#0000000345010045
(946688571.369998) can0 400#4346297428750000
(946688571.369998) can0 401#0170000000000000
(946688571.389998) can0 001#0B0168022A010000
(946688571.389998) can0 002#D503080CBF030000
(946688571.399998) can0 18FF1515#0000000345010045
(946688571.399998) can0 400#4444297229710000
(946688571.399998) can0 401#006F000000000000
(946688571.409998) can0 001#08016C022D010000
(946688571.409998) can0 002#D5031C0CC4030000
(946688571.409998) can0 18FF1080#0000000000000000
(946688571.409998) can0 18FF1180#0000000000000000
(946688571.409998) can0 18FF1280#0000000000000000
(946688571.409998) can0 18FFE180#0000000000000000
(946688571.409998) can0 18FFE280#0000000000000000
(946688571.429998) can0 001#06016F0231010000
(946688571.429998) can0 002#D5032F0CC9030000
(946688571.429998) can0 18FF1515#0000000345010045
(946688571.429998) can0 400#4647287728720000
(946688571.429998) can0 401#0070000000000000
(946688571.449998) can0 001#0301730234010000
(946688571.449998) can0 002#D503420CCE030000
(946688571.459998) can0 18FF1515#0000000345010045
(946688571.459998) can0 400#4647277428780000
(946688571.459998) can0 401#006F000000000000
(946688571.459998) can0 18FF01EA#0A8F84A37E007D50
(946688571.459998) can0 18FF02EA#0A8F84A37E007D50
(946688571.459998) can0 19B50001#8CA0960000000000
(946688571.459998) can0 19B50008#8286840000000000
(946688571.459998) can0 19B50100#9696969696969696
(946688571.459998) can0 19B50800#8484848484848484
(946688571.469998) can0 001#0001770238010000
(946688571.469998) can0 002#D503550CD3030000
(946688571.489998) can0 001#FD007B023B010000
(946688571.489998) can0 002#D503680CD9030000
(946688571.489998) can0 18FF1515#0000000345010045
(946688571.489998) can0 400#4645287827790000
(946688571.489998) can0 401#006E000000000000
(946688571.509998) can0 001#FA007F023F010000
(946688571.509998) can0 002#D5037B0CDE030000
(946688571.519998) can0 18FF1515#0000000345010045
(946688571.519998) can0 400#4548287A28770000
(946688571.519998) can0 401#006E000000000000
(946688571.529998) can0 001#F700820242010000
(946688571.529998) can0 002#D5038D0CE3030000
(946688571.549998) can0 001#F400860246010000
(946688571.549998) can0 002#D5039F0CE7030000
(946688571.549998) can0 18FF1515#0000000345010045
(946688571.549998) can0 400#4947277927750000
(946688571.549998) can0 401#016E000000000000
(946688571.569998) can0 001#F200890249010000
(946688571.569998) can0 002#D503B10CEC030000
(946688571.569998) can0 18FF01EA#0AC584A37E007D50
(946688571.569998) can0 18FF02EA#0AC584A37E007D50
(946688571.569998) can0 19B50001#8CA0960000000000
(946688571.569998) can0 19B50008#8286840000000000
(946688571.569998) can0 19B50100#9696969696969696
(946688571.569998) can0 19B50800#8484848484848484
(946688571.579998) can0 18FF1515#0000000345010045
(946688571.579998) can0 400#4A49277327730000
(946688571.579998) can0 401#006E000000000000
(946688571.589998) can0 001#EF008D024C010000
(946688571.589998) can0 002#D503C20CF1030000
(946688571.609998) can0 001#EC00900250010000
(946688571.609998) can0 002#D503D40CF6030000
(946688571.609998) can0 18FF1515#0000000345010045
(946688571.609998) can0 400#4747287A27720000
(946688571.609998) can0 401#006D000000000000
(946688571.629997) can0 001#E900940253010000
(946688571.629997) can0 002#D503E50CFB030000
(946688571.639997) can0 18FF1515#0000000345010045
(946688571.639997) can0 400#48482772277A0000
(946688571.639997) can0 401#016E000000000000
(946688571.649997) can0 001#E700970256010000
(946688571.649997) can0 002#D503F60CFF030000
(946688571.669997) can0 001#E4009B025A010000
(946688571.669997) can0 002#D503070D04040000
(946688571.669997) can0 18FF1515#0000000345010045
(946688571.669997) can0 400#4A49287328780000
(946688571.669997) can0 401#006D000000000000
(946688571.679997) can0 18FF01EA#0AF884A37E007D50
(946688571.679997) can0 18FF02EA#0AF884A37E007D50
(946688571.679997) can0 19B50001#8CA0960000000000
(946688571.679997) can0 19B50008#8286840000000000
(946688571.679997) can0 19B50100#9696969696969696
(946688571.679997) can0 19B50800#8484848484848484
(946688571.689997) can0 001#E1009E025D010000
(946688571.689997) can0 002#D503170D08040000
(946688571.699997) can0 18FF1515#0000000345010045
(946688571.699997) can0 400#4C49287627760000
(946688571.699997) can0 401#006C000000000000
(946688571.709997) can0 001#DF00A10260010000
(946688571.709997) can0 002#D503280D0D040000
(946688571.729997) can0 001#DC00A40263010000
(946688571.729997) can0 002#D503380D11040000
(946688571.729997) can0 18FF1515#0000000345010045
(946688571.729997) can0 400#4A49287328740000
(946688571.729997) can0 401#006C000000000000
(946688571.749997) can0 001#DA00A80266010000
(946688571.749997) can0 002#D503480D16040000
(946688571.759997) can0 18FF1515#0000000345010045
(946688571.759997) can0 400#4C4D277728720000
(946688571.759997) can0 401#006D000000000000
(946688571.769997) can0 001#D700AB026A010000
(946688571.769997) can0 002#D503570D1A040000
(946688571.789997) can0 001#D400AE026D010000
(946688571.789997) can0 002#D503670D1E040000
(946688571.789997) can0 18FF1515#0000000345010045
(946688571.789997) can0 400#4A4A277B27720000
(946688571.789997) can0 401#006C000000000000
(946688571.789997) can0 18FF01EA#0A2885A37E007D50
(946688571.789997) can0 18FF02EA#0A2885A37E007D50
(946688571.789997) can0 19B50001#8CA0960000000000
(946688571.789997) can0 19B50008#8286840000000000
(946688571.789997) can0 19B50100#9696969696969696
(946688571.789997) can0 19B50800#8484848484848484
(946688571.809997) can0 001#D200B10270010000
(946688571.809997) can0 002#D503760D22040000
(946688571.819997) can0 18FF1515#0000000345010045
(946688571.819997) can0 400#4C4D287929770000
(946688571.819997) can0 401#006B000000000000
(946688571.829997) can0 001#CF00B40273010000
(946688571.829997) can0 002#D503850D27040000
(946688571.849997) can0 001#CD00B70276010000
(946688571.849997) can0 002#D503940D2B040000
(946688571.849997) can0 18FF1515#0000000345010045
(946688571.849997) can0 400#4B4E277327790000
(946688571.849997) can0 401#006C000000000000
(946688571.869997) can0 001#CA00BA0279010000
(946688571.869997) can0 002#D503A20D2F040000
(946688571.879997) can0 18FF1515#0000000345010045
(946688571.879997) can0 400#4E4C297527760000
(946688571.879997) can0 401#006B000000000000
(946688571.889997) can0 001#C800BD027C010000
(946688571.889997) can0 002#D503B10D33040000
(946688571.899997) can0 18FF01EA#0A5585A37E007D50
(946688571.899997) can0 18FF02EA#0A5585A37E007D50
(946688571.899997) can0 19B50001#8CA0960000000000
(946688571.899997) can0 19B50008#8286840000000000
(946688571.899997) can0 19B50100#9696969696969696
(946688571.899997) can0 19B50800#8484848484848484
(946688571.909997) can0 001#C600BF027F010000
(946688571.909997) can0 002#D503BF0D37040000
(946688571.909997) can0 18FF1515#0000000345010045
(946688571.909997) can0 400#4F4C277528780000
(946688571.909997) can0 401#016B000000000000
(946688571.929997) can0 001#C300C20282010000
(946688571.929997) can0 002#D503CC0D3B040000
(946688571.939997) can0 18FF1515#0000000345010045
(946688571.939997) can0 400#4D4C277B28760000
(946688571.939997) can0 401#006B000000000000
(946688571.949997) can0 001#C100C50285010000
(946688571.949997) can0 002#D503DA0D3F040000
(946688571.969997) can0 001#BF00C70287010000
(946688571.969997) can0 002#D503E70D42040000
(946688571.969997) can0 18FF1515#0000000345010045
(946688571.969997) can0 400#4C4F287528790000
(946688571.969997) can0 401#006B000000000000
(946688571.989997) can0 001#BC00CA028A010000
(946688571.989997) can0 002#D503F40D46040000
(946688571.999997) can0 18FF1515#0000000345010045
(946688571.999997) can0 400#504E297328790000
(946688571.999997) can0 401#016A000000000000
(946688572.009997) can0 001#BA00CD028D010000
(946688572.009997) can0 002#D503010E4A040000
(946688572.009997) can0 18FF01EA#0A7E85A37E007D50
(946688572.009997) can0 18FF02EA#0A7E85A37E007D50
(946688572.009997) can0 19B50001#8CA0960000000000
(946688572.009997) can0 19B50008#8286840000000000
(946688572.009997) can0 19B50100#9696969696969696
(946688572.009997) can0 19B50800#8484848484848484
(946688572.019997) can0 18FF1080#0000000000000000
(946688572.019997) can0 18FF1180#0000000000000000
(946688572.019997) can0 18FF1280#0000000000000000
(946688572.019997) can0 18FFE180#0000000000000000
(946688572.019997) can0 18FFE280#0000000000000000
(946688572.029997) can0 001#B800CF0290010000
(946688572.029997) can0 002#D5030E0E4E040000
(946688572.029997) can0 18FF1515#0000000345010045
(946688572.029997) can0 400#4F4E287328760000
(946688572.029997) can0 401#016B000000000000
(946688572.049997) can0 001#B500D20292010000
(946688572.049997) can0 002#D5031A0E51040000
(946688572.059997) can0 18FF1515#0000000345010045
(946688572.059997) can0 400#4E4F297428740000
(946688572.059997) can0 401#006A000000000000
(946688572.069997) can0 001#B300D40295010000
(946688572.069997) can0 002#D503270E55040000
(946688572.089997) can0 001#B100D70298010000
(946688572.089997) can0 002#D503330E58040000
(946688572.089997) can0 18FF1515#0000000345010045
(946688572.089997) can0 400#504F287C28760000
(946688572.089997) can0 401#016B000000000000
(946688572.109997) can0 001#AF00D9029A010000
(946688572.109997) can0 002#D5033E0E5C040000
(946688572.119997) can0 18FF1515#0000000345010045
(946688572.119997) can0 400#5151277928750000
(946688572.119997) can0 401#016A000000000000
(946688572.119997) can0 18FF01EA#0AA685A37E007D50
(946688572.119997) can0 18FF02EA#0AA685A37E007D50
(946688572.119997) can0 19B50001#8CA0960000000000
(946688572.119997) can0 19B50008#8286840000000000
(946688572.119997) can0 19B50100#9696969696969696
(946688572.119997) can0 19B50800#8484848484848484
(946688572.129997) can0 001#AD00DB029D010000
(946688572.129997) can0 002#D5034A0E5F040000
(946688572.149997) can0 001#AA00DD029F010000
(946688572.149997) can0 002#D503550E63040000
(946688572.149997) can0 18FF1515#0000000345010045
(946688572.149997) can0 400#504F2877297A0000
(946688572.149997) can0 401#006A000000000000
(946688572.169997) can0 001#A800E002A2010000
(946688572.169997) can0 002#D503600E66040000
(946688572.179997) can0 18FF1515#0000000345010045
(946688572.179997) can0 400#5252277729750000
(946688572.179997) can0 401#0169000000000000
(946688572.189997) can0 001#A600E202A4010000
(946688572.189997) can0 002#D5036B0E6A040000
(946688572.209997) can0 001#A400E402A7010000
(946688572.209997) can0 002#D503750E6D040000
(946688572.209997) can0 18FF1515#0000000345010045
(946688572.209997) can0 400#4F522776287C0000
(946688572.209997) can0 401#016A000000000000
(946688572.229997) can0 001#A200E602A9010000
(946688572.229997) can0 002#D5037F0E70040000
(946688572.229997) can0 18FF01EA#0ACA85A37E007D50
(946688572.229997) can0 18FF02EA#0ACA85A37E007D50
(946688572.229997) can0 19B50001#8CA0960000000000
(946688572.229997) can0 19B50008#8286840000000000
(946688572.229997) can0 19B50100#9696969696969696
(946688572.229997) can0 19B50800#8484848484848484
(946688572.239997) can0 18FF1515#0000000345010045
(946688572.239997) can0 400#51502877287C0000
(946688572.239997) can0 401#0168000000000000
(946688572.249997) can0 001#A000E802AC010000
(946688572.249997) can0 002#D503890E73040000
(946688572.269997) can0 001#9E00EA02AE010000
(946688572.269997) can0 002#D503930E77040000
(946688572.269997) can0 18FF1515#0000000345010045
(946688572.269997) can0 400#5353277C27780000
(946688572.269997) can0 401#0068000000000000
(946688572.289997) can0 001#9C00EC02B0010000
(946688572.289997) can0 002#D5039C0E7A040000
(946688572.299997) can0 18FF1515#0000000345010045
(946688572.299997) can0 400#53542777297B0000
(946688572.299997) can0 401#0069000000000000
(946688572.309997) can0 001#9A00EE02B2010000
(946688572.309997) can0 002#D503A60E7D040000
(946688572.329997) can0 001#9800EF02B5010000
(946688572.329997) can0 002#D503AF0E80040000
(946688572.329997) can0 18FF1515#0000000345010045
(946688572.329997) can0 400#5151277B277A0000
(946688572.329997) can0 401#0068000000000000
(946688572.339997) can0 18FF01EA#0AEC85A37E007D50
(946688572.339997) can0 18FF02EA#0AEC85A37E007D50
(946688572.339997) can0 19B50001#8CA0960000000000
(946688572.339997) can0 19B50008#8286840000000000
(946688572.339997) can0 19B50100#9696969696969696
(946688572.339997) can0 19B50800#8484848484848484
(946688572.349997) can0 001#9600F102B7010000
(946688572.349997) can0 002#D503B70E83040000
(946688572.359997) can0 18FF1515#0000000345010045
(946688572.359997) can0 400#5252287428760000
(946688572.359997) can0 401#0168000000000000
(946688572.369997) can0 001#9400F302B9010000
(946688572.369997) can0 002#D503C00E86040000
(946688572.389997) can0 001#9200F402BB010000
(946688572.389997) can0 002#D503C80E89040000
(946688572.389997) can0 18FF1515#0000000345010045
(946688572.389997) can0 400#5254277A28760000
(946688572.389997) can0 401#0068000000000000
(946688572.409997) can0 001#9000F602BD010000
(946688572.409997) can0 002#D503D00E8C040000
(946688572.419997) can0 18FF1515#0000000345010045
(946688572.419997) can0 400#54522878297A0000
(946688572.419997) can0 401#0068000000000000
(946688572.429997) can0 001#8E00F802BF010000
(946688572.429997) can0 002#D503D80E8F040000
(946688572.449997) can0 001#8D00F902C1010000
(946688572.449997) can0 002#D503E00E91040000
(946688572.449997) can0 18FF1515#0000000345010045
(946688572.449997) can0 400#5653277A28790000
(946688572.449997) can0 401#0168000000000000
(946688572.449997) can0 18FF01EA#0A0C86A37E007D50
(946688572.449997) can0 18FF02EA#0A0C86A37E007D50
(946688572.449997) can0 19B50001#8CA0960000000000
(946688572.449997) can0 19B50008#8286840000000000
(946688572.449997) can0 19B50100#9696969696969696
(946688572.449997) can0 19B50800#8484848484848484
(946688572.469997) can0 001#8B00FB02C3010000
(946688572.469997) can0 002#D503E70E94040000
(946688572.479997) can0 18FF1515#0000000345010045
(946688572.479997) can0 400#5254287C27780000
(946688572.479997) can0 401#0068000000000000
(946688572.489997) can0 001#8900FC02C5010000
(946688572.489997) can0 002#D503EE0E97040000
(946688572.509997) can0 001#8700FD02C7010000
(946688572.509997) can0 002#D503F50E9A040000
(946688572.509997) can0 18FF1515#0000000345010045
(946688572.509997) can0 400#55552974287A0000
(946688572.509997) can0 401#0168000000000000
(946688572.529997) can0 001#8600FF02C9010000
(946688572.529997) can0 002#D503FB0E9C040000
(946688572.539997) can0 18FF1515#0000000345010045
(946688572.539997) can0 400#55572774287C0000
(946688572.539997) can0 401#0067000000000000
(946688572.549997) can0 001#84000003CA010000
(946688572.549997) can0 002#D503010F9F040000
(946688572.559997) can0 18FF01EA#0A2A86A37E007D50
(946688572.559997) can0 18FF02EA#0A2A86A37E007D50
(946688572.559997) can0 19B50001#8CA0960000000000
(946688572.559997) can0 19B50008#8286840000000000
(946688572.559997) can0 19B50100#9696969696969696
(946688572.559997) can0 19B50800#8484848484848484
(946688572.569997) can0 001#82000103CC010000
(946688572.569997) can0 002#D503070FA2040000
(946688572.569997) can0 18FF1515#0000000345010045
(946688572.569997) can0 400#54562875277C0000
(946688572.569997) can0 401#0066000000000000
(946688572.589997) can0 001#80000203CE010000
(946688572.589997) can0 002#D5030D0FA4040000
(946688572.599997) can0 18FF1515#0000000345010045
(946688572.599997) can0 400#5556287929770000
(946688572.599997) can0 401#0068000000000000
(946688572.609997) can0 001#7F000303CF010000
(946688572.609997) can0 002#D503130FA7040000
(946688572.629997) can0 001#7D000403D1010000
(946688572.629997) can0 002#D503180FA9040000
(946688572.629997) can0 18FF1515#0000000345010045
(946688572.629997) can0 400#5654287429770000
(946688572.629997) can0 401#0166000000000000
(946688572.629997) can0 18FF1080#0000000000000000
(946688572.629997) can0 18FF1180#0000000000000000
(946688572.629997) can0 18FF1280#0000000000000000
(946688572.629997) can0 18FFE180#0000000000000000
(946688572.629997) can0 18FFE280#0000000000000000
(946688572.649997) can0 001#7B000503D3010000
(946688572.649997) can0 002#D5031D0FAC040000
(946688572.659997) can0 18FF1515#0000000345010045
(946688572.659997) can0 400#5757277828750000
(946688572.659997) can0 401#0066000000000000
(946688572.669997) can0 001#7A000603D4010000
(946688572.669997) can0 002#D503220FAE040000
(946688572.669997) can0 18FF01EA#0A4586A37E007D50
(946688572.669997) can0 18FF02EA#0A4586A37E007D50
(946688572.669997) can0 19B50001#8CA0960000000000
(946688572.669997) can0 19B50008#8286840000000000
(946688572.669997) can0 19B50100#9696969696969696
(946688572.669997) can0 19B50800#8484848484848484
(946688572.689996) can0 001#78000703D6010000
(946688572.689996) can0 002#D503260FB1040000
(946688572.689996) can0 18FF1515#0000000345010045
(946688572.689996) can0 400#5855287527780000
(946688572.689996) can0 401#0067000000000000
(946688572.709996) can0 001#77000803D7010000
(946688572.709996) can0 002#D5032A0FB3040000
(946688572.719996) can0 18FF1515#0000000345010045
(946688572.719996) can0 400#5655297D297C0000
(946688572.719996) can0 401#0167000000000000
(946688572.729996) can0 001#75000903D8010000
(946688572.729996) can0 002#D5032E0FB5040000
(946688572.749996) can0 001#73000A03DA010000
(946688572.749996) can0 002#D503320FB8040000
(946688572.749996) can0 18FF1515#0000000345010045
(946688572.749996) can0 400#5756297628760000
(946688572.749996) can0 401#0067000000000000
(946688572.769996) can0 001#72000A03DB010000
(946688572.769996) can0 002#D503360FBA040000
(946688572.779996) can0 18FF1515#0000000345010045
(946688572.779996) can0 400#5857297629790000
(946688572.779996) can0 401#0066000000000000
(946688572.779996) can0 18FF01EA#0A5F86A37E007D50
(946688572.779996) can0 18FF02EA#0A5F86A37E007D50
(946688572.779996) can0 19B50001#8CA0960000000000
(946688572.779996) can0 19B50008#8286840000000000
(946688572.779996) can0 19B50100#9696969696969696
(946688572.779996) can0 19B50800#8484848484848484
(946688572.789996) can0 001#70000B03DC010000
(946688572.789996) can0 002#D503390FBC040000
(946688572.809996) can0 001#6F000C03DE010000
(946688572.809996) can0 002#D5033C0FBF040000
(946688572.809996) can0 18FF1515#0000000345010045
(946688572.809996) can0 400#5757287E277B0000
(946688572.809996) can0 401#0066000000000000
(946688572.829996) can0 001#6D000C03DF010000
(946688572.829996) can0 002#D5033E0FC1040000
(946688572.839996) can0 18FF1515#0000000345010045
(946688572.839996) can0 400#5655287B29760000
(946688572.839996) can0 401#0166000000000000
(946688572.849996) can0 001#6C000D03E0010000
(946688572.849996) can0 002#D503410FC3040000
(946688572.869996) can0 001#6B000D03E1010000
(946688572.869996) can0 002#D503430FC5040000
(946688572.869996) can0 18FF1515#0000000345010045
(946688572.869996) can0 400#59592874287B0000
(946688572.869996) can0 401#0066000000000000
(946688572.889996) can0 001#69000D03E2010000
(946688572.889996) can0 002#D503450FC7040000
(946688572.889996) can0 18FF01EA#0A7686A37E007D50
(946688572.889996) can0 18FF02EA#0A7686A37E007D50
(946688572.889996) can0 19B50001#8CA0960000000000
(946688572.889996) can0 19B50008#8286840000000000
(946688572.889996) can0 19B50100#9696969696969696
(946688572.889996) can0 19B50800#8484848484848484
(946688572.899996) can0 18FF1515#0000000345010045
(946688572.899996) can0 400#565A287D297E0000
(946688572.899996) can0 401#0066000000000000
(946688572.909996) can0 001#68000E03E3010000
(946688572.909996) can0 002#D503470FC9040000
(946688572.929996) can0 001#66000E03E4010000
(946688572.929996) can0 002#D503480FCB040000
(946688572.929996) can0 18FF1515#0000000345010045
(946688572.929996) can0 400#57592975287C0000
(946688572.929996) can0 401#0066000000000000
(946688572.949996) can0 001#65000E03E5010000
(946688572.949996) can0 002#D503490FCD040000
(946688572.959996) can0 18FF1515#0000000345010045
(946688572.959996) can0 400#5859287B297C0000
(946688572.959996) can0 401#0066000000000000
(946688572.969996) can0 001#64000E03E6010000
(946688572.969996) can0 002#D5034A0FCF040000
(946688572.989996) can0 001#62000F03E7010000
(946688572.989996) can0 002#D5034B0FD1040000
(946688572.989996) can0 18FF1515#0000000345010045
(946688572.989996) can0 400#59572878287A0000
(946688572.989996) can0 401#0066000000000000
(946688572.999996) can0 18FF01EA#0A8D86A37E007D50
(946688572.999996) can0 18FF02EA#0A8D86A37E007D50
(946688572.999996) can0 19B50001#8CA0960000000000
(946688572.999996) can0 19B50008#8286840000000000
(946688572.999996) can0 19B50100#9696969696969696
(946688572.999996) can0 19B50800#8484848484848484
(946688573.009996) can0 001#61000F03E8010000
(946688573.009996) can0 002#D5034B0FD3040000
(946688573.009996) can0 18FF1515#0000000345010045
(946688573.009996) can0 400#585A2775297C0000
(946688573.009996) can0 401#0065000000000000
(946688573.029996) can0 001#60000F03E9010000
(946688573.029996) can0 002#D5034C0FD5040000
(946688573.039996) can0 18FF1515#0000000345010045
(946688573.039996) can0 400#5759287A287A0000
(946688573.039996) can0 401#0065000000000000
(946688573.049996) can0 001#5E000F03E9010000
(946688573.049996) can0 002#D5034B0FD7040000
(946688573.069996) can0 001#5D000F03EA010000
(946688573.069996) can0 002#D5034B0FD9040000
(946688573.069996) can0 18FF1515#0000000345010045
(946688573.069996) can0 400#5A5A287727770000
(946688573.069996) can0 401#0166000000000000
(946688573.089996) can0 001#5C000E03EB010000
(946688573.089996) can0 002#D5034A0FDB040000
(946688573.099996) can0 18FF1515#0000000345010045
(946688573.099996) can0 400#59572779287B0000
(946688573.099996) can0 401#0066000000000000
(946688573.109996) can0 001#5A000E03EB010000
(946688573.109996) can0 002#D5034A0FDD040000
(946688573.109996) can0 18FF01EA#0AA186A37E007D50
(946688573.109996) can0 18FF02EA#0AA186A37E007D50
(946688573.109996) can0 19B50001#8CA0960000000000
(946688573.109996) can0 19B50008#8286840000000000
(946688573.109996) can0 19B50100#9696969696969696
(946688573.109996) can0 19B50800#8484848484848484
(946688573.129996) can0 001#59000E03EC010000
(946688573.129996) can0 002#D503480FDF040000
(946688573.129996) can0 18FF1515#0000000345010045
(946688573.129996) can0 400#5A592776297E0000
(946688573.129996) can0 401#0064000000000000
(946688573.149996) can0 001#58000E03EC010000
(946688573.149996) can0 002#D503470FE0040000
(946688573.159996) can0 18FF1515#0000000345010045
(946688573.159996) can0 400#595B287D297B0000
(946688573.159996) can0 401#0165000000000000
(946688573.169996) can0 001#57000D03ED010000
(946688573.169996) can0 002#D503450FE2040000
(946688573.189996) can0 001#56000D03ED010000
(946688573.189996) can0 002#D503440FE4040000
(946688573.189996) can0 18FF1515#0000000345010045
(946688573.189996) can0 400#5959287529780000
(946688573.189996) can0 401#0065000000000000
(946688573.209996) can0 001#54000D03EE010000
(946688573.209996) can0 002#D503410FE5040000
(946688573.219996) can0 18FF1515#0000000345010045
(946688573.219996) can0 400#5B5B287B27780000
(946688573.219996) can0 401#0066000000000000
(946688573.219996) can0 18FF01EA#0AB486A37E007D50
(946688573.219996) can0 18FF02EA#0AB486A37E007D50
(946688573.219996) can0 19B50001#8CA0960000000000
(946688573.219996) can0 19B50008#8286840000000000
(946688573.219996) can0 19B50100#9696969696969696
(946688573.219996) can0 19B50800#8484848484848484
(946688573.229996) can0 001#53000C03EE010000
(946688573.229996) can0 002#D5033F0FE7040000
(946688573.239996) can0 18FF1080#0000000000000000
(946688573.239996) can0 18FF1180#0000000000000000
(946688573.239996) can0 18FF1280#0000000000000000
(946688573.239996) can0 18FFE180#0000000000000000
(946688573.239996) can0 18FFE280#0000000000000000
(946688573.249996) can0 001#52000C03EE010000
(946688573.249996) can0 002#D5033C0FE9040000
(946688573.249996) can0 18FF1515#0000000345010045
(946688573.249996) can0 400#5B5B287E277C0000
(946688573.249996) can0 401#0166000000000000
(946688573.269996) can0 001#51000B03EF010000
(946688573.269996) can0 002#D5033A0FEA040000
(946688573.279996) can0 18FF1515#0000000345010045
(946688573.279996) can0 400#5958287B297E0000
(946688573.279996) can0 401#0065000000000000
(946688573.289996) can0 001#50000A03EF010000
(946688573.289996) can0 002#D503360FEC040000
(946688573.309996) can0 001#4F000A03EF010000
(946688573.309996) can0 002#D503330FEE040000
(946688573.309996) can0 18FF1515#0000000345010045
(946688573.309996) can0 400#5A59287A297C0000
(946688573.309996) can0 401#0065000000000000
(946688573.329996) can0 001#4E000903EF010000
(946688573.329996) can0 002#D5032F0FEF040000
(946688573.329996) can0 18FF01EA#0AC686A37E007D50
(946688573.329996) can0 18FF02EA#0AC686A37E007D50
(946688573.329996) can0 19B50001#8CA0960000000000
(946688573.329996) can0 19B50008#8286840000000000
(946688573.329996) can0 19B50100#9696969696969696
(946688573.329996) can0 19B50800#8484848484848484
(946688573.339996) can0 18FF1515#0000000345010045
(946688573.339996) can0 400#5A5B287D287B0000
(946688573.339996) can0 401#0065000000000000
(946688573.349996) can0 001#4D000803EF010000
(946688573.349996) can0 002#D5032C0FF1040000
(946688573.369996) can0 001#4C000703EF010000
(946688573.369996) can0 002#D503270FF2040000
(946688573.369996) can0 18FF1515#0000000345010045
(946688573.369996) can0 400#5D5A277A28760000
(946688573.369996) can0 401#0166000000000000
(946688573.389996) can0 001#4B000703EF010000
(946688573.389996) can0 002#D503230FF4040000
(946688573.399996) can0 18FF1515#0000000345010045
(946688573.399996) can0 400#5C5A2877287F0000
(946688573.399996) can0 401#0065000000000000
(946688573.409996) can0 001#4A000603EF010000
(946688573.409996) can0 002#D5031E0FF5040000
(946688573.429996) can0 001#49000503EF010000
(946688573.429996) can0 002#D503190FF7040000
(946688573.429996) can0 18FF1515#0000000345010045
(946688573.429996) can0 400#5B5D2778297B0000
(946688573.429996) can0 401#0166000000000000
(946688573.439996) can0 18FF01EA#0AD686A37E007D50
(946688573.439996) can0 18FF02EA#0AD686A37E007D50
(946688573.439996) can0 19B50001#8CA0960000000000
(946688573.439996) can0 19B50008#8286840000000000
(946688573.439996) can0 19B50100#9696969696969696
(946688573.439996) can0 19B50800#8484848484848484
(946688573.449996) can0 001#48000403EF010000
(946688573.449996) can0 002#D503140FF8040000
(946688573.459996) can0 18FF1515#0000000345010045
(946688573.459996) can0 400#595B287A287A0000
(946688573.459996) can0 401#0065000000000000
(946688573.469996) can0 001#47000303EF010000
(946688573.469996) can0 002#D5030F0FFA040000
(946688573.489996) can0 001#46000103EF010000
(946688573.489996) can0 002#D503090FFB040000
(946688573.489996) can0 18FF1515#0000000345010045
(946688573.489996) can0 400#5C5B2875297A0000
(946688573.489996) can0 401#0066000000000000
(946688573.509996) can0 001#45000003EF010000
(946688573.509996) can0 002#D503030FFC040000
(946688573.519996) can0 18FF1515#0000000345010045
(946688573.519996) can0 400#5D5B287A28780000
(946688573.519996) can0 401#0165000000000000
(946688573.529996) can0 001#4400FF02EF010000
(946688573.529996) can0 002#D503FD0EFE040000
(946688573.549996) can0 001#4300FE02EE010000
(946688573.549996) can0 002#D503F70EFF040000
(946688573.549996) can0 18FF1515#0000000345010045
(946688573.549996) can0 400#5A5D297F287F0000
(946688573.549996) can0 401#0164000000000000
(946688573.549996) can0 18FF01EA#0AE586A37E007D50
(946688573.549996) can0 18FF02EA#0AE586A37E007D50
(946688573.549996) can0 19B50001#8CA0960000000000
(946688573.549996) can0 19B50008#8286840000000000
(946688573.549996) can0 19B50100#9696969696969696
(946688573.549996) can0 19B50800#8484848484848484
(946688573.569996) can0 001#4200FC02EE010000
(946688573.569996) can0 002#D503F00E00050000
(946688573.579996) can0 18FF1515#0000000345010045
(946688573.579996) can0 400#5A5A287A28780000
(946688573.579996) can0 401#0066000000000000
(946688573.589996) can0 001#4100FB02ED010000
(946688573.589996) can0 002#D503E90E02050000
(946688573.609996) can0 001#4000FA02ED010000
(946688573.609996) can0 002#D503E20E03050000
(946688573.609996) can0 18FF1515#0000000345010045
(946688573.609996) can0 400#5D5A287F28760000
(946688573.609996) can0 401#0166000000000000
(946688573.629996) can0 001#3F00F802ED010000
(946688573.629996) can0 002#D503DB0E04050000
(946688573.639996) can0 18FF1515#0000000345010045
(946688573.639996) can0 400#5C5D287C29790000
(946688573.639996) can0 401#0066000000000000
(946688573.649996) can0 001#3E00F702EC010000
(946688573.649996) can0 002#D503D30E06050000
(946688573.659996) can0 18FF01EA#0AF386A37E007D50
(946688573.659996) can0 18FF02EA#0AF386A37E007D50
(946688573.659996) can0 19B50001#8CA0960000000000
(946688573.659996) can0 19B50008#8286840000000000
(946688573.659996) can0 19B50100#9696969696969696
(946688573.659996) can0 19B50800#8484848484848484
(946688573.669996) can0 001#3D00F502EC010000
(946688573.669996) can0 002#D503CB0E07050000
(946688573.669996) can0 18FF1515#0000000345010045
(946688573.669996) can0 400#5D5C2878297E0000
(946688573.669996) can0 401#0066000000000000
(946688573.689996) can0 001#3C00F302EB010000
(946688573.689996) can0 002#D503C30E08050000
(946688573.699996) can0 18FF1515#0000000345010045
(946688573.699996) can0 400#5E5E2978287D0000
(946688573.699996) can0 401#0066000000000000
(946688573.709996) can0 001#3C00F202EA010000
(946688573.709996) can0 002#D503BB0E09050000
(946688573.729995) can0 001#3B00F002EA010000
(946688573.729995) can0 002#D503B20E0A050000
(946688573.729995) can0 18FF1515#0000000345010045
(946688573.729995) can0 400#5A5C297828750000
(946688573.729995) can0 401#0065000000000000
(946688573.749995) can0 001#3A00EE02E9010000
(946688573.749995) can0 002#D503A90E0C050000
(946688573.759995) can0 18FF1515#0000000345010045
(946688573.759995) can0 400#5B5B297F297A0000
(946688573.759995) can0 401#0065000000000000
(946688573.769995) can0 001#3900EC02E8010000
(946688573.769995) can0 002#D503A00E0D050000
(946688573.769995) can0 18FF01EA#0A0087A37E007D50
(946688573.769995) can0 18FF02EA#0A0087A37E007D50
(946688573.769995) can0 19B50001#8CA0960000000000
(946688573.769995) can0 19B50008#8286840000000000
(946688573.769995) can0 19B50100#9696969696969696
(946688573.769995) can0 19B50800#8484848484848484
(946688573.789995) can0 001#3800EB02E7010000
(946688573.789995) can0 002#D503970E0E050000
(946688573.789995) can0 18FF1515#0000000345010045
(946688573.789995) can0 400#5D5C297728790000
(946688573.789995) can0 401#0065000000000000
(946688573.809995) can0 001#3800E902E7010000
(946688573.809995) can0 002#D5038E0E0F050000
(946688573.819995) can0 18FF1515#0000000345010045
(946688573.819995) can0 400#5D5C297D29790000
(946688573.819995) can0 401#0166000000000000
(946688573.829995) can0 001#3700E702E6010000
(946688573.829995) can0 002#D503840E10050000
(946688573.849995) can0 001#3600E502E5010000
(946688573.849995) can0 002#D5037A0E11050000
(946688573.849995) can0 18FF1515#0000000345010045
(946688573.849995) can0 400#5D5C277F28760000
(946688573.849995) can0 401#0065000000000000
(946688573.849995) can0 18FF1080#0000000000000000
(946688573.849995) can0 18FF1180#0000000000000000
(946688573.849995) can0 18FF1280#0000000000000000
(946688573.849995) can0 18FFE180#0000000000000000
(946688573.849995) can0 18FFE280#0000000000000000
(946688573.869995) can0 001#3500E302E4010000
(946688573.869995) can0 002#D503700E12050000
(946688573.879995) can0 18FF1515#0000000345010045
(946688573.879995) can0 400#5E5C287F29760000
(946688573.879995) can0 401#0065000000000000
(946688573.879995) can0 18FF01EA#0A0C87A37E007D50
(946688573.879995) can0 18FF02EA#0A0C87A37E007D50
(946688573.879995) can0 19B50001#8CA0960000000000
(946688573.879995) can0 19B50008#8286840000000000
(946688573.879995) can0 19B50100#9696969696969696
(946688573.879995) can0 19B50800#8484848484848484
(946688573.889995) can0 001#3400E102E3010000
(946688573.889995) can0 002#D503650E13050000
(946688573.909995) can0 001#3400DE02E2010000
(946688573.909995) can0 002#D5035A0E14050000
(946688573.909995) can0 18FF1515#0000000345010045
(946688573.909995) can0 400#5C5D297F297F0000
(946688573.909995) can0 401#0066000000000000
(946688573.929995) can0 001#3300DC02E1010000
(946688573.929995) can0 002#D5034F0E15050000
(946688573.939995) can0 18FF1515#0000000345010045
(946688573.939995) can0 400#5C5C287E29770000
(946688573.939995) can0 401#0065000000000000
(946688573.949995) can0 001#3200DA02E0010000
(946688573.949995) can0 002#D503440E17050000
(946688573.969995) can0 001#3200D802DF010000
(946688573.969995) can0 002#D503390E18050000
(946688573.969995) can0 18FF1515#0000000345010045
(946688573.969995) can0 400#5D5C287B29760000
(946688573.969995) can0 401#0066000000000000
(946688573.989995) can0 001#3100D502DD010000
(946688573.989995) can0 002#D5032D0E19050000
(946688573.989995) can0 18FF01EA#0A1787A37E007D50
(946688573.989995) can0 18FF02EA#0A1787A37E007D50
(946688573.989995) can0 19B50001#8CA0960000000000
(946688573.989995) can0 19B50008#8286840000000000
(946688573.989995) can0 19B50100#9696969696969696
(946688573.989995) can0 19B50800#8484848484848484
(946688573.999995) can0 18FF1515#0000000345010045
(946688573.999995) can0 400#5E5C297A297F0000
(946688573.999995) can0 401#0066000000000000
(946688574.009995) can0 001#3000D302DC010000
(946688574.009995) can0 002#D503210E19050000
(946688574.029995) can0 001#2F00D102DB010000
(946688574.029995) can0 002#D503150E1A050000
(946688574.029995) can0 18FF1515#0000000345010045
(946688574.029995) can0 400#5D5D297B29780000
(946688574.029995) can0 401#0066000000000000
(946688574.049995) can0 001#2F00CE02DA010000
(946688574.049995) can0 002#D503090E1B050000
(946688574.059995) can0 18FF1515#0000000345010045
(946688574.059995) can0 400#605F2979277C0000
(946688574.059995) can0 401#0167000000000000
(946688574.069995) can0 001#2E00CC02D8010000
(946688574.069995) can0 002#D503FC0D1C050000
(946688574.089995) can0 001#2D00C902D7010000
(946688574.089995) can0 002#D503EF0D1D050000
(946688574.089995) can0 18FF1515#0000000345010045
(946688574.089995) can0 400#5F5C297C297B0000
(946688574.089995) can0 401#0066000000000000
(946688574.099995) can0 18FF01EA#0A2287A37E007D50
(946688574.099995) can0 18FF02EA#0A2287A37E007D50
(946688574.099995) can0 19B50001#8CA0960000000000
(946688574.099995) can0 19B50008#8286840000000000
(946688574.099995) can0 19B50100#9696969696969696
(946688574.099995) can0 19B50800#8484848484848484
(946688574.109995) can0 001#2D00C602D6010000
(946688574.109995) can0 002#D503E20D1E050000
(946688574.119995) can0 18FF1515#0000000345010045
(946688574.119995) can0 400#5D5F287B28780000
(946688574.119995) can0 401#0166000000000000
(946688574.129995) can0 001#2C00C402D4010000
(946688574.129995) can0 002#D503D50D1F050000
(946688574.149995) can0 001#2C00C102D3010000
(946688574.149995) can0 002#D503C80D20050000
(946688574.149995) can0 18FF1515#0000000345010045
(946688574.149995) can0 400#5C5E287E28770000
(946688574.149995) can0 401#0067000000000000
(946688574.169995) can0 001#2B00BE02D1010000
(946688574.169995) can0 002#D503BA0D21050000
(946688574.179995) can0 18FF1515#0000000345010045
(946688574.179995) can0 400#5E5C297F297C0000
(946688574.179995) can0 401#0067000000000000
(946688574.189995) can0 001#2A00BC02D0010000
(946688574.189995) can0 002#D503AC0D22050000
(946688574.209995) can0 001#2A00B902CE010000
(946688574.209995) can0 002#D5039E0D23050000
(946688574.209995) can0 18FF1515#0000000345010045
(946688574.209995) can0 400#5C5C287828790000
(946688574.209995) can0 401#0068000000000000
(946688574.209995) can0 18FF01EA#0A2B87A37E007D50
(946688574.209995) can0 18FF02EA#0A2B87A37E007D50
(946688574.209995) can0 19B50001#8CA0960000000000
(946688574.209995) can0 19B50008#8286840000000000
(946688574.209995) can0 19B50100#9696969696969696
(946688574.209995) can0 19B50800#8484848484848484
(946688574.229995) can0 001#2900B602CC010000
(946688574.229995) can0 002#D5038F0D23050000
(946688574.239995) can0 18FF1515#0000000345010045
(946688574.239995) can0 400#5F5D2876287A0000
(946688574.239995) can0 401#0066000000000000
(946688574.249995) can0 001#2900B302CB010000
(946688574.249995) can0 002#D503810D24050000
(946688574.269995) can0 001#2800B002C9010000
(946688574.269995) can0 002#D503720D25050000
(946688574.269995) can0 18FF1515#0000000345010045
(946688574.269995) can0 400#5F5E2876297D0000
(946688574.269995) can0 401#0067000000000000
(946688574.289995) can0 001#2700AD02C7010000
(946688574.289995) can0 002#D503630D26050000
(946688574.299995) can0 18FF1515#0000000345010045
(946688574.299995) can0 400#5F5D2977297C0000
(946688574.299995) can0 401#0067000000000000
(946688574.309995) can0 001#2700AA02C6010000
(946688574.309995) can0 002#D503540D27050000
(946688574.319995) can0 18FF01EA#0A3487A37E007D50
(946688574.319995) can0 18FF02EA#0A3487A37E007D50
(946688574.319995) can0 19B50001#8CA0960000000000
(946688574.319995) can0 19B50008#8286840000000000
(946688574.319995) can0 19B50100#9696969696969696
(946688574.319995) can0 19B50800#8484848484848484
(946688574.329995) can0 001#2600A702C4010000
(946688574.329995) can0 002#D503440D27050000
(946688574.329995) can0 18FF1515#0000000345010045
(946688574.329995) can0 400#5E60297C29760000
(946688574.329995) can0 401#0068000000000000
(946688574.349995) can0 001#2600A402C2010000
(946688574.349995) can0 002#D503350D28050000
(946688574.359995) can0 18FF1515#0000000345010045
(946688574.359995) can0 400#605F2878287C0000
(946688574.359995) can0 401#0068000000000000
(946688574.369995) can0 001#2500A102C0010000
(946688574.369995) can0 002#D503250D29050000
(946688574.389995) can0 001#25009D02BE010000
(946688574.389995) can0 002#D503150D2A050000
(946688574.389995) can0 18FF1515#0000000345010045
(946688574.389995) can0 400#5D5F287E287E0000
(946688574.389995) can0 401#0068000000000000
(946688574.409995) can0 001#24009A02BC010000
(946688574.409995) can0 002#D503050D2A050000
(946688574.419995) can0 18FF1515#0000000345010045
(946688574.419995) can0 400#5E5E287F287F0000
(946688574.419995) can0 401#0068000000000000
(946688574.429995) can0 001#24009702BA010000
(946688574.429995) can0 002#D503F40C2B050000
(946688574.429995) can0 18FF01EA#0A3C87A37E007D50
(946688574.429995) can0 18FF02EA#0A3C87A37E007D50
(946688574.429995) can0 19B50001#8CA0960000000000
(946688574.429995) can0 19B50008#8286840000000000
(946688574.429995) can0 19B50100#9696969696969696
(946688574.429995) can0 19B50800#8484848484848484
(946688574.449995) can0 001#23009302B8010000
(946688574.449995) can0 002#D503E30C2C050000
(946688574.449995) can0 18FF1515#0000000345010045
(946688574.449995) can0 400#5E5D2879297D0000
(946688574.449995) can0 401#0067000000000000
(946688574.459995) can0 18FF1080#0000000000000000
(946688574.459995) can0 18FF1180#0000000000000000
(946688574.459995) can0 18FF1280#0000000000000000
(946688574.459995) can0 18FFE180#0000000000000000
(946688574.459995) can0 18FFE280#0000000000000000
(946688574.469995) can0 001#23009002B6010000
(946688574.469995) can0 002#D503D20C2D050000
(946688574.479995) can0 18FF1515#0000000345010045
(946688574.479995) can0 400#5E5E297D28790000
(946688574.479995) can0 401#0069000000000000
(946688574.489995) can0 001#22008D02B4010000
(946688574.489995) can0 002#D503C10C2D050000
(946688574.509995) can0 001#22008902B2010000
(946688574.509995) can0 002#D503B00C2E050000
(946688574.509995) can0 18FF1515#0000000345010045
(946688574.509995) can0 400#605D287F29800000
(946688574.509995) can0 401#0068000000000000
(946688574.529995) can0 001#21008602B0010000
(946688574.529995) can0 002#D5039E0C2F050000
(946688574.539995) can0 18FF1515#0000000345010045
(946688574.539995) can0 400#605D2878287B0000
(946688574.539995) can0 401#0168000000000000
(946688574.539995) can0 18FF01EA#0A4487A37E007D50
(946688574.539995) can0 18FF02EA#0A4487A37E007D50
(946688574.539995) can0 19B50001#8CA0960000000000
(946688574.539995) can0 19B50008#8286840000000000
(946688574.539995) can0 19B50100#9696969696969696
(946688574.539995) can0 19B50800#8484848484848484
(946688574.549995) can0 001#21008202AE010000
(946688574.549995) can0 002#D5038D0C2F050000
(946688574.569995) can0 001#20007F02AC010000
(946688574.569995) can0 002#D5037B0C30050000
(946688574.569995) can0 18FF1515#0000000345010045
(946688574.569995) can0 400#5E5F297D297E0000
(946688574.569995) can0 401#0068000000000000
(946688574.589995) can0 001#20007B02AA010000
(946688574.589995) can0 002#D503690C31050000
(946688574.599995) can0 18FF1515#0000000345010045
(946688574.599995) can0 400#5D60297E28790000
(946688574.599995) can0 401#0068000000000000
(946688574.609995) can0 001#1F007702A7010000
(946688574.609995) can0 002#D503560C31050000
(946688574.629995) can0 001#1F007402A5010000
(946688574.629995) can0 002#D503440C32050000
(946688574.629995) can0 18FF1515#0000000345010045
(946688574.629995) can0 400#605F287F29760000
(946688574.629995) can0 401#0068000000000000
(946688574.649995) can0 001#1E007002A3010000
(946688574.649995) can0 002#D503310C32050000
(946688574.649995) can0 18FF01EA#0A4B87A37E007D50
(946688574.649995) can0 18FF02EA#0A4B87A37E007D50
(946688574.649995) can0 19B50001#8CA0960000000000
(946688574.649995) can0 19B50008#8286840000000000
(946688574.649995) can0 19B50100#9696969696969696
(946688574.649995) can0 19B50800#8484848484848484
(946688574.659995) can0 18FF1515#0000000345010045
(946688574.659995) can0 400#615E297F28790000
(946688574.659995) can0 401#0069000000000000
(946688574.669995) can0 001#1E006C02A0010000
(946688574.669995) can0 002#D5031E0C33050000
(946688574.689995) can0 001#1D0068029E010000
(946688574.689995) can0 002#D5030B0C34050000
(946688574.689995) can0 18FF1515#0000000345010045
(946688574.689995) can0 400#6060287D28790000
(946688574.689995) can0 401#006A000000000000
(946688574.709995) can0 001#1D0064029C010000
(946688574.709995) can0 002#D503F80B34050000
(946688574.719995) can0 18FF1515#0000000345010045
(946688574.719995) can0 400#5F60287D28790000
(946688574.719995) can0 401#006A000000000000
(946688574.729995) can0 001#1D00600299010000
(946688574.729995) can0 002#D503E40B35050000
(946688574.749995) can0 001#1C005D0297010000
(946688574.749995) can0 002#D503D10B35050000
(946688574.749995) can0 18FF1515#0000000345010045
(946688574.749995) can0 400#605E287D297E0000
(946688574.749995) can0 401#0069000000000000
(946688574.759995) can0 18FF01EA#0A5187A37E007D50
(946688574.759995) can0 18FF02EA#0A5187A37E007D50
(946688574.759995) can0 19B50001#8CA0960000000000
(946688574.759995) can0 19B50008#8286840000000000
(946688574.759995) can0 19B50100#9696969696969696
(946688574.759995) can0 19B50800#8484848484848484
(946688574.769994) can0 001#1C00590294010000
(946688574.769994) can0 002#D503BD0B36050000
(946688574.779994) can0 18FF1515#0000000345010045
(946688574.779994) can0 400#615F287D29780000
(946688574.779994) can0 401#0069000000000000
(946688574.789994) can0 001#1B00550292010000
(946688574.789994) can0 002#D503A90B37050000
(946688574.809994) can0 001#1B0051028F010000
(946688574.809994) can0 002#D503950B37050000
(946688574.809994) can0 18FF1515#0000000345010045
(946688574.809994) can0 400#60612980297E0000
(946688574.809994) can0 401#006B000000000000
(946688574.829994) can0 001#1B004C028D010000
(946688574.829994) can0 002#D503800B38050000
(946688574.839994) can0 18FF1515#0000000345010045
(946688574.839994) can0 400#615F287E29770000
(946688574.839994) can0 401#006A000000000000
(946688574.849994) can0 001#1A0048028A010000
(946688574.849994) can0 002#D5036C0B38050000
(946688574.869994) can0 001#1A00440287010000
(946688574.869994) can0 002#D503570B39050000
(946688574.869994) can0 18FF1515#0000000345010045
(946688574.869994) can0 400#5F62287D297A0000
(946688574.869994) can0 401#006B000000000000
(946688574.869994) can0 18FF01EA#0A5787A37E007D50
(946688574.869994) can0 18FF02EA#0A5787A37E007D50
(946688574.869994) can0 19B50001#8CA0960000000000
(946688574.869994) can0 19B50008#8286840000000000
(946688574.869994) can0 19B50100#9696969696969696
(946688574.869994) can0 19B50800#8484848484848484
(946688574.889994) can0 001#1900400285010000
(946688574.889994) can0 002#D503420B39050000
(946688574.899994) can0 18FF1515#0000000345010045
(946688574.899994) can0 400#615F287728770000
(946688574.899994) can0 401#006A000000000000
(946688574.909994) can0 001#19003C0282010000
(946688574.909994) can0 002#D5032D0B3A050000
(946688574.929994) can0 001#190038027F010000
(946688574.929994) can0 002#D503180B3A050000
(946688574.929994) can0 18FF1515#0000000345010045
(946688574.929994) can0 400#6060287F287B0000
(946688574.929994) can0 401#006A000000000000
(946688574.949994) can0 001#180033027C010000
(946688574.949994) can0 002#D503020B3B050000
(946688574.959994) can0 18FF1515#0000000345010045
(946688574.959994) can0 400#605F297A28770000
(946688574.959994) can0 401#006B000000000000
(946688574.969994) can0 001#18002F027A010000
(946688574.969994) can0 002#D503ED0A3B050000
(946688574.979994) can0 18FF01EA#0A5D87A37E007D50
(946688574.979994) can0 18FF02EA#0A5D87A37E007D50
(946688574.979994) can0 19B50001#8CA0960000000000
(946688574.979994) can0 19B50008#8286840000000000
(946688574.979994) can0 19B50100#9696969696969696
(946688574.979994) can0 19B50800#8484848484848484
(946688574.989994) can0 001#18002B0277010000
(946688574.989994) can0 002#D503D70A3C050000
(946688574.989994) can0 18FF1515#0000000345010045
(946688574.989994) can0 400#605F297B287A0000
(946688574.989994) can0 401#006C000000000000
(946688575.009994) can0 001#1700260274010000
(946688575.009994) can0 002#D503C10A3C050000
(946688575.019994) can0 18FF1515#0000000345010045
(946688575.019994) can0 400#61602980297B0000
(946688575.019994) can0 401#006C000000000000
(946688575.029994) can0 001#1700220271010000
(946688575.029994) can0 002#D503AB0A3D050000
(946688575.049994) can0 001#17001D026E010000
(946688575.049994) can0 002#D503950A3D050000
(946688575.049994) can0 18FF1515#0000000345010045
(946688575.049994) can0 400#605F2979297E0000
(946688575.049994) can0 401#006D000000000000
(946688575.069994) can0 001#160019026B010000
(946688575.069994) can0 002#D5037E0A3E050000
(946688575.069994) can0 18FF1080#0000000000000000
(946688575.069994) can0 18FF1180#0000000000000000
(946688575.069994) can0 18FF1280#0000000000000000
(946688575.069994) can0 18FFE180#0000000000000000
(946688575.069994) can0 18FFE280#0000000000000000
(946688575.079994) can0 18FF1515#0000000345010045
(946688575.079994) can0 400#6161297928760000
(946688575.079994) can0 401#006C000000000000
(946688575.089994) can0 001#1600140268010000
(946688575.089994) can0 002#D503680A3E050000
(946688575.089994) can0 18FF01EA#0A6287A37E007D50
(946688575.089994) can0 18FF02EA#0A6287A37E007D50
(946688575.089994) can0 19B50001#8CA0960000000000
(946688575.089994) can0 19B50008#8286840000000000
(946688575.089994) can0 19B50100#9696969696969696
(946688575.089994) can0 19B50800#8484848484848484
(946688575.109994) can0 001#1600100265010000
(946688575.109994) can0 002#D503510A3E050000
(946688575.109994) can0 18FF1515#0000000345010045
(946688575.109994) can0 400#6261297929790000
(946688575.109994) can0 401#006D000000000000
(946688575.129994) can0 001#15000B0262010000
(946688575.129994) can0 002#D5033A0A3F050000
(946688575.139994) can0 18FF1515#0000000345010045
(946688575.139994) can0 400#6161287828800000
(946688575.139994) can0 401#016D000000000000
(946688575.149994) can0 001#150007025F010000
(946688575.149994) can0 002#D503230A3F050000
(946688575.169994) can0 001#150002025C010000
(946688575.169994) can0 002#D5030B0A40050000
(946688575.169994) can0 18FF1515#0000000345010045
(946688575.169994) can0 400#6061297C287A0000
(946688575.169994) can0 401#006C000000000000
(946688575.189994) can0 001#1400FD0159010000
(946688575.189994) can0 002#D503F40940050000
(946688575.199994) can0 18FF1515#0000000345010045
(946688575.199994) can0 400#60602977287C0000
(946688575.199994) can0 401#006D000000000000
(946688575.199994) can0 18FF01EA#0A6687A37E007D50
(946688575.199994) can0 18FF02EA#0A6687A37E007D50
(946688575.199994) can0 19B50001#8CA0960000000000
(946688575.199994) can0 19B50008#8286840000000000
(946688575.199994) can0 19B50100#9696969696969696
(946688575.199994) can0 19B50800#8484848484848484
(946688575.209994) can0 001#1400F90156010000
(946688575.209994) can0 002#D503DD0941050000
(946688575.229994) can0 001#1400F40153010000
(946688575.229994) can0 002#D503C50941050000
(946688575.229994) can0 18FF1515#0000000345010045
(946688575.229994) can0 400#6062287A2A7F0000
(946688575.229994) can0 401#006C000000000000
(946688575.249994) can0 001#1300EF0150010000
(946688575.249994) can0 002#D503AD0941050000
(946688575.259994) can0 18FF1515#0000000345010045
(946688575.259994) can0 400#6160297628780000
(946688575.259994) can0 401#016D000000000000
(946688575.269994) can0 001#1300EA014D010000
(946688575.269994) can0 002#D503950942050000
(946688575.289994) can0 001#1300E5014A010000
(946688575.289994) can0 002#D5037D0942050000
(946688575.289994) can0 18FF1515#0000000345010045
(946688575.289994) can0 400#5F62297B28800000
(946688575.289994) can0 401#006D000000000000
(946688575.309994) can0 001#1300E10146010000
(946688575.309994) can0 002#D503650943050000
(946688575.309994) can0 18FF01EA#0A6B87A37E007D50
(946688575.309994) can0 18FF02EA#0A6B87A37E007D50
(946688575.309994) can0 19B50001#8CA0960000000000
(946688575.309994) can0 19B50008#8286840000000000
(946688575.309994) can0 19B50100#9696969696969696
(946688575.309994) can0 19B50800#8484848484848484
(946688575.319994) can0 18FF1515#0000000345010045
(946688575.319994) can0 400#605F297A2A7A0000
(946688575.319994) can0 401#006D000000000000
(946688575.329994) can0 001#1200DC0143010000
(946688575.329994) can0 002#D5034C0943050000
(946688575.349994) can0 001#1200D70140010000
(946688575.349994) can0 002#D503340943050000
(946688575.349994) can0 18FF1515#0000000345010045
(946688575.349994) can0 400#6261297C287E0000
(946688575.349994) can0 401#006E000000000000
(946688575.369994) can0 001#1200D2013D010000
(946688575.369994) can0 002#D5031B0944050000
(946688575.379994) can0 18FF1515#0000000345010045
(946688575.379994) can0 400#5F602A7D287F0000
(946688575.379994) can0 401#006F000000000000
(946688575.389994) can0 001#1200CD0139010000
(946688575.389994) can0 002#D503020944050000
(946688575.409994) can0 001#1100C80136010000
(946688575.409994) can0 002#D503E90844050000
(946688575.409994) can0 18FF1515#0000000345010045
(946688575.409994) can0 400#6160297C287B0000
(946688575.409994) can0 401#006F000000000000
(946688575.419994) can0 18FF01EA#0A6F87A47E007D50
(946688575.419994) can0 18FF02EA#0A6F87A47E007D50
(946688575.419994) can0 19B50001#8CA0960000000000
(946688575.419994) can0 19B50008#8286840000000000
(946688575.419994) can0 19B50100#9696969696969696
(946688575.419994) can0 19B50800#8484848484848484
(946688575.429994) can0 001#1100C30133010000
(946688575.429994) can0 002#D503D00845050000
(946688575.439994) can0 18FF1515#0000000345010045
(946688575.439994) can0 400#5F6128772A800000
(946688575.439994) can0 401#016F000000000000
(946688575.449994) can0 001#1100BE012F010000
(946688575.449994) can0 002#D503B70845050000
(946688575.469994) can0 001#1100B9012C010000
(946688575.469994) can0 002#D5039E0845050000
(946688575.469994) can0 18FF1515#0000000345010045
(946688575.469994) can0 400#5F6128772A800000
(946688575.469994) can0 401#006F000000000000
(946688575.489994) can0 001#1000B40129010000
(946688575.489994) can0 002#D503840846050000
(946688575.499994) can0 18FF1515#0000000345010045
(946688575.499994) can0 400#625F297C287E0000
(946688575.499994) can0 401#0070000000000000
(946688575.509994) can0 001#1000AE0125010000
(946688575.509994) can0 002#D5036A0846050000
(946688575.529994) can0 001#1000A90122010000
(946688575.529994) can0 002#D503510846050000
(946688575.529994) can0 18FF1515#0000000345010045
(946688575.529994) can0 400#5F62287B29790000
(946688575.529994) can0 401#0171000000000000
(946688575.529994) can0 18FF01EA#0A7287A47E007D50
(946688575.529994) can0 18FF02EA#0A7287A47E007D50
(946688575.529994) can0 19B50001#8CA0960000000000
(946688575.529994) can0 19B50008#8286840000000000
(946688575.529994) can0 19B50100#9696969696969696
(946688575.529994) can0 19B50800#8484848484848484
(946688575.549994) can0 001#1000A4011E010000
(946688575.549994) can0 002#D503370847050000
(946688575.559994) can0 18FF1515#0000000345010045
(946688575.559994) can0 400#61612A7C297A0000
(946688575.559994) can0 401#0070000000000000
(946688575.569994) can0 001#0F009F011B010000
(946688575.569994) can0 002#D5031D0847050000
(946688575.589994) can0 001#0F009A0117010000
(946688575.589994) can0 002#D503030847050000
(946688575.589994) can0 18FF1515#0000000345010045
(946688575.589994) can0 400#6062297B297E0000
(946688575.589994) can0 401#0171000000000000
(946688575.609994) can0 001#0F00950114010000
(946688575.609994) can0 002#D503E90748050000
(946688575.619994) can0 18FF1515#0000000345010045
(946688575.619994) can0 400#6060297628780000
(946688575.619994) can0 401#0170000000000000
(946688575.629994) can0 001#0F008F0110010000
(946688575.629994) can0 002#D503CE0748050000
(946688575.639994) can0 18FF01EA#0A7687A47E007D50
(946688575.639994) can0 18FF02EA#0A7687A47E007D50
(946688575.639994) can0 19B50001#8CA0960000000000
(946688575.639994) can0 19B50008#8286840000000000
(946688575.639994) can0 19B50100#9696969696969696
(946688575.639994) can0 19B50800#8484848484848484
(946688575.649994) can0 001#0E008A010D010000
(946688575.649994) can0 002#D503B40748050000
(946688575.649994) can0 18FF1515#0000000345010045
(946688575.649994) can0 400#6261287828770000
(946688575.649994) can0 401#0072000000000000
(946688575.669994) can0 001#0E00850109010000
(946688575.669994) can0 002#D503990749050000
(946688575.679994) can0 18FF1515#0000000345010045
(946688575.679994) can0 400#6061297829770000
(946688575.679994) can0 401#0171000000000000
(946688575.679994) can0 18FF1080#0000000000000000
(946688575.679994) can0 18FF1180#0000000000000000
(946688575.679994) can0 18FF1280#0000000000000000
(946688575.679994) can0 18FFE180#0000000000000000
(946688575.679994) can0 18FFE280#0000000000000000
(946688575.689994) can0 001#0E007F0106010000
(946688575.689994) can0 002#D5037F0749050000
(946688575.709994) can0 001#0E007A0102010000
(946688575.709994) can0 002#D503640749050000
(946688575.709994) can0 18FF1515#0000000345010045
(946688575.709994) can0 400#6363287C29760000
(946688575.709994) can0 401#0071000000000000
(946688575.729994) can0 001#0E007501FE000000
(946688575.729994) can0 002#D503490749050000
(946688575.739994) can0 18FF1515#0000000345010045
(946688575.739994) can0 400#6262287C28790000
(946688575.739994) can0 401#0072000000000000
(946688575.749994) can0 001#0D006F01FB000000
(946688575.749994) can0 002#D5032E074A050000
(946688575.749994) can0 18FF01EA#0A7987A47E007D50
(946688575.749994) can0 18FF02EA#0A7987A47E007D50
(946688575.749994) can0 19B50001#8CA0960000000000
(946688575.749994) can0 19B50008#8286840000000000
(946688575.749994) can0 19B50100#9696969696969696
(946688575.749994) can0 19B50800#8484848484848484
(946688575.769994) can0 001#0D006A01F7000000
(946688575.769994) can0 002#D50313074A050000
(946688575.769994) can0 18FF1515#0000000345010045
(946688575.769994) can0 400#61602979287B0000
(946688575.769994) can0 401#0071000000000000
(946688575.789994) can0 001#0D006401F3000000
(946688575.789994) can0 002#D503F8064A050000
(946688575.799994) can0 18FF1515#0000000345010045
(946688575.799994) can0 400#6063297F297C0000
(946688575.799994) can0 401#0073000000000000
(946688575.809994) can0 001#0D005F01F0000000
(946688575.809994) can0 002#D503DC064B050000
(946688575.829993) can0 001#0D005901EC000000
(946688575.829993) can0 002#D503C1064B050000
(946688575.829993) can0 18FF1515#0000000345010045
(946688575.829993) can0 400#5F60287C287D0000
(946688575.829993) can0 401#0173000000000000
(946688575.849993) can0 001#0C005401E8000000
(946688575.849993) can0 002#D503A6064B050000
(946688575.859993) can0 18FF1515#0000000345010045
(946688575.859993) can0 400#6161297928780000
(946688575.859993) can0 401#0072000000000000
(946688575.859993) can0 18FF01EA#0A7C87A47E007D50
(946688575.859993) can0 18FF02EA#0A7C87A47E007D50
(946688575.859993) can0 19B50001#8CA0960000000000
(946688575.859993) can0 19B50008#8286840000000000
(946688575.859993) can0 19B50100#9696969696969696
(946688575.859993) can0 19B50800#8484848484848484
(946688575.869993) can0 001#0C004E01E5000000
(946688575.869993) can0 002#D5038A064B050000
(946688575.889993) can0 001#0C004901E1000000
(946688575.889993) can0 002#D5036E064C050000
(946688575.889993) can0 18FF1515#0000000345010045
(946688575.889993) can0 400#63632876287D0000
(946688575.889993) can0 401#0173000000000000
(946688575.909993) can0 001#0C004301DD000000
(946688575.909993) can0 002#D50353064C050000
(946688575.919993) can0 18FF1515#0000000345010045
(946688575.919993) can0 400#6063297D29780000
(946688575.919993) can0 401#0073000000000000
(946688575.929993) can0 001#0C003E01D9000000
(946688575.929993) can0 002#D50337064C050000
(946688575.949993) can0 001#0C003801D6000000
(946688575.949993) can0 002#D5031B064C050000
(946688575.949993) can0 18FF1515#0000000345010045
(946688575.949993) can0 400#60612980297D0000
(946688575.949993) can0 401#0173000000000000
(946688575.969993) can0 001#0B003301D2000000
(946688575.969993) can0 002#D503FF054D050000
(946688575.969993) can0 18FF01EA#0A7E87A47E007D50
(946688575.969993) can0 18FF02EA#0A7E87A47E007D50
(946688575.969993) can0 19B50001#8CA0960000000000
(946688575.969993) can0 19B50008#8286840000000000
(946688575.969993) can0 19B50100#9696969696969696
(946688575.969993) can0 19B50800#8484848484848484
(946688575.979993) can0 18FF1515#0000000345010045
(946688575.979993) can0 400#6362297E297C0000
(946688575.979993) can0 401#0074000000000000
(946688575.989993) can0 001#0B002D01CE000000
(946688575.989993) can0 002#D503E3054D050000
(946688576.009993) can0 001#0B002701CA000000
(946688576.009993) can0 002#D503C7054D050000
(946688576.009993) can0 18FF1515#0000000345010045
(946688576.009993) can0 400#61632A7C28770000
(946688576.009993) can0 401#0075000000000000
(946688576.029993) can0 001#0B002201C6000000
(946688576.029993) can0 002#D503AB054D050000
(946688576.039993) can0 18FF1515#0000000345010045
(946688576.039993) can0 400#61622A7F2A770000
(946688576.039993) can0 401#0174000000000000
(946688576.049993) can0 001#0B001C01C2000000
(946688576.049993) can0 002#D5038E054D050000
(946688576.069993) can0 001#0B001601BF000000
(946688576.069993) can0 002#D50372054E050000
(946688576.069993) can0 18FF1515#0000000345010045
(946688576.069993) can0 400#6262287E297A0000
(946688576.069993) can0 401#0175000000000000
(946688576.079993) can0 18FF01EA#0A8187A47E007D50
(946688576.079993) can0 18FF02EA#0A8187A47E007D50
