(946688569.010000) can0 18FF01EA#0200030002000300
(946688569.010000) can0 18FF02EA#0200FCFF0200FCFF
(946688569.020000) can0 18FF01EA#0400060004000600
(946688569.020000) can0 18FF02EA#0600000006000000
(946688569.020000) can0 18FF1085#0000000303010003
(946688569.020000) can0 400#0100276528610000
(946688569.020000) can0 401#007E000000000000
(946688569.040000) can0 18FF01EA#0700030007000300
(946688569.040000) can0 18FF02EA#0A00FDFF0A00FDFF
(946688569.040000) can0 18FF1085#0000000307010007
(946688569.040000) can0 400#0101276127670000
(946688569.040000) can0 401#007F000000000000
(946688569.050000) can0 18FF01EA#0A00FFFF0A00FFFF
(946688569.050000) can0 18FF02EA#0C0009000C000900
(946688569.060000) can0 18FF01EA#0D0019000D001900
(946688569.060000) can0 18FF02EA#0C000A000C000A00
(946688569.060000) can0 18FF1085#000000030A01000A
(946688569.060000) can0 400#00012863275F0000
(946688569.060000) can0 401#007E000000000000
(946688569.070000) can0 18FF01EA#0F000E000F000E00
(946688569.070000) can0 18FF02EA#0F00FFFF0F00FFFF
(946688569.090000) can0 18FF01EA#0F0012000F001200
(946688569.090000) can0 18FF02EA#1200FBFF1200FBFF
(946688569.090000) can0 18FF1085#000000030E01000E
(946688569.090000) can0 400#0000286127660000
(946688569.090000) can0 401#007E000000000000
(946688569.110000) can0 18FF01EA#12001F0012001F00
(946688569.110000) can0 18FF02EA#1600180016001800
(946688569.110000) can0 19B30007#00005E20AC800000
(946688569.110000) can0 19B30100#D7D7D7D7D7D7D7D7
(946688569.120000) can0 18FF1085#0000000312010012
(946688569.120000) can0 400#0100276227610000
(946688569.120000) can0 401#007E000000000000
(946688569.130000) can0 18FF01EA#1800110018001100
(946688569.130000) can0 18FF02EA#18001E0018001E00
(946688569.140000) can0 18FF01EA#1600190016001900
(946688569.140000) can0 18FF02EA#1900150019001500
(946688569.140000) can0 18FF1085#0000000314010014
(946688569.140000) can0 400#0100286727640000
(946688569.140000) can0 401#007E000000000000
(946688569.150000) can0 18FF01EA#1900190019001900
(946688569.150000) can0 18FF02EA#1800230018002300
(946688569.160000) can0 18FF01EA#1A0020001A002000
(946688569.160000) can0 18FF02EA#1900150019001500
(946688569.160000) can0 18FF1085#0000000316010016
(946688569.160000) can0 400#0301286128660000
(946688569.160000) can0 401#007E000000000000
(946688569.170000) can0 18FF01EA#1D0015001D001500
(946688569.170000) can0 18FF02EA#1B001C001B001C00
(946688569.180000) can0 18FF01EA#1C002A001C002A00
(946688569.180000) can0 18FF02EA#1E001C001E001C00
(946688569.180000) can0 18FF1085#0000000318010018
(946688569.180000) can0 400#0201286927610000
(946688569.180000) can0 401#007E000000000000
(946688569.190000) can0 18FF01EA#1F001C001F001C00
(946688569.190000) can0 18FF02EA#1D0024001D002400
(946688569.200000) can0 18FF01EA#1D003A001D003A00
(946688569.200000) can0 18FF02EA#1F0037001F003700
(946688569.200000) can0 18FF1085#0000000319010019
(946688569.200000) can0 400#0201286027650000
(946688569.200000) can0 401#007E000000000000
(946688569.210000) can0 18FF01EA#20003F0020003F00
(946688569.210000) can0 18FF02EA#1E0028001E002800
(946688569.210000) can0 19B30007#00005E20AC800000
(946688569.210000) can0 19B30100#D7D7D7D7D7D7D7D7
(946688569.220000) can0 18FF01EA#1F0049001F004900
(946688569.220000) can0 18FF02EA#20002C0020002C00
(946688569.220000) can0 18FF1085#000000031B01001B
(946688569.220000) can0 400#0300286728680000
(946688569.220000) can0 401#007E000000000000
(946688569.230000) can0 18FF01EA#1F0033001F003300
(946688569.230000) can0 18FF02EA#21003A0021003A00
(946688569.240000) can0 18FF01EA#2300400023004000
(946688569.240000) can0 18FF02EA#2100500021005000
(946688569.240000) can0 18FF1085#000000031C01001C
(946688569.240000) can0 400#0200276328660000
(946688569.240000) can0 401#007F000000000000
(946688569.260000) can0 18FF01EA#2200570022005700
(946688569.260000) can0 18FF02EA#23003D0023003D00
(946688569.270000) can0 18FF01EA#25004E0025004E00
(946688569.270000) can0 18FF02EA#23004E0023004E00
(946688569.270000) can0 18FF1085#000000031D01001D
(946688569.270000) can0 400#0404276028640000
(946688569.270000) can0 401#017E000000000000
(946688569.280000) can0 18FF01EA#2500680025006800
(946688569.280000) can0 18FF02EA#2600570026005700
(946688569.290000) can0 18FF01EA#2500510025005100
(946688569.290000) can0 18FF02EA#2600560026005600
(946688569.290000) can0 18FF1085#000000031E01001E
(946688569.290000) can0 400#0504286927650000
(946688569.290000) can0 401#017E000000000000
(946688569.300000) can0 18FF01EA#2600680026006800
(946688569.300000) can0 18FF02EA#2400710024007100
(946688569.310000) can0 18FF01EA#2400630024006300
(946688569.310000) can0 18FF02EA#25006D0025006D00
(946688569.310000) can0 18FF1085#000000031F01001F
(946688569.310000) can0 400#0404276328630000
(946688569.310000) can0 401#007F000000000000
(946688569.310000) can0 19B30007#00005E20AC810000
(946688569.310000) can0 19B30100#D7D7D7D7D7D7D7D7
(946688569.320000) can0 18FF01EA#2600790026007900
(946688569.320000) can0 18FF02EA#2800690028006900
(946688569.330000) can0 18FF01EA#29006D0029006D00
(946688569.330000) can0 18FF02EA#26007B0026007B00
(946688569.330000) can0 18FF1085#0000000320010020
(946688569.330000) can0 400#0303286528640000
(946688569.330000) can0 401#007F000000000000
(946688569.340000) can0 18FF01EA#26006F0026006F00
(946688569.340000) can0 18FF02EA#2900750029007500
(946688569.350000) can0 18FF01EA#26007E0026007E00
(946688569.350000) can0 18FF02EA#28008C0028008C00
(946688569.350000) can0 18FF1085#0000000321010021
(946688569.350000) can0 400#0205286128670000
(946688569.350000) can0 401#007F000000000000
(946688569.360000) can0 18FF01EA#2600860026008600
(946688569.360000) can0 18FF02EA#2800810028008100
(946688569.370000) can0 18FF01EA#2900930029009300
(946688569.370000) can0 18FF02EA#2800710028007100
(946688569.370000) can0 18FF1085#0000000322010022
(946688569.370000) can0 400#0603286628600000
(946688569.370000) can0 401#007E000000000000
(946688569.380000) can0 18FF01EA#28008E0028008E00
(946688569.380000) can0 18FF02EA#2800890028008900
(946688569.390000) can0 18FF01EA#28009C0028009C00
(946688569.390000) can0 18FF02EA#2700A2002700A200
(946688569.390000) can0 18FF1085#0000000322010022
(946688569.390000) can0 400#03052865276A0000
(946688569.390000) can0 401#007E000000000000
(946688569.400000) can0 18FF01EA#2A009F002A009F00
(946688569.400000) can0 18FF02EA#29009C0029009C00
(946688569.410000) can0 18FF01EA#2B0088002B008800
(946688569.410000) can0 18FF02EA#2B00A8002B00A800
(946688569.410000) can0 18FF1085#0000000323010023
(946688569.410000) can0 400#0405286327680000
(946688569.410000) can0 401#007F000000000000
(946688569.410000) can0 19B30007#00005E20AC820000
(946688569.410000) can0 19B30100#D7D7D7D7D7D7D7D7
(946688569.420000) can0 18FF01EA#2A00AE002A00AE00
(946688569.420000) can0 18FF02EA#2A008D002A008D00
(946688569.430000) can0 18FF01EA#2C0097002C009700
(946688569.430000) can0 18FF02EA#29009D0029009D00
(946688569.430000) can0 18FF1085#0000000323010023
(946688569.430000) can0 400#0405286927640000
(946688569.430000) can0 401#007E000000000000
(946688569.440000) can0 18FF01EA#29009A0029009A00
(946688569.440000) can0 18FF02EA#2900A6002900A600
(946688569.450000) can0 18FF01EA#2A00A5002A00A500
(946688569.450000) can0 18FF02EA#2B00A4002B00A400
(946688569.450000) can0 18FF1085#0000000324010024
(946688569.450000) can0 400#0705286728660000
(946688569.450000) can0 401#017F000000000000
(946688569.460000) can0 18FF01EA#2B00B3002B00B300
(946688569.460000) can0 18FF02EA#2B00A2002B00A200
(946688569.470000) can0 18FF01EA#2900C2002900C200
(946688569.470000) can0 18FF02EA#2A00C5002A00C500
(946688569.470000) can0 18FF1085#0000000324010024
(946688569.470000) can0 400#0508276328630000
(946688569.470000) can0 401#017F000000000000
(946688569.480000) can0 18FF01EA#2A00BF002A00BF00
(946688569.480000) can0 18FF02EA#2B00C5002B00C500
(946688569.490000) can0 18FF01EA#2C00C1002C00C100
(946688569.490000) can0 18FF02EA#2B00CE002B00CE00
(946688569.490000) can0 18FF1085#0000000324010024
(946688569.490000) can0 400#0807286628630000
(946688569.490000) can0 401#017F000000000000
(946688569.510000) can0 18FF01EA#2C00CB002C00CB00
(946688569.510000) can0 18FF02EA#2C00D4002C00D400
(946688569.510000) can0 19B30007#00005E20AC840000
(946688569.510000) can0 19B30100#D7D7D7D7D7D7D7D7
(946688569.520000) can0 18FF01EA#2C00DD002C00DD00
(946688569.520000) can0 18FF02EA#2C00D6002C00D600
(946688569.520000) can0 18FF1085#0000000325010025
(946688569.520000) can0 400#0808286A286A0000
(946688569.520000) can0 401#017E000000000000
(946688569.529999) can0 18FF01EA#2E00D8002E00D800
(946688569.529999) can0 18FF02EA#2E00EF002E00EF00
(946688569.539999) can0 18FF01EA#2B00F3002B00F300
(946688569.539999) can0 18FF02EA#2D00F0002D00F000
(946688569.539999) can0 18FF1085#0000000325010025
(946688569.539999) can0 400#0809276628690000
(946688569.539999) can0 401#007F000000000000
(946688569.549999) can0 18FF01EA#2D00DB002D00DB00
(946688569.549999) can0 18FF02EA#2B00E8002B00E800
(946688569.559999) can0 18FF01EA#2E00DB002E00DB00
(946688569.559999) can0 18FF02EA#2D00EE002D00EE00
(946688569.559999) can0 18FF1085#0000000325010025
(946688569.559999) can0 400#0909276528690000
(946688569.559999) can0 401#007F000000000000
(946688569.569999) can0 18FF01EA#2D00FA002D00FA00
(946688569.569999) can0 18FF02EA#2E00F2002E00F200
(946688569.579999) can0 18FF01EA#2C00F4002C00F400
(946688569.579999) can0 18FF02EA#2F00FB002F00FB00
(946688569.579999) can0 18FF1085#0000000325010025
(946688569.579999) can0 400#0708286428640000
(946688569.579999) can0 401#007F000000000000
(946688569.589999) can0 18FF01EA#2D0000012D000001
(946688569.589999) can0 18FF02EA#2E0013012E001301
(946688569.599999) can0 18FF01EA#2C000A012C000A01
(946688569.599999) can0 18FF02EA#2D000C012D000C01
(946688569.599999) can0 18FF1085#0000000326010026
(946688569.599999) can0 400#0A0B286427610000
(946688569.599999) can0 401#017E000000000000
(946688569.609999) can0 18FF01EA#2F0013012F001301
(946688569.609999) can0 18FF02EA#2F0013012F001301
(946688569.609999) can0 19B30007#00005E20AC850000
(946688569.609999) can0 19B30100#D7D7D7D7D7D7D7D7
(946688569.619999) can0 18FF01EA#2E0018012E001801
(946688569.619999) can0 18FF02EA#2D0013012D001301
(946688569.619999) can0 18FF1085#0000000326010026
(946688569.619999) can0 400#08092767276A0000
(946688569.619999) can0 401#017F000000000000
(946688569.629999) can0 18FF01EA#2C0023012C002301
(946688569.629999) can0 18FF02EA#2F0004012F000401
(946688569.639999) can0 18FF01EA#2D0011012D001101
(946688569.639999) can0 18FF02EA#2D002C012D002C01
(946688569.639999) can0 18FF1085#0000000326010026
(946688569.639999) can0 400#090B286228670000
(946688569.639999) can0 401#007F000000000000
(946688569.649999) can0 18FF01EA#2E002E012E002E01
(946688569.649999) can0 18FF02EA#2D002C012D002C01
(946688569.659999) can0 18FF01EA#2D0037012D003701
(946688569.659999) can0 18FF02EA#2F002F012F002F01
(946688569.659999) can0 18FF1085#0000000326010026
(946688569.659999) can0 400#0B09276627620000
(946688569.659999) can0 401#007E000000000000
(946688569.669999) can0 18FF01EA#3000250130002501
(946688569.669999) can0 18FF02EA#2F002E012F002E01
(946688569.679999) can0 18FF01EA#2E0038012E003801
(946688569.679999) can0 18FF02EA#2D0035012D003501
(946688569.679999) can0 18FF1085#0000000326010026
(946688569.679999) can0 400#0B0B276327620000
(946688569.679999) can0 401#007E000000000000
(946688569.689999) can0 18FF01EA#3000410130004101
(946688569.689999) can0 18FF02EA#2F0035012F003501
(946688569.699999) can0 18FF01EA#2C0052012C005201
(946688569.699999) can0 18FF02EA#2E004A012E004A01
(946688569.699999) can0 18FF1085#0000000326010026
(946688569.699999) can0 400#090C276B28660000
(946688569.699999) can0 401#007E000000000000
(946688569.709999) can0 18FF01EA#2D0043012D004301
(946688569.709999) can0 18FF02EA#2E003F012E003F01
(946688569.709999) can0 19B30007#00005E20AC860000
(946688569.709999) can0 19B30100#D7D7D7D7D7D7D7D7
(946688569.719999) can0 18FF01EA#2D004C012D004C01
(946688569.719999) can0 18FF02EA#2E003D012E003D01
(946688569.719999) can0 18FF1085#0000000327010027
(946688569.719999) can0 400#0A0A276B286A0000
(946688569.719999) can0 401#017F000000000000
(946688569.729999) can0 18FF01EA#2E0052012E005201
(946688569.729999) can0 18FF02EA#2F0048012F004801
(946688569.739999) can0 18FF01EA#2E006B012E006B01
(946688569.739999) can0 18FF02EA#2F0052012F005201
(946688569.739999) can0 18FF1085#0000000327010027
(946688569.739999) can0 400#0A0B286A27690000
(946688569.739999) can0 401#007E000000000000
(946688569.749999) can0 18FF01EA#2F0072012F007201
(946688569.749999) can0 18FF02EA#2E0053012E005301
(946688569.759999) can0 18FF01EA#2E005C012E005C01
(946688569.759999) can0 18FF02EA#2E0078012E007801
(946688569.759999) can0 18FF1085#0000000327010027
(946688569.759999) can0 400#0B0C276B27690000
(946688569.759999) can0 401#017F000000000000
(946688569.769999) can0 18FF01EA#3000680130006801
(946688569.769999) can0 18FF02EA#2F0064012F006401
(946688569.779999) can0 18FF01EA#2E0061012E006101
(946688569.779999) can0 18FF02EA#31006B0131006B01
(946688569.779999) can0 18FF1085#0000000327010027
(946688569.779999) can0 400#0E0D2762286B0000
(946688569.779999) can0 401#017E000000000000
(946688569.789999) can0 18FF01EA#2D006E012D006E01
(946688569.789999) can0 18FF02EA#3000840130008401
(946688569.799999) can0 18FF01EA#30008C0130008C01
(946688569.799999) can0 18FF02EA#2F0085012F008501
(946688569.799999) can0 18FF1085#0000000327010027
(946688569.799999) can0 400#0E0F276728690000
(946688569.799999) can0 401#017F000000000000
(946688569.809999) can0 18FF01EA#2E008A012E008A01
(946688569.809999) can0 18FF02EA#2F0072012F007201
(946688569.809999) can0 19B30007#00005E20AC880000
(946688569.809999) can0 19B30100#D7D7D7D7D7D7D7D7
(946688569.819999) can0 18FF01EA#2F0093012F009301
(946688569.819999) can0 18FF02EA#2D0080012D008001
(946688569.819999) can0 18FF1085#0000000327010027
(946688569.819999) can0 400#0C0D296227650000
(946688569.819999) can0 401#007F000000000000
(946688569.829999) can0 18FF01EA#2F00A2012F00A201
(946688569.829999) can0 18FF02EA#2F0097012F009701
(946688569.839999) can0 18FF01EA#2E008D012E008D01
(946688569.839999) can0 18FF02EA#3000810130008101
(946688569.839999) can0 18FF1085#0000000327010027
(946688569.839999) can0 400#100F286227660000
(946688569.839999) can0 401#007E000000000000
(946688569.849999) can0 18FF01EA#31009D0131009D01
(946688569.849999) can0 18FF02EA#30008D0130008D01
(946688569.859999) can0 18FF01EA#2F009D012F009D01
(946688569.859999) can0 18FF02EA#3000900130009001
(946688569.859999) can0 18FF1085#0000000327010027
(946688569.859999) can0 400#100E276528660000
(946688569.859999) can0 401#017F000000000000
(946688569.869999) can0 18FF01EA#2D00B1012D00B101
(946688569.869999) can0 18FF02EA#3100B9013100B901
(946688569.879999) can0 18FF01EA#30009A0130009A01
(946688569.879999) can0 18FF02EA#3000A7013000A701
(946688569.879999) can0 18FF1085#0000000327010027
(946688569.879999) can0 400#0E0F2863276B0000
(946688569.879999) can0 401#017E000000000000
(946688569.889999) can0 18FF01EA#2E00BB012E00BB01
(946688569.889999) can0 18FF02EA#2E00AA012E00AA01
(946688569.899999) can0 18FF01EA#2D00C6012D00C601
(946688569.899999) can0 18FF02EA#3000BA013000BA01
(946688569.899999) can0 18FF1085#0000000327010027
(946688569.899999) can0 400#0F11276528680000
(946688569.899999) can0 401#007F000000000000
(946688569.909999) can0 18FF01EA#3100B4013100B401
(946688569.909999) can0 18FF02EA#3000B5013000B501
(946688569.909999) can0 19B30007#00005E20AC890000
(946688569.909999) can0 19B30100#D7D7D7D7D7D7D7D7
(946688569.919999) can0 18FF01EA#3000CB013000CB01
(946688569.919999) can0 18FF02EA#2F00BA012F00BA01
(946688569.919999) can0 18FF1085#0000000327010027
(946688569.919999) can0 400#1212276327660000
(946688569.919999) can0 401#007F000000000000
(946688569.929999) can0 18FF01EA#3100BF013100BF01
(946688569.929999) can0 18FF02EA#2E00DA012E00DA01
(946688569.939999) can0 18FF01EA#3100D6013100D601
(946688569.939999) can0 18FF02EA#2F00CB012F00CB01
(946688569.939999) can0 18FF1085#0000000327010027
(946688569.939999) can0 400#1110276827640000
(946688569.939999) can0 401#007E000000000000
(946688569.949999) can0 18FF01EA#2E00C2012E00C201
(946688569.949999) can0 18FF02EA#2D00E3012D00E301
(946688569.959999) can0 18FF01EA#3000D9013000D901
(946688569.959999) can0 18FF02EA#3100E7013100E701
(946688569.959999) can0 18FF1085#0000000327010027
(946688569.959999) can0 400#12122865286C0000
(946688569.959999) can0 401#007F000000000000
(946688569.969999) can0 18FF01EA#2E00D5012E00D501
(946688569.969999) can0 18FF02EA#3100DF013100DF01
(946688569.979999) can0 18FF01EA#2D00DD012D00DD01
(946688569.979999) can0 18FF02EA#3000DF013000DF01
(946688569.979999) can0 18FF1085#0000000327010027
(946688569.979999) can0 400#1013276B276B0000
(946688569.979999) can0 401#017E000000000000
(946688569.989999) can0 18FF01EA#2E00F2012E00F201
(946688569.989999) can0 18FF02EA#2E00FD012E00FD01
(946688569.999999) can0 18FF01EA#2E00F1012E00F101
(946688569.999999) can0 18FF02EA#2E00EF012E00EF01
(946688569.999999) can0 18FF1085#0000000327010027
(946688569.999999) can0 400#1312276B28640000
(946688569.999999) can0 401#017E000000000000
(946688570.009999) can0 18FF01EA#3100F1013100F101
(946688570.009999) can0 18FF02EA#3100FA013100FA01
(946688570.009999) can0 19B30007#00005E20AC8A0000
(946688570.009999) can0 19B30100#D7D7D7D7D7D7D7D7
(946688570.019999) can0 18FF01EA#3000FE013000FE01
(946688570.019999) can0 18FF02EA#3000010230000102
(946688570.019999) can0 18FF1085#0000000327010027
(946688570.019999) can0 400#1211276A28680000
(946688570.019999) can0 401#007E000000000000
(946688570.029999) can0 18FF01EA#2F000A022F000A02
(946688570.029999) can0 18FF02EA#31000F0231000F02
(946688570.039999) can0 18FF01EA#2F0012022F001202
(946688570.039999) can0 18FF02EA#3000110230001102
(946688570.039999) can0 18FF1085#0000000327010027
(946688570.039999) can0 400#11122866276C0000
(946688570.039999) can0 401#007F000000000000
(946688570.049999) can0 18FF01EA#3000FB013000FB01
(946688570.049999) can0 18FF02EA#3100FC013100FC01
(946688570.059999) can0 18FF01EA#3100060231000602
(946688570.059999) can0 18FF02EA#3100230231002302
(946688570.059999) can0 18FF1085#0000000327010027
(946688570.059999) can0 400#1312276428690000
(946688570.059999) can0 401#007E000000000000
(946688570.069999) can0 18FF01EA#2F0011022F001102
(946688570.069999) can0 18FF02EA#2E0011022E001102
(946688570.079999) can0 18FF01EA#2D0029022D002902
(946688570.079999) can0 18FF02EA#3000250230002502
(946688570.079999) can0 18FF1085#0000000327010027
(946688570.079999) can0 400#1415286B27670000
(946688570.079999) can0 401#007F000000000000
(946688570.089999) can0 18FF01EA#3100200231002002
(946688570.089999) can0 18FF02EA#2F0013022F001302
(946688570.099999) can0 18FF01EA#2F002D022F002D02
(946688570.099999) can0 18FF02EA#30001C0230001C02
(946688570.099999) can0 18FF1085#0000000327010027
(946688570.099999) can0 400#1414286928660000
(946688570.099999) can0 401#007E000000000000
(946688570.109999) can0 18FF01EA#31002C0231002C02
(946688570.109999) can0 18FF02EA#3100390231003902
(946688570.109999) can0 19B30007#00005E20AC8B0000
(946688570.109999) can0 19B30100#D7D7D7D7D7D7D7D7
(946688570.119999) can0 18FF01EA#2E0026022E002602
(946688570.119999) can0 18FF02EA#3000430230004302
(946688570.119999) can0 18FF1085#0000000327010027
(946688570.119999) can0 400#1516286627650000
(946688570.119999) can0 401#017F000000000000
(946688570.129999) can0 18FF01EA#3000330230003302
(946688570.129999) can0 18FF02EA#3000430230004302
(946688570.139999) can0 18FF01EA#30003D0230003D02
(946688570.139999) can0 18FF02EA#2E0053022E005302
(946688570.139999) can0 18FF1085#0000000327010027
(946688570.139999) can0 400#1613276428690000
(946688570.139999) can0 401#017F000000000000
(946688570.149999) can0 18FF01EA#3000460230004602
(946688570.149999) can0 18FF02EA#3100350231003502
(946688570.159999) can0 18FF01EA#30003F0230003F02
(946688570.159999) can0 18FF02EA#3000430230004302
(946688570.159999) can0 18FF1085#0000000327010027
(946688570.159999) can0 400#1415286D28670000
(946688570.159999) can0 401#017E000000000000
(946688570.169999) can0 18FF01EA#3100550231005502
(946688570.169999) can0 18FF02EA#2E0054022E005402
(946688570.179999) can0 18FF01EA#2F0048022F004802
(946688570.179999) can0 18FF02EA#3000490230004902
(946688570.179999) can0 18FF1085#0000000327010027
(946688570.179999) can0 400#15142866286D0000
(946688570.179999) can0 401#007E000000000000
(946688570.189999) can0 18FF01EA#30004B0230004B02
(946688570.189999) can0 18FF02EA#3000650230006502
(946688570.199999) can0 18FF01EA#3000560230005602
(946688570.199999) can0 18FF02EA#2E0076022E007602
(946688570.199999) can0 18FF1085#0000000327010027
(946688570.199999) can0 400#1814286B286C0000
(946688570.199999) can0 401#007E000000000000
(946688570.209999) can0 18FF01EA#2F005E022F005E02
(946688570.209999) can0 18FF02EA#2F0059022F005902
(946688570.209999) can0 19B30007#00005E20AC8D0000
(946688570.209999) can0 19B30100#D7D7D7D7D7D7D7D7
(946688570.219999) can0 18FF01EA#2D007A022D007A02
(946688570.219999) can0 18FF02EA#2E0081022E008102
(946688570.219999) can0 18FF1085#0000000327010027
(946688570.219999) can0 400#1816286B27660000
(946688570.219999) can0 401#017E000000000000
(946688570.229999) can0 18FF01EA#2F0073022F007302
(946688570.229999) can0 18FF02EA#30006C0230006C02
(946688570.239999) can0 18FF01EA#3000720230007202
(946688570.239999) can0 18FF02EA#2E0069022E006902
(946688570.239999) can0 18FF1085#0000000327010027
(946688570.239999) can0 400#1515276A28680000
(946688570.239999) can0 401#007F000000000000
(946688570.249999) can0 18FF01EA#2F008E022F008E02
(946688570.249999) can0 18FF02EA#2E0088022E008802
(946688570.259999) can0 18FF01EA#2F0077022F007702
(946688570.259999) can0 18FF02EA#3000980230009802
(946688570.259999) can0 18FF1085#0000000327010027
(946688570.259999) can0 400#1815276E27640000
(946688570.259999) can0 401#017F000000000000
(946688570.269999) can0 18FF01EA#30008F0230008F02
(946688570.269999) can0 18FF02EA#31009D0231009D02
(946688570.279999) can0 18FF01EA#2F009D022F009D02
(946688570.279999) can0 18FF02EA#2F009D022F009D02
(946688570.279999) can0 18FF1085#0000000327010027
(946688570.279999) can0 400#1716276C28670000
(946688570.279999) can0 401#017E000000000000
(946688570.289999) can0 18FF01EA#2D008E022D008E02
(946688570.289999) can0 18FF02EA#30008E0230008E02
(946688570.299999) can0 18FF01EA#3000AB023000AB02
(946688570.299999) can0 18FF02EA#2E009C022E009C02
(946688570.299999) can0 18FF1085#0000000327010027
(946688570.299999) can0 400#1619286E276C0000
(946688570.299999) can0 401#007F000000000000
(946688570.309999) can0 18FF01EA#2F00A9022F00A902
(946688570.309999) can0 18FF02EA#2F00A9022F00A902
(946688570.309999) can0 19B30007#00005E20AC8E0000
(946688570.309999) can0 19B30100#D7D7D7D7D7D7D7D7
(946688570.319999) can0 18FF01EA#31009F0231009F02
(946688570.319999) can0 18FF02EA#3100B1023100B102
(946688570.319999) can0 18FF1085#0000000327010027
(946688570.319999) can0 400#1616286D27690000
(946688570.319999) can0 401#007E000000000000
(946688570.329999) can0 18FF01EA#2F0097022F009702
(946688570.329999) can0 18FF02EA#2F009A022F009A02
(946688570.339999) can0 18FF01EA#2F00BC022F00BC02
(946688570.339999) can0 18FF02EA#31009C0231009C02
(946688570.339999) can0 18FF1085#0000000327010027
(946688570.339999) can0 400#1A18276927680000
(946688570.339999) can0 401#007E000000000000
(946688570.349999) can0 18FF01EA#2D00A9022D00A902
(946688570.349999) can0 18FF02EA#2E00C6022E00C602
(946688570.359999) can0 18FF01EA#3000AC023000AC02
(946688570.359999) can0 18FF02EA#3100A8023100A802
(946688570.359999) can0 18FF1085#0000000327010027
(946688570.359999) can0 400#191A2867286C0000
(946688570.359999) can0 401#007E000000000000
(946688570.369999) can0 18FF01EA#3100AF023100AF02
(946688570.369999) can0 18FF02EA#3000BC023000BC02
(946688570.379999) can0 18FF01EA#3100D0023100D002
(946688570.379999) can0 18FF02EA#3100CC023100CC02
(946688570.379999) can0 18FF1085#0000000327010027
(946688570.379999) can0 400#1A1B276D286D0000
(946688570.379999) can0 401#017F000000000000
(946688570.389999) can0 18FF01EA#2F00BB022F00BB02
(946688570.389999) can0 18FF02EA#2E00C7022E00C702
(946688570.399999) can0 18FF01EA#2F00CE022F00CE02
(946688570.399999) can0 18FF02EA#2F00C1022F00C102
(946688570.399999) can0 18FF1085#0000000327010027
(946688570.399999) can0 400#1B19276E286C0000
(946688570.399999) can0 401#007E000000000000
(946688570.409999) can0 18FF01EA#3100C6023100C602
(946688570.409999) can0 18FF02EA#2E00E2022E00E202
(946688570.409999) can0 19B30007#00005E20AC8F0000
(946688570.409999) can0 19B30100#D7D7D7D7D7D7D7D7
(946688570.419999) can0 18FF01EA#3100CA023100CA02
(946688570.419999) can0 18FF02EA#2E00ED022E00ED02
(946688570.419999) can0 18FF1085#0000000327010027
(946688570.419999) can0 400#1B19276B27690000
(946688570.419999) can0 401#007F000000000000
(946688570.429999) can0 18FF01EA#2F00DF022F00DF02
(946688570.429999) can0 18FF02EA#2F00E7022F00E702
(946688570.439999) can0 18FF01EA#3100EC023100EC02
(946688570.439999) can0 18FF02EA#2E00E2022E00E202
(946688570.439999) can0 18FF1085#0000000327010027
(946688570.439999) can0 400#1C1C286B276D0000
(946688570.439999) can0 401#007F000000000000
(946688570.449999) can0 18FF01EA#3000F3023000F302
(946688570.449999) can0 18FF02EA#2E00E1022E00E102
(946688570.459999) can0 18FF01EA#2E00F6022E00F602
(946688570.459999) can0 18FF02EA#2F00DE022F00DE02
(946688570.459999) can0 18FF1085#0000000327010027
(946688570.459999) can0 400#1C19286D286C0000
(946688570.459999) can0 401#007E000000000000
(946688570.469999) can0 18FF01EA#2E00E3022E00E302
(946688570.469999) can0 18FF02EA#3100EA023100EA02
(946688570.479999) can0 18FF01EA#2F00EA022F00EA02
(946688570.479999) can0 18FF02EA#3000E9023000E902
(946688570.479999) can0 18FF1085#0000000327010027
(946688570.479999) can0 400#1B1B276927670000
(946688570.479999) can0 401#007E000000000000
(946688570.489999) can0 18FF01EA#2F0013032F001303
(946688570.489999) can0 18FF02EA#2F00EF022F00EF02
(946688570.499999) can0 18FF01EA#3100020331000203
(946688570.499999) can0 18FF02EA#3000000330000003
(946688570.499999) can0 18FF1085#0000000327010027
(946688570.499999) can0 400#1A1B276928680000
(946688570.499999) can0 401#007E000000000000
(946688570.509999) can0 18FF01EA#2F0003032F000303
(946688570.509999) can0 18FF02EA#3000160330001603
(946688570.509999) can0 19B30007#00005E20AC900000
(946688570.509999) can0 19B30100#D7D7D7D7D7D7D7D7
(946688570.519999) can0 18FF01EA#2F0007032F000703
(946688570.519999) can0 18FF02EA#30000E0330000E03
(946688570.519999) can0 18FF1085#0000000327010027
(946688570.519999) can0 400#1D1A286C286B0000
(946688570.519999) can0 401#007F000000000000
(946688570.529999) can0 18FF01EA#2F001C032F001C03
(946688570.529999) can0 18FF02EA#2E0020032E002003
(946688570.539999) can0 18FF01EA#2F001F032F001F03
(946688570.539999) can0 18FF02EA#3000100330001003
(946688570.539999) can0 18FF1085#0000000327010027
(946688570.539999) can0 400#1D1D286E286A0000
(946688570.539999) can0 401#007F000000000000
(946688570.549999) can0 18FF01EA#2E0031032E003103
(946688570.549999) can0 18FF02EA#2F0019032F001903
(946688570.559999) can0 18FF01EA#2F0026032F002603
(946688570.559999) can0 18FF02EA#3100330331003303
(946688570.559999) can0 18FF1085#0000000327010027
(946688570.559999) can0 400#1D1D286A286F0000
(946688570.559999) can0 401#007F000000000000
(946688570.569999) can0 18FF01EA#2E0019032E001903
(946688570.569999) can0 18FF02EA#30003A0330003A03
(946688570.579998) can0 18FF01EA#2E003D032E003D03
(946688570.579998) can0 18FF02EA#30002B0330002B03
(946688570.579998) can0 18FF1085#0000000327010027
(946688570.579998) can0 400#1C1B286D28670000
(946688570.579998) can0 401#007E000000000000
(946688570.589998) can0 18FF01EA#2E002F032E002F03
(946688570.589998) can0 18FF02EA#31002E0331002E03
(946688570.599998) can0 18FF01EA#31002B0331002B03
(946688570.599998) can0 18FF02EA#2F0040032F004003
(946688570.599998) can0 18FF1085#0000000327010027
(946688570.599998) can0 400#1F1E276B27680000
(946688570.599998) can0 401#007E000000000000
(946688570.609998) can0 18FF01EA#2E0040032E004003
(946688570.609998) can0 18FF02EA#2F0048032F004803
(946688570.609998) can0 19B30007#00005E20AC910000
(946688570.609998) can0 19B30100#D7D7D7D7D7D7D7D7
(946688570.619998) can0 18FF01EA#2E0036032E003603
(946688570.619998) can0 18FF02EA#3100410331004103
(946688570.619998) can0 18FF1085#0000000327010027
(946688570.619998) can0 400#1E1F2767286E0000
(946688570.619998) can0 401#007F000000000000
(946688570.629998) can0 18FF01EA#2E0040032E004003
(946688570.629998) can0 18FF02EA#30004C0330004C03
(946688570.639998) can0 18FF01EA#30005B0330005B03
(946688570.639998) can0 18FF02EA#2F0046032F004603
(946688570.639998) can0 18FF1085#0000000327010027
(946688570.639998) can0 400#1F1D296E286C0000
(946688570.639998) can0 401#007F000000000000
(946688570.649998) can0 18FF01EA#3100560331005603
(946688570.649998) can0 18FF02EA#3100450331004503
(946688570.659998) can0 18FF01EA#3000460330004603
(946688570.659998) can0 18FF02EA#3000490330004903
(946688570.659998) can0 18FF1085#0000000327010027
(946688570.659998) can0 400#1F1D286A286C0000
(946688570.659998) can0 401#017E000000000000
(946688570.669998) can0 18FF01EA#2F006C032F006C03
(946688570.669998) can0 18FF02EA#3100660331006603
(946688570.679998) can0 18FF01EA#2F006B032F006B03
(946688570.679998) can0 18FF02EA#31006B0331006B03
(946688570.679998) can0 18FF1085#0000000327010027
(946688570.679998) can0 400#1E1E286627690000
(946688570.679998) can0 401#007F000000000000
(946688570.689998) can0 18FF01EA#3000590330005903
(946688570.689998) can0 18FF02EA#3000580330005803
(946688570.699998) can0 18FF01EA#31005B0331005B03
(946688570.699998) can0 18FF02EA#2F005C032F005C03
(946688570.699998) can0 18FF1085#0000000327010027
(946688570.699998) can0 400#211E276B276D0000
(946688570.699998) can0 401#007F000000000000
(946688570.709998) can0 18FF01EA#31005E0331005E03
(946688570.709998) can0 18FF02EA#2F005C032F005C03
(946688570.709998) can0 19B30007#00005E20AC920000
(946688570.709998) can0 19B30100#D7D7D7D7D7D7D7D7
(946688570.719998) can0 18FF01EA#2F0075032F007503
(946688570.719998) can0 18FF02EA#30007C0330007C03
(946688570.719998) can0 18FF1085#0000000327010027
(946688570.719998) can0 400#1F1E277028700000
(946688570.719998) can0 401#007E000000000000
(946688570.729998) can0 18FF01EA#2E006C032E006C03
(946688570.729998) can0 18FF02EA#30008B0330008B03
(946688570.739998) can0 18FF01EA#30007E0330007E03
(946688570.739998) can0 18FF02EA#3100820331008203
(946688570.739998) can0 18FF1085#0000000327010027
(946688570.739998) can0 400#201F286C28690000
(946688570.739998) can0 401#017F000000000000
(946688570.749998) can0 18FF01EA#30007B0330007B03
(946688570.749998) can0 18FF02EA#31007A0331007A03
(946688570.759998) can0 18FF01EA#30008D0330008D03
(946688570.759998) can0 18FF02EA#2E008D032E008D03
(946688570.759998) can0 18FF1085#0000000327010027
(946688570.759998) can0 400#211F296F286E0000
(946688570.759998) can0 401#007F000000000000
(946688570.769998) can0 18FF01EA#3000920330009203
(946688570.769998) can0 18FF02EA#2F0086032F008603
(946688570.779998) can0 18FF01EA#3100990331009903
(946688570.779998) can0 18FF02EA#3000A0033000A003
(946688570.779998) can0 18FF1085#0000000327010027
(946688570.779998) can0 400#2121276B286F0000
(946688570.779998) can0 401#017E000000000000
(946688570.789998) can0 18FF01EA#2F00A4032F00A403
(946688570.789998) can0 18FF02EA#2F009B032F009B03
(946688570.799998) can0 18FF01EA#2E009B032E009B03
(946688570.799998) can0 18FF02EA#3100880331008803
(946688570.799998) can0 18FF1085#0000000327010027
(946688570.799998) can0 400#2022276C28680000
(946688570.799998) can0 401#007F000000000000
(946688570.809998) can0 18FF01EA#2E0099032E009903
(946688570.809998) can0 18FF02EA#2F009C032F009C03
(946688570.809998) can0 19B30007#00005E20AC930000
(946688570.809998) can0 19B30100#D7D7D7D7D7D7D7D7
(946688570.819998) can0 18FF01EA#2E0099032E009903
(946688570.819998) can0 18FF02EA#2F00B6032F00B603
(946688570.819998) can0 18FF1085#0000000327010027
(946688570.819998) can0 400#2123286F28680000
(946688570.819998) can0 401#007E000000000000
(946688570.829998) can0 18FF01EA#2F00A9032F00A903
(946688570.829998) can0 18FF02EA#31009A0331009A03
(946688570.839998) can0 18FF01EA#2E00BE032E00BE03
(946688570.839998) can0 18FF02EA#31009E0331009E03
(946688570.839998) can0 18FF1085#0000000327010027
(946688570.839998) can0 400#2320276C276E0000
(946688570.839998) can0 401#007E000000000000
(946688570.849998) can0 18FF01EA#3100A9033100A903
(946688570.849998) can0 18FF02EA#2F00BF032F00BF03
(946688570.859998) can0 18FF01EA#2F00A5032F00A503
(946688570.859998) can0 18FF02EA#3100C2033100C203
(946688570.859998) can0 18FF1085#0000000327010027
(946688570.859998) can0 400#20222868286A0000
(946688570.859998) can0 401#007E000000000000
(946688570.869998) can0 18FF01EA#2E00CD032E00CD03
(946688570.869998) can0 18FF02EA#3100B4033100B403
(946688570.879998) can0 18FF01EA#3000BA033000BA03
(946688570.879998) can0 18FF02EA#2F00C7032F00C703
(946688570.879998) can0 18FF1085#0000000327010027
(946688570.879998) can0 400#2122286B286C0000
(946688570.879998) can0 401#017E000000000000
(946688570.889998) can0 18FF01EA#2E00B9032E00B903
(946688570.889998) can0 18FF02EA#3100BE033100BE03
(946688570.899998) can0 18FF01EA#3100CC033100CC03
(946688570.899998) can0 18FF02EA#3000CD033000CD03
(946688570.899998) can0 18FF1085#0000000327010027
(946688570.899998) can0 400#2324276A286A0000
(946688570.899998) can0 401#007F000000000000
(946688570.909998) can0 18FF01EA#2F00CC032F00CC03
(946688570.909998) can0 18FF02EA#2F00DE032F00DE03
(946688570.909998) can0 19B30007#00005E20AB940000
(946688570.909998) can0 19B30100#D6D6D6D6D6D6D6D6
(946688570.919998) can0 18FF01EA#2E00CB032E00CB03
(946688570.919998) can0 18FF02EA#2F00DC032F00DC03
(946688570.919998) can0 18FF1085#0000000327010027
(946688570.919998) can0 400#2223276B276E0000
(946688570.919998) can0 401#007F000000000000
(946688570.929998) can0 18FF01EA#2E00E4032E00E403
(946688570.929998) can0 18FF02EA#3000DF033000DF03
(946688570.939998) can0 18FF01EA#3000E0033000E003
(946688570.939998) can0 18FF02EA#2F00D2032F00D203
(946688570.939998) can0 18FF1085#0000000327010027
(946688570.939998) can0 400#24242768286D0000
(946688570.939998) can0 401#007F000000000000
(946688570.949998) can0 18FF01EA#3000E5033000E503
(946688570.949998) can0 18FF02EA#2E00D6032E00D603
(946688570.959998) can0 18FF01EA#2E00E8032E00E803
(946688570.959998) can0 18FF02EA#2E00E2032E00E203
(946688570.959998) can0 18FF1085#0000000327010027
(946688570.959998) can0 400#25232869286A0000
(946688570.959998) can0 401#007F000000000000
(946688570.969998) can0 18FF01EA#2E00DE032E00DE03
(946688570.969998) can0 18FF02EA#3100E3033100E303
(946688570.979998) can0 18FF01EA#3000F9033000F903
(946688570.979998) can0 18FF02EA#3100E4033100E403
(946688570.979998) can0 18FF1085#0000000327010027
(946688570.979998) can0 400#2524276827690000
(946688570.979998) can0 401#017E000000000000
(946688570.989998) can0 18FF01EA#3100F7033100F703
(946688570.989998) can0 18FF02EA#2E00E4032E00E403
(946688571.009998) can0 18FF01EA#2E00F5032E00F503
(946688571.009998) can0 18FF02EA#3100EF033100EF03
(946688571.009998) can0 18FF1085#0000000327010027
(946688571.009998) can0 400#2424276D286C0000
(946688571.009998) can0 401#007E000000000000
(946688571.019998) can0 19B30007#00005E20AB950000
(946688571.019998) can0 19B30100#D6D6D6D6D6D6D6D6
(946688571.029998) can0 18FF01EA#3100F2033100F203
(946688571.029998) can0 18FF02EA#3100FD033100FD03
(946688571.039998) can0 18FF1085#0000000327010027
(946688571.039998) can0 400#2625276B296B0000
(946688571.039998) can0 401#007F000000000000
(946688571.049998) can0 18FF01EA#2F0002042F000204
(946688571.049998) can0 18FF02EA#2E0015042E001504
(946688571.069998) can0 18FF01EA#2F0024042F002404
(946688571.069998) can0 18FF02EA#30001B0430001B04
(946688571.069998) can0 18FF1085#0000000327010027
(946688571.069998) can0 400#2527286F276D0000
(946688571.069998) can0 401#007F000000000000
(946688571.089998) can0 18FF01EA#2F0031042F003104
(946688571.089998) can0 18FF02EA#2E001E042E001E04
(946688571.099998) can0 18FF1085#0000000327010027
(946688571.099998) can0 400#26242871286F0000
(946688571.099998) can0 401#017E000000000000
(946688571.109998) can0 18FF01EA#2F0031042F003104
(946688571.109998) can0 18FF02EA#2E001F042E001F04
(946688571.129998) can0 18FF01EA#2E0034042E003404
(946688571.129998) can0 18FF02EA#31001D0431001D04
(946688571.129998) can0 18FF1085#0000000327010027
(946688571.129998) can0 400#2526276A276B0000
(946688571.129998) can0 401#017E000000000000
(946688571.129998) can0 19B30007#00005E20AB960000
(946688571.129998) can0 19B30100#D6D6D6D6D6D6D6D6
(946688571.149998) can0 18FF01EA#2E003B042E003B04
(946688571.149998) can0 18FF02EA#2F0048042F004804
(946688571.159998) can0 18FF1085#0000000327010027
(946688571.159998) can0 400#2727287228700000
(946688571.159998) can0 401#017E000000000000
(946688571.169998) can0 18FF01EA#2E0049042E004904
(946688571.169998) can0 18FF02EA#2F002C042F002C04
(946688571.189998) can0 18FF01EA#3000350430003504
(946688571.189998) can0 18FF02EA#3100450431004504
(946688571.189998) can0 18FF1085#0000000327010027
(946688571.189998) can0 400#2729276A286C0000
(946688571.189998) can0 401#007E000000000000
(946688571.209998) can0 18FF01EA#2E0048042E004804
(946688571.209998) can0 18FF02EA#2F003D042F003D04
(946688571.219998) can0 18FF1085#0000000327010027
(946688571.219998) can0 400#2728286F286F0000
(946688571.219998) can0 401#007E000000000000
(946688571.229998) can0 18FF01EA#31006C0431006C04
(946688571.229998) can0 18FF02EA#2E0066042E006604
(946688571.239998) can0 19B30007#00005E20AB970000
(946688571.239998) can0 19B30100#D6D6D6D6D6D6D6D6
(946688571.249998) can0 18FF01EA#30006B0430006B04
(946688571.249998) can0 18FF02EA#31006D0431006D04
(946688571.249998) can0 18FF1085#0000000327010027
(946688571.249998) can0 400#2827276C29710000
(946688571.249998) can0 401#007E000000000000
(946688571.269998) can0 18FF01EA#2E005C042E005C04
(946688571.269998) can0 18FF02EA#2F0057042F005704
(946688571.279998) can0 18FF1085#0000000327010027
(946688571.279998) can0 400#272B2872286A0000
(946688571.279998) can0 401#007E000000000000
(946688571.289998) can0 18FF01EA#2F006E042F006E04
(946688571.289998) can0 18FF02EA#3100680431006804
(946688571.309998) can0 18FF01EA#31008B0431008B04
(946688571.309998) can0 18FF02EA#3100890431008904
(946688571.309998) can0 18FF1085#0000000327010027
(946688571.309998) can0 400#2A28286A276F0000
(946688571.309998) can0 401#017F000000000000
(946688571.329998) can0 18FF01EA#2E008D042E008D04
(946688571.329998) can0 18FF02EA#2E0095042E009504
(946688571.339998) can0 18FF1085#0000000327010027
(946688571.339998) can0 400#2828286A296D0000
(946688571.339998) can0 401#007F000000000000
(946688571.349998) can0 18FF01EA#3100790431007904
(946688571.349998) can0 18FF02EA#2F008B042F008B04
(946688571.349998) can0 19B30007#00005E20AB980000
(946688571.349998) can0 19B30100#D6D6D6D6D6D6D6D6
(946688571.369998) can0 18FF01EA#3000930430009304
(946688571.369998) can0 18FF02EA#3100920431009204
(946688571.369998) can0 18FF1085#0000000327010027
(946688571.369998) can0 400#2B2B286C286D0000
(946688571.369998) can0 401#007F000000000000
(946688571.389998) can0 18FF01EA#2E0095042E009504
(946688571.389998) can0 18FF02EA#2E009A042E009A04
(946688571.399998) can0 18FF1085#0000000327010027
(946688571.399998) can0 400#2B2C286929730000
(946688571.399998) can0 401#007F000000000000
(946688571.409998) can0 18FF01EA#3000AA043000AA04
(946688571.409998) can0 18FF02EA#2F00B1042F00B104
(946688571.429998) can0 18FF01EA#2E00AF042E00AF04
(946688571.429998) can0 18FF02EA#2F00B5042F00B504
(946688571.429998) can0 18FF1085#0000000327010027
(946688571.429998) can0 400#2C2C276C286A0000
(946688571.429998) can0 401#017E000000000000
(946688571.449998) can0 18FF01EA#2E00B7042E00B704
(946688571.449998) can0 18FF02EA#3100C1043100C104
(946688571.459998) can0 18FF1085#0000000327010027
(946688571.459998) can0 400#2C2A286A27710000
(946688571.459998) can0 401#007F000000000000
(946688571.459998) can0 19B30007#00005E20AB990000
(946688571.459998) can0 19B30100#D6D6D6D6D6D6D6D6
(946688571.469998) can0 18FF01EA#3100AA043100AA04
(946688571.469998) can0 18FF02EA#2E00B9042E00B904
(946688571.489998) can0 18FF01EA#2F00BF042F00BF04
(946688571.489998) can0 18FF02EA#3000CF043000CF04
(946688571.489998) can0 18FF1085#0000000327010027
(946688571.489998) can0 400#2D2D286A28710000
(946688571.489998) can0 401#017E000000000000
(946688571.509998) can0 18FF01EA#2F00C7042F00C704
(946688571.509998) can0 18FF02EA#3000BB043000BB04
(946688571.519998) can0 18FF1085#0000000327010027
(946688571.519998) can0 400#2C2C286E28710000
(946688571.519998) can0 401#017F000000000000
(946688571.529998) can0 18FF01EA#3000CD043000CD04
(946688571.529998) can0 18FF02EA#3000D4043000D404
(946688571.549998) can0 18FF01EA#3100DE043100DE04
(946688571.549998) can0 18FF02EA#2E00DF042E00DF04
(946688571.549998) can0 18FF1085#0000000327010027
(946688571.549998) can0 400#2D2B286A286A0000
(946688571.549998) can0 401#007E000000000000
(946688571.569998) can0 18FF01EA#3000D5043000D504
(946688571.569998) can0 18FF02EA#3000E9043000E904
(946688571.569998) can0 19B30007#00005E20AB9A0000
(946688571.569998) can0 19B30100#D6D6D6D6D6D6D6D6
(946688571.579998) can0 18FF1085#0000000327010027
(946688571.579998) can0 400#2C2F2773286E0000
(946688571.579998) can0 401#007F000000000000
(946688571.589998) can0 18FF01EA#2E00EC042E00EC04
(946688571.589998) can0 18FF02EA#2E00D4042E00D404
(946688571.609998) can0 18FF01EA#2F00E2042F00E204
(946688571.609998) can0 18FF02EA#2E00ED042E00ED04
(946688571.609998) can0 18FF1085#0000000327010027
(946688571.609998) can0 400#2F2C2771276B0000
(946688571.609998) can0 401#017E000000000000
(946688571.629997) can0 18FF01EA#2E00FF042E00FF04
(946688571.629997) can0 18FF02EA#2E00DF042E00DF04
(946688571.639997) can0 18FF1085#0000000327010027
(946688571.639997) can0 400#2D2E287028730000
(946688571.639997) can0 401#007E000000000000
(946688571.649997) can0 18FF01EA#3000FD043000FD04
(946688571.649997) can0 18FF02EA#2F0007052F000705
(946688571.669997) can0 18FF01EA#2E0004052E000405
(946688571.669997) can0 18FF02EA#3000030530000305
(946688571.669997) can0 18FF1085#0000000327010027
(946688571.669997) can0 400#2F2F287427700000
(946688571.669997) can0 401#007E000000000000
(946688571.679997) can0 19B30007#00005E20AB9B0000
(946688571.679997) can0 19B30100#D6D6D6D6D6D6D6D6
(946688571.689997) can0 18FF01EA#2E00FA042E00FA04
(946688571.689997) can0 18FF02EA#3100020531000205
(946688571.699997) can0 18FF1085#0000000327010027
(946688571.699997) can0 400#2F2F276E276F0000
(946688571.699997) can0 401#007E000000000000
(946688571.709997) can0 18FF01EA#2E0019052E001905
(946688571.709997) can0 18FF02EA#31000B0531000B05
(946688571.729997) can0 18FF01EA#2E0018052E001805
(946688571.729997) can0 18FF02EA#30001A0530001A05
(946688571.729997) can0 18FF1085#0000000327010027
(946688571.729997) can0 400#2D2D286D286C0000
(946688571.729997) can0 401#007F000000000000
(946688571.749997) can0 18FF01EA#3000080530000805
(946688571.749997) can0 18FF02EA#2E002E052E002E05
(946688571.759997) can0 18FF1085#0000000327010027
(946688571.759997) can0 400#2E2D2773296C0000
(946688571.759997) can0 401#017F000000000000
(946688571.769997) can0 18FF01EA#2F0031052F003105
(946688571.769997) can0 18FF02EA#2E0017052E001705
(946688571.789997) can0 18FF01EA#2F003C052F003C05
(946688571.789997) can0 18FF02EA#2F0025052F002505
(946688571.789997) can0 18FF1085#0000000327010027
(946688571.789997) can0 400#312F276E276D0000
(946688571.789997) can0 401#007F000000000000
(946688571.789997) can0 19B30007#00005E20AB9B0000
(946688571.789997) can0 19B30100#D6D6D6D6D6D6D6D6
(946688571.809997) can0 18FF01EA#31002E0531002E05
(946688571.809997) can0 18FF02EA#3000330530003305
(946688571.819997) can0 18FF1085#0000000327010027
(946688571.819997) can0 400#322F2772276E0000
(946688571.819997) can0 401#007F000000000000
(946688571.829997) can0 18FF01EA#2E0026052E002605
(946688571.829997) can0 18FF02EA#3100270531002705
(946688571.849997) can0 18FF01EA#2E004D052E004D05
(946688571.849997) can0 18FF02EA#3100390531003905
(946688571.849997) can0 18FF1085#0000000327010027
(946688571.849997) can0 400#3131276E28720000
(946688571.849997) can0 401#007E000000000000
(946688571.869997) can0 18FF01EA#3100460531004605
(946688571.869997) can0 18FF02EA#3000440530004405
(946688571.879997) can0 18FF1085#0000000327010027
(946688571.879997) can0 400#3130286B27700000
(946688571.879997) can0 401#007F000000000000
(946688571.889997) can0 18FF01EA#2E004A052E004A05
(946688571.889997) can0 18FF02EA#2E0059052E005905
(946688571.899997) can0 19B30007#00005E20AB9C0000
(946688571.899997) can0 19B30100#D6D6D6D6D6D6D6D6
(946688571.909997) can0 18FF01EA#2E0040052E004005
(946688571.909997) can0 18FF02EA#2F0051052F005105
(946688571.909997) can0 18FF1085#0000000327010027
(946688571.909997) can0 400#3231276D28720000
(946688571.909997) can0 401#017F000000000000
(946688571.929997) can0 18FF01EA#31004D0531004D05
(946688571.929997) can0 18FF02EA#2F0060052F006005
(946688571.939997) can0 18FF1085#0000000327010027
(946688571.939997) can0 400#30322772286D0000
(946688571.939997) can0 401#007F000000000000
(946688571.949997) can0 18FF01EA#2F005A052F005A05
(946688571.949997) can0 18FF02EA#3000680530006805
(946688571.969997) can0 18FF01EA#2F0066052F006605
(946688571.969997) can0 18FF02EA#3000570530005705
(946688571.969997) can0 18FF1085#0000000327010027
(946688571.969997) can0 400#3130286F29740000
(946688571.969997) can0 401#017F000000000000
(946688571.989997) can0 18FF01EA#3100660531006605
(946688571.989997) can0 18FF02EA#3000760530007605
(946688571.999997) can0 18FF1085#0000000327010027
(946688571.999997) can0 400#31312871286B0000
(946688571.999997) can0 401#007F000000000000
(946688572.009997) can0 18FF01EA#30007D0530007D05
(946688572.009997) can0 18FF02EA#3100730531007305
(946688572.009997) can0 19B30007#00005E20AB9D0000
(946688572.009997) can0 19B30100#D6D6D6D6D6D6D6D6
(946688572.029997) can0 18FF01EA#3100630531006305
(946688572.029997) can0 18FF02EA#31006B0531006B05
(946688572.029997) can0 18FF1085#0000000327010027
(946688572.029997) can0 400#33312875276F0000
(946688572.029997) can0 401#007E000000000000
(946688572.049997) can0 18FF01EA#2E008C052E008C05
(946688572.049997) can0 18FF02EA#31008A0531008A05
(946688572.059997) can0 18FF1085#0000000327010027
(946688572.059997) can0 400#34332771276C0000
(946688572.059997) can0 401#007E000000000000
(946688572.069997) can0 18FF01EA#2E0084052E008405
(946688572.069997) can0 18FF02EA#31007F0531007F05
(946688572.089997) can0 18FF01EA#30008A0530008A05
(946688572.089997) can0 18FF02EA#31007F0531007F05
(946688572.089997) can0 18FF1085#0000000327010027
(946688572.089997) can0 400#34312775286E0000
(946688572.089997) can0 401#007F000000000000
(946688572.109997) can0 18FF01EA#3100A0053100A005
(946688572.109997) can0 18FF02EA#30007B0530007B05
(946688572.119997) can0 18FF1085#0000000327010027
(946688572.119997) can0 400#3432277327700000
(946688572.119997) can0 401#007E000000000000
(946688572.119997) can0 19B30007#00005E20AB9E0000
(946688572.119997) can0 19B30100#D6D6D6D6D6D6D6D6
(946688572.129997) can0 18FF01EA#3000970530009705
(946688572.129997) can0 18FF02EA#3100A2053100A205
(946688572.149997) can0 18FF01EA#2F009A052F009A05
(946688572.149997) can0 18FF02EA#3000890530008905
(946688572.149997) can0 18FF1085#0000000327010027
(946688572.149997) can0 400#32332870296E0000
(946688572.149997) can0 401#007F000000000000
(946688572.169997) can0 18FF01EA#2F009B052F009B05
(946688572.169997) can0 18FF02EA#3000AB053000AB05
(946688572.179997) can0 18FF1085#0000000327010027
(946688572.179997) can0 400#3434277328720000
(946688572.179997) can0 401#007E000000000000
(946688572.189997) can0 18FF01EA#2F0094052F009405
(946688572.189997) can0 18FF02EA#3100940531009405
(946688572.209997) can0 18FF01EA#3000B6053000B605
(946688572.209997) can0 18FF02EA#2F00B4052F00B405
(946688572.209997) can0 18FF1085#0000000327010027
(946688572.209997) can0 400#3435276C276C0000
(946688572.209997) can0 401#007F000000000000
(946688572.229997) can0 18FF01EA#31009C0531009C05
(946688572.229997) can0 18FF02EA#3100B0053100B005
(946688572.229997) can0 19B30007#00005E20AB9E0000
(946688572.229997) can0 19B30100#D6D6D6D6D6D6D6D6
(946688572.239997) can0 18FF1085#0000000327010027
(946688572.239997) can0 400#35362873276C0000
(946688572.239997) can0 401#007F000000000000
(946688572.249997) can0 18FF01EA#2E00C7052E00C705
(946688572.249997) can0 18FF02EA#2E00C0052E00C005
(946688572.269997) can0 18FF01EA#3100B9053100B905
(946688572.269997) can0 18FF02EA#2F00A7052F00A705
(946688572.269997) can0 18FF1085#0000000327010027
(946688572.269997) can0 400#33372874296D0000
(946688572.269997) can0 401#007F000000000000
(946688572.289997) can0 18FF01EA#3100AB053100AB05
(946688572.289997) can0 18FF02EA#3000C6053000C605
(946688572.299997) can0 18FF1085#0000000327010027
(946688572.299997) can0 400#3435287528710000
(946688572.299997) can0 401#007F000000000000
(946688572.309997) can0 18FF01EA#3100B7053100B705
(946688572.309997) can0 18FF02EA#3000BD053000BD05
(946688572.329997) can0 18FF01EA#2F00D6052F00D605
(946688572.329997) can0 18FF02EA#2E00CB052E00CB05
(946688572.329997) can0 18FF1085#0000000327010027
(946688572.329997) can0 400#3637287427700000
(946688572.329997) can0 401#017E000000000000
(946688572.339997) can0 19B30007#00005E20AB9F0000
(946688572.339997) can0 19B30100#D6D6D6D6D6D6D6D6
(946688572.349997) can0 18FF01EA#2E00D5052E00D505
(946688572.349997) can0 18FF02EA#3100C0053100C005
(946688572.359997) can0 18FF1085#0000000327010027
(946688572.359997) can0 400#3735276F28710000
(946688572.359997) can0 401#007E000000000000
(946688572.369997) can0 18FF01EA#2F00DB052F00DB05
(946688572.369997) can0 18FF02EA#3000DE053000DE05
(946688572.389997) can0 18FF01EA#3000C5053000C505
(946688572.389997) can0 18FF02EA#3000D2053000D205
(946688572.389997) can0 18FF1085#0000000327010027
(946688572.389997) can0 400#3537277028740000
(946688572.389997) can0 401#017E000000000000
(946688572.409997) can0 18FF01EA#3000D2053000D205
(946688572.409997) can0 18FF02EA#2F00D8052F00D805
(946688572.419997) can0 18FF1085#0000000327010027
(946688572.419997) can0 400#35352870286F0000
(946688572.419997) can0 401#007E000000000000
(946688572.429997) can0 18FF01EA#2F00DC052F00DC05
(946688572.429997) can0 18FF02EA#2F00D8052F00D805
(946688572.449997) can0 18FF01EA#3000EC053000EC05
(946688572.449997) can0 18FF02EA#2F00E9052F00E905
(946688572.449997) can0 18FF1085#0000000327010027
(946688572.449997) can0 400#3838286C276F0000
(946688572.449997) can0 401#007E000000000000
(946688572.449997) can0 19B30007#00005E20ABA00000
(946688572.449997) can0 19B30100#D6D6D6D6D6D6D6D6
(946688572.469997) can0 18FF01EA#3000FD053000FD05
(946688572.469997) can0 18FF02EA#2F00E9052F00E905
(946688572.479997) can0 18FF1085#0000000327010027
(946688572.479997) can0 400#3636287228720000
(946688572.479997) can0 401#007F000000000000
(946688572.489997) can0 18FF01EA#3100E7053100E705
(946688572.489997) can0 18FF02EA#2F00EC052F00EC05
(946688572.509997) can0 18FF01EA#3100E8053100E805
(946688572.509997) can0 18FF02EA#2E00E2052E00E205
(946688572.509997) can0 18FF1085#0000000327010027
(946688572.509997) can0 400#36382976286D0000
(946688572.509997) can0 401#007E000000000000
(946688572.529997) can0 18FF01EA#31000E0631000E06
(946688572.529997) can0 18FF02EA#2F00FB052F00FB05
(946688572.539997) can0 18FF1085#0000000327010027
(946688572.539997) can0 400#37382873296E0000
(946688572.539997) can0 401#017E000000000000
(946688572.549997) can0 18FF01EA#3100F6053100F605
(946688572.549997) can0 18FF02EA#2E00ED052E00ED05
(946688572.559997) can0 19B30007#00005E20ABA00000
(946688572.559997) can0 19B30100#D6D6D6D6D6D6D6D6
(946688572.569997) can0 18FF01EA#30000A0630000A06
(946688572.569997) can0 18FF02EA#3000150630001506
(946688572.569997) can0 18FF1085#0000000327010027
(946688572.569997) can0 400#3638277428740000
(946688572.569997) can0 401#017F000000000000
(946688572.589997) can0 18FF01EA#2F00FC052F00FC05
(946688572.589997) can0 18FF02EA#30001B0630001B06
(946688572.599997) can0 18FF1085#0000000327010027
(946688572.599997) can0 400#3938297028710000
(946688572.599997) can0 401#017E000000000000
(946688572.609997) can0 18FF01EA#3100020631000206
(946688572.609997) can0 18FF02EA#3100210631002106
(946688572.629997) can0 18FF01EA#3100010631000106
(946688572.629997) can0 18FF02EA#2E0007062E000706
(946688572.629997) can0 18FF1085#0000000327010027
(946688572.629997) can0 400#39362872286D0000
(946688572.629997) can0 401#017F000000000000
(946688572.649997) can0 18FF01EA#3000060630000606
(946688572.649997) can0 18FF02EA#3000190630001906
(946688572.659997) can0 18FF1085#0000000327010027
(946688572.659997) can0 400#3737277027750000
(946688572.659997) can0 401#007E000000000000
(946688572.669997) can0 18FF01EA#3100110631001106
(946688572.669997) can0 18FF02EA#3000190630001906
(946688572.669997) can0 19B30007#00005E20ABA10000
(946688572.669997) can0 19B30100#D6D6D6D6D6D6D6D6
(946688572.689996) can0 18FF01EA#2F0015062F001506
(946688572.689996) can0 18FF02EA#3000110630001106
(946688572.689996) can0 18FF1085#0000000327010027
(946688572.689996) can0 400#3A3A287328740000
(946688572.689996) can0 401#007F000000000000
(946688572.709996) can0 18FF01EA#30002C0630002C06
(946688572.709996) can0 18FF02EA#2E002C062E002C06
(946688572.719996) can0 18FF1085#0000000327010027
(946688572.719996) can0 400#3838286D276D0000
(946688572.719996) can0 401#007E000000000000
(946688572.729996) can0 18FF01EA#3000250630002506
(946688572.729996) can0 18FF02EA#3000200630002006
(946688572.749996) can0 18FF01EA#2F0037062F003706
(946688572.749996) can0 18FF02EA#2F0035062F003506
(946688572.749996) can0 18FF1085#0000000327010027
(946688572.749996) can0 400#393A2771286E0000
(946688572.749996) can0 401#007F000000000000
(946688572.769996) can0 18FF01EA#2E0023062E002306
(946688572.769996) can0 18FF02EA#3000200630002006
(946688572.779996) can0 18FF1085#0000000327010027
(946688572.779996) can0 400#393A287127710000
(946688572.779996) can0 401#007F000000000000
(946688572.779996) can0 19B30007#00005E20ABA10000
(946688572.779996) can0 19B30100#D6D6D6D6D6D6D6D6
(946688572.789996) can0 18FF01EA#2F0044062F004406
(946688572.789996) can0 18FF02EA#3100290631002906
(946688572.809996) can0 18FF01EA#3000360630003606
(946688572.809996) can0 18FF02EA#2E002F062E002F06
(946688572.809996) can0 18FF1085#0000000327010027
(946688572.809996) can0 400#3938297127740000
(946688572.809996) can0 401#007F000000000000
(946688572.829996) can0 18FF01EA#2F0036062F003606
(946688572.829996) can0 18FF02EA#30003E0630003E06
(946688572.839996) can0 18FF1085#0000000327010027
(946688572.839996) can0 400#3A3A276E27720000
(946688572.839996) can0 401#007F000000000000
(946688572.849996) can0 18FF01EA#2E0048062E004806
(946688572.849996) can0 18FF02EA#30003C0630003C06
(946688572.869996) can0 18FF01EA#31003B0631003B06
(946688572.869996) can0 18FF02EA#30005A0630005A06
(946688572.869996) can0 18FF1085#0000000327010027
(946688572.869996) can0 400#393C297329710000
(946688572.869996) can0 401#007F000000000000
(946688572.889996) can0 18FF01EA#2F0039062F003906
(946688572.889996) can0 18FF02EA#30004F0630004F06
(946688572.889996) can0 19B30007#00005E20ABA20000
(946688572.889996) can0 19B30100#D6D6D6D6D6D6D6D6
(946688572.899996) can0 18FF1085#0000000327010027
(946688572.899996) can0 400#3838286F28770000
(946688572.899996) can0 401#007E000000000000
(946688572.909996) can0 18FF01EA#2F0049062F004906
(946688572.909996) can0 18FF02EA#2E004E062E004E06
(946688572.929996) can0 18FF01EA#3000500630005006
(946688572.929996) can0 18FF02EA#2E004C062E004C06
(946688572.929996) can0 18FF1085#0000000327010027
(946688572.929996) can0 400#3A39287727760000
(946688572.929996) can0 401#007F000000000000
(946688572.949996) can0 18FF01EA#31005E0631005E06
(946688572.949996) can0 18FF02EA#31004B0631004B06
(946688572.959996) can0 18FF1085#0000000327010027
(946688572.959996) can0 400#3939287628720000
(946688572.959996) can0 401#007F000000000000
(946688572.969996) can0 18FF01EA#3000540630005406
(946688572.969996) can0 18FF02EA#2F0057062F005706
(946688572.989996) can0 18FF01EA#31006B0631006B06
(946688572.989996) can0 18FF02EA#31005F0631005F06
(946688572.989996) can0 18FF1085#0000000327010027
(946688572.989996) can0 400#3B3A287229760000
(946688572.989996) can0 401#007F000000000000
(946688572.999996) can0 19B30007#00005E20ABA20000
(946688572.999996) can0 19B30100#D6D6D6D6D6D6D6D6
(946688573.009996) can0 18FF01EA#3100730631007306
(946688573.009996) can0 18FF02EA#3000710630007106
(946688573.009996) can0 18FF1085#0000000327010027
(946688573.009996) can0 400#3B39297327730000
(946688573.009996) can0 401#007F000000000000
(946688573.029996) can0 18FF01EA#2F0058062F005806
(946688573.029996) can0 18FF02EA#3000560630005606
(946688573.039996) can0 18FF1085#0000000327010027
(946688573.039996) can0 400#3B3C297429720000
(946688573.039996) can0 401#007F000000000000
(946688573.049996) can0 18FF01EA#2F006B062F006B06
(946688573.049996) can0 18FF02EA#2E007A062E007A06
(946688573.069996) can0 18FF01EA#2E0075062E007506
(946688573.069996) can0 18FF02EA#2F005A062F005A06
(946688573.069996) can0 18FF1085#0000000327010027
(946688573.069996) can0 400#3D3A287228710000
(946688573.069996) can0 401#007E000000000000
(946688573.089996) can0 18FF01EA#3100780631007806
(946688573.089996) can0 18FF02EA#2F0074062F007406
(946688573.099996) can0 18FF1085#0000000327010027
(946688573.099996) can0 400#3C3B277229710000
(946688573.099996) can0 401#007E000000000000
(946688573.109996) can0 18FF01EA#3000670630006706
(946688573.109996) can0 18FF02EA#30007B0630007B06
(946688573.109996) can0 19B30007#00005E20ABA30000
(946688573.109996) can0 19B30100#D6D6D6D6D6D6D6D6
(946688573.129996) can0 18FF01EA#2E0068062E006806
(946688573.129996) can0 18FF02EA#3100700631007006
(946688573.129996) can0 18FF1085#0000000327010027
(946688573.129996) can0 400#3D3A287727760000
(946688573.129996) can0 401#007F000000000000
(946688573.149996) can0 18FF01EA#2F0084062F008406
(946688573.149996) can0 18FF02EA#2F008D062F008D06
(946688573.159996) can0 18FF1085#0000000327010027
(946688573.159996) can0 400#3D3E287628770000
(946688573.159996) can0 401#007E000000000000
(946688573.169996) can0 18FF01EA#31006C0631006C06
(946688573.169996) can0 18FF02EA#2E007E062E007E06
(946688573.189996) can0 18FF01EA#31008D0631008D06
(946688573.189996) can0 18FF02EA#30008E0630008E06
(946688573.189996) can0 18FF1085#0000000327010027
(946688573.189996) can0 400#3A3C277628700000
(946688573.189996) can0 401#007F000000000000
(946688573.209996) can0 18FF01EA#2E0074062E007406
(946688573.209996) can0 18FF02EA#2F0093062F009306
(946688573.219996) can0 18FF1085#0000000327010027
(946688573.219996) can0 400#3C3D287329770000
(946688573.219996) can0 401#007F000000000000
(946688573.219996) can0 19B30007#00005E20ABA30000
(946688573.219996) can0 19B30100#D6D6D6D6D6D6D6D6
(946688573.229996) can0 18FF01EA#3100840631008406
(946688573.229996) can0 18FF02EA#3100790631007906
(946688573.249996) can0 18FF01EA#3100830631008306
(946688573.249996) can0 18FF02EA#2E0090062E009006
(946688573.249996) can0 18FF1085#0000000327010027
(946688573.249996) can0 400#3D3C277428760000
(946688573.249996) can0 401#007E000000000000
(946688573.269996) can0 18FF01EA#3000A4063000A406
(946688573.269996) can0 18FF02EA#3000930630009306
(946688573.279996) can0 18FF1085#0000000327010027
(946688573.279996) can0 400#3D3E286F286F0000
(946688573.279996) can0 401#017E000000000000
(946688573.289996) can0 18FF01EA#3100900631009006
(946688573.289996) can0 18FF02EA#3100810631008106
(946688573.309996) can0 18FF01EA#3000990630009906
(946688573.309996) can0 18FF02EA#2F00A3062F00A306
(946688573.309996) can0 18FF1085#0000000327010027
(946688573.309996) can0 400#3C3D296E28750000
(946688573.309996) can0 401#007F000000000000
(946688573.329996) can0 18FF01EA#2F009B062F009B06
(946688573.329996) can0 18FF02EA#31008A0631008A06
(946688573.329996) can0 19B30007#00005E20ABA30000
(946688573.329996) can0 19B30100#D6D6D6D6D6D6D6D6
(946688573.339996) can0 18FF1085#0000000327010027
(946688573.339996) can0 400#3D3C287028730000
(946688573.339996) can0 401#017E000000000000
(946688573.349996) can0 18FF01EA#30009F0630009F06
(946688573.349996) can0 18FF02EA#3100B0063100B006
(946688573.369996) can0 18FF01EA#2E0099062E009906
(946688573.369996) can0 18FF02EA#2F00A7062F00A706
(946688573.369996) can0 18FF1085#0000000327010027
(946688573.369996) can0 400#3F3F287129730000
(946688573.369996) can0 401#007F000000000000
(946688573.389996) can0 18FF01EA#2F0092062F009206
(946688573.389996) can0 18FF02EA#3000A5063000A506
(946688573.399996) can0 18FF1085#0000000327010027
(946688573.399996) can0 400#3F3C297628710000
(946688573.399996) can0 401#007F000000000000
(946688573.409996) can0 18FF01EA#2F00B3062F00B306
(946688573.409996) can0 18FF02EA#31009E0631009E06
(946688573.429996) can0 18FF01EA#3000A9063000A906
(946688573.429996) can0 18FF02EA#3000AB063000AB06
(946688573.429996) can0 18FF1085#0000000327010027
(946688573.429996) can0 400#3E3F296F27730000
(946688573.429996) can0 401#017E000000000000
(946688573.439996) can0 19B30007#00005E20ABA40000
(946688573.439996) can0 19B30100#D6D6D6D6D6D6D6D6
(946688573.449996) can0 18FF01EA#2F00BD062F00BD06
(946688573.449996) can0 18FF02EA#2F009A062F009A06
(946688573.459996) can0 18FF1085#0000000327010027
(946688573.459996) can0 400#3E3E287228730000
(946688573.459996) can0 401#007E000000000000
(946688573.469996) can0 18FF01EA#2F009C062F009C06
(946688573.469996) can0 18FF02EA#3100A5063100A506
(946688573.489996) can0 18FF01EA#2E00BA062E00BA06
(946688573.489996) can0 18FF02EA#3000C6063000C606
(946688573.489996) can0 18FF1085#0000000327010027
(946688573.489996) can0 400#3F3F286E28710000
(946688573.489996) can0 401#007F000000000000
(946688573.509996) can0 18FF01EA#3100B7063100B706
(946688573.509996) can0 18FF02EA#2F00A4062F00A406
(946688573.519996) can0 18FF1085#0000000327010027
(946688573.519996) can0 400#3C3F287428720000
(946688573.519996) can0 401#017F000000000000
(946688573.529996) can0 18FF01EA#2E00B5062E00B506
(946688573.529996) can0 18FF02EA#3100A9063100A906
(946688573.549996) can0 18FF01EA#3000B3063000B306
(946688573.549996) can0 18FF02EA#3000AA063000AA06
(946688573.549996) can0 18FF1085#0000000327010027
(946688573.549996) can0 400#3E3E286F28710000
(946688573.549996) can0 401#007E000000000000
(946688573.549996) can0 19B30007#00005E20ABA40000
(946688573.549996) can0 19B30100#D6D6D6D6D6D6D6D6
(946688573.569996) can0 18FF01EA#3000BE063000BE06
(946688573.569996) can0 18FF02EA#2F00CD062F00CD06
(946688573.579996) can0 18FF1085#0000000327010027
(946688573.579996) can0 400#3E40297327710000
(946688573.579996) can0 401#017E000000000000
(946688573.589996) can0 18FF01EA#2E00CA062E00CA06
(946688573.589996) can0 18FF02EA#3000C9063000C906
(946688573.609996) can0 18FF01EA#2F00B6062F00B606
(946688573.609996) can0 18FF02EA#2F00D4062F00D406
(946688573.609996) can0 18FF1085#0000000327010027
(946688573.609996) can0 400#403E297827740000
(946688573.609996) can0 401#007E000000000000
(946688573.629996) can0 18FF01EA#3000CC063000CC06
(946688573.629996) can0 18FF02EA#2F00BA062F00BA06
(946688573.639996) can0 18FF1085#0000000327010027
(946688573.639996) can0 400#3D3E287328740000
(946688573.639996) can0 401#007E000000000000
(946688573.649996) can0 18FF01EA#3100C6063100C606
(946688573.649996) can0 18FF02EA#2E00C4062E00C406
(946688573.659996) can0 19B30007#00005E20ABA40000
(946688573.659996) can0 19B30100#D6D6D6D6D6D6D6D6
(946688573.669996) can0 18FF01EA#3100D7063100D706
(946688573.669996) can0 18FF02EA#3100DF063100DF06
(946688573.669996) can0 18FF1085#0000000327010027
(946688573.669996) can0 400#3E3F2870296F0000
(946688573.669996) can0 401#007F000000000000
(946688573.689996) can0 18FF01EA#3100DE063100DE06
(946688573.689996) can0 18FF02EA#2F00BD062F00BD06
(946688573.699996) can0 18FF1085#0000000327010027
(946688573.699996) can0 400#413E276F28700000
(946688573.699996) can0 401#007E000000000000
(946688573.709996) can0 18FF01EA#2E00C1062E00C106
(946688573.709996) can0 18FF02EA#2F00E1062F00E106
(946688573.729995) can0 18FF01EA#3000E2063000E206
(946688573.729995) can0 18FF02EA#3100D6063100D606
(946688573.729995) can0 18FF1085#0000000327010027
(946688573.729995) can0 400#3F3F286F27750000
(946688573.729995) can0 401#007F000000000000
(946688573.749995) can0 18FF01EA#2E00C9062E00C906
(946688573.749995) can0 18FF02EA#2E00D4062E00D406
(946688573.759995) can0 18FF1085#0000000327010027
(946688573.759995) can0 400#3F3E297428710000
(946688573.759995) can0 401#007E000000000000
(946688573.769995) can0 18FF01EA#2F00CD062F00CD06
(946688573.769995) can0 18FF02EA#2F00CB062F00CB06
(946688573.769995) can0 19B30007#00005E20ABA50000
(946688573.769995) can0 19B30100#D6D6D6D6D6D6D6D6
(946688573.789995) can0 18FF01EA#3000DD063000DD06
(946688573.789995) can0 18FF02EA#2E00D2062E00D206
(946688573.789995) can0 18FF1085#0000000327010027
(946688573.789995) can0 400#3F3F2874276F0000
(946688573.789995) can0 401#017F000000000000
(946688573.809995) can0 18FF01EA#3000EB063000EB06
(946688573.809995) can0 18FF02EA#2E00D5062E00D506
(946688573.819995) can0 18FF1085#0000000327010027
(946688573.819995) can0 400#3F3E277428760000
(946688573.819995) can0 401#017E000000000000
(946688573.829995) can0 18FF01EA#3000DC063000DC06
(946688573.829995) can0 18FF02EA#3000ED063000ED06
(946688573.849995) can0 18FF01EA#2F00E9062F00E906
(946688573.849995) can0 18FF02EA#2F00E6062F00E606
(946688573.849995) can0 18FF1085#0000000327010027
(946688573.849995) can0 400#4140297529740000
(946688573.849995) can0 401#007F000000000000
(946688573.869995) can0 18FF01EA#2E00F9062E00F906
(946688573.869995) can0 18FF02EA#3100DE063100DE06
(946688573.879995) can0 18FF1085#0000000327010027
(946688573.879995) can0 400#403F2871296F0000
(946688573.879995) can0 401#017F000000000000
(946688573.879995) can0 19B30007#00005E20ABA50000
(946688573.879995) can0 19B30100#D6D6D6D6D6D6D6D6
(946688573.889995) can0 18FF01EA#3000E0063000E006
(946688573.889995) can0 18FF02EA#3100E5063100E506
(946688573.909995) can0 18FF01EA#2F00F5062F00F506
(946688573.909995) can0 18FF02EA#2F00EF062F00EF06
(946688573.909995) can0 18FF1085#0000000327010027
(946688573.909995) can0 400#4241287028730000
(946688573.909995) can0 401#007E000000000000
(946688573.929995) can0 18FF01EA#3100EB063100EB06
(946688573.929995) can0 18FF02EA#3100DB063100DB06
(946688573.939995) can0 18FF1085#0000000327010027
(946688573.939995) can0 400#403E2771286F0000
(946688573.939995) can0 401#017E000000000000
(946688573.949995) can0 18FF01EA#2F00F8062F00F806
(946688573.949995) can0 18FF02EA#2F00F6062F00F606
(946688573.969995) can0 18FF01EA#2F00F0062F00F006
(946688573.969995) can0 18FF02EA#2E0002072E000207
(946688573.969995) can0 18FF1085#0000000327010027
(946688573.969995) can0 400#3E3F287529700000
(946688573.969995) can0 401#007E000000000000
(946688573.989995) can0 18FF01EA#3100F9063100F906
(946688573.989995) can0 18FF02EA#2E0006072E000607
(946688573.989995) can0 19B30007#00005E20ABA50000
(946688573.989995) can0 19B30100#D6D6D6D6D6D6D6D6
(946688573.999995) can0 18FF1085#0000000327010027
(946688573.999995) can0 400#423F287528770000
(946688573.999995) can0 401#007F000000000000
(946688574.009995) can0 18FF01EA#3000F8063000F806
(946688574.009995) can0 18FF02EA#2F00E6062F00E606
(946688574.029995) can0 18FF01EA#2F00F4062F00F406
(946688574.029995) can0 18FF02EA#3000F5063000F506
(946688574.029995) can0 18FF1085#0000000327010027
(946688574.029995) can0 400#403F297228760000
(946688574.029995) can0 401#0081000000000000
(946688574.049995) can0 18FF01EA#2C00F2062C00F206
(946688574.049995) can0 18FF02EA#2F00FE062F00FE06
(946688574.059995) can0 18FF1085#0000000325010025
(946688574.059995) can0 400#403F297728760000
(946688574.059995) can0 401#0086000000000000
(946688574.069995) can0 18FF01EA#2D0007072D000707
(946688574.069995) can0 18FF02EA#2D0003072D000307
(946688574.089995) can0 18FF01EA#2B00F9062B00F906
(946688574.089995) can0 18FF02EA#2B0007072B000707
(946688574.089995) can0 18FF1085#0000000324010024
(946688574.089995) can0 400#3F3F297129750000
(946688574.089995) can0 401#0188000000000000
(946688574.099995) can0 19B30007#00005E20ABA20000
(946688574.099995) can0 19B30100#D6D6D6D6D6D6D6D6
(946688574.109995) can0 18FF01EA#2A00F0062A00F006
(946688574.109995) can0 18FF02EA#2A00F9062A00F906
(946688574.119995) can0 18FF1085#0000000323010023
(946688574.119995) can0 400#4141287727700000
(946688574.119995) can0 401#008A000000000000
(946688574.129995) can0 18FF01EA#2A0003072A000307
(946688574.129995) can0 18FF02EA#2800F5062800F506
(946688574.149995) can0 18FF01EA#2800060728000607
(946688574.149995) can0 18FF02EA#28000C0728000C07
(946688574.149995) can0 18FF1085#0000000322010022
(946688574.149995) can0 400#3F41287628760000
(946688574.149995) can0 401#008C000000000000
(946688574.169995) can0 18FF01EA#29000A0729000A07
(946688574.169995) can0 18FF02EA#2800ED062800ED06
(946688574.179995) can0 18FF1085#0000000322010022
(946688574.179995) can0 400#3F42277328750000
(946688574.179995) can0 401#018E000000000000
(946688574.189995) can0 18FF01EA#27000F0727000F07
(946688574.189995) can0 18FF02EA#2800F3062800F306
(946688574.209995) can0 18FF01EA#28000C0728000C07
(946688574.209995) can0 18FF02EA#2700060727000607
(946688574.209995) can0 18FF1085#0000000321010021
(946688574.209995) can0 400#4040287829730000
(946688574.209995) can0 401#0090000000000000
(946688574.209995) can0 19B30007#00005E20AB9F0000
(946688574.209995) can0 19B30100#D6D6D6D6D6D6D6D6
(946688574.229995) can0 18FF01EA#2700120727001207
(946688574.229995) can0 18FF02EA#2600FD062600FD06
(946688574.239995) can0 18FF1085#0000000321010021
(946688574.239995) can0 400#4141287229710000
(946688574.239995) can0 401#0092000000000000
(946688574.249995) can0 18FF01EA#2800120728001207
(946688574.249995) can0 18FF02EA#2800010728000107
(946688574.269995) can0 18FF01EA#2800FA062800FA06
(946688574.269995) can0 18FF02EA#2600F5062600F506
(946688574.269995) can0 18FF1085#0000000320010020
(946688574.269995) can0 400#4142287529720000
(946688574.269995) can0 401#0192000000000000
(946688574.289995) can0 18FF01EA#2500100725001007
(946688574.289995) can0 18FF02EA#27000B0727000B07
(946688574.299995) can0 18FF1085#0000000320010020
(946688574.299995) can0 400#4042287728740000
(946688574.299995) can0 401#0093000000000000
(946688574.309995) can0 18FF01EA#28000A0728000A07
(946688574.309995) can0 18FF02EA#2400ED062400ED06
(946688574.319995) can0 19B30007#00005E20AB9E0000
(946688574.319995) can0 19B30100#D6D6D6D6D6D6D6D6
(946688574.329995) can0 18FF01EA#2500F2062500F206
(946688574.329995) can0 18FF02EA#2700F8062700F806
(946688574.329995) can0 18FF1085#000000031F01001F
(946688574.329995) can0 400#4241287727730000
(946688574.329995) can0 401#0194000000000000
(946688574.349995) can0 18FF01EA#28000E0728000E07
(946688574.349995) can0 18FF02EA#2400F5062400F506
(946688574.359995) can0 18FF1085#000000031F01001F
(946688574.359995) can0 400#43412970276F0000
(946688574.359995) can0 401#0095000000000000
(946688574.369995) can0 18FF01EA#2500040725000407
(946688574.369995) can0 18FF02EA#2500FD062500FD06
(946688574.389995) can0 18FF01EA#2600FD062600FD06
(946688574.389995) can0 18FF02EA#2500F7062500F706
(946688574.389995) can0 18FF1085#000000031F01001F
(946688574.389995) can0 400#4042297129700000
(946688574.389995) can0 401#0095000000000000
(946688574.409995) can0 18FF01EA#2500090725000907
(946688574.409995) can0 18FF02EA#2500080725000807
(946688574.419995) can0 18FF1085#000000031F01001F
(946688574.419995) can0 400#4140296F296F0000
(946688574.419995) can0 401#0195000000000000
(946688574.429995) can0 18FF01EA#25000A0725000A07
(946688574.429995) can0 18FF02EA#2400EF062400EF06
(946688574.429995) can0 19B30007#00005E20AB9D0000
(946688574.429995) can0 19B30100#D6D6D6D6D6D6D6D6
(946688574.449995) can0 18FF01EA#26000B0726000B07
(946688574.449995) can0 18FF02EA#2400010724000107
(946688574.449995) can0 18FF1085#000000031F01001F
(946688574.449995) can0 400#4141287428770000
(946688574.449995) can0 401#0096000000000000
(946688574.469995) can0 18FF01EA#2400E9062400E906
(946688574.469995) can0 18FF02EA#26000A0726000A07
(946688574.479995) can0 18FF1085#000000031E01001E
(946688574.479995) can0 400#3F40277727710000
(946688574.479995) can0 401#0096000000000000
(946688574.489995) can0 18FF01EA#2300EA062300EA06
(946688574.489995) can0 18FF02EA#25000F0725000F07
(946688574.509995) can0 18FF01EA#2600010726000107
(946688574.509995) can0 18FF02EA#2500ED062500ED06
(946688574.509995) can0 18FF1085#000000031E01001E
(946688574.509995) can0 400#4142287629700000
(946688574.509995) can0 401#0096000000000000
(946688574.529995) can0 18FF01EA#2300FF062300FF06
(946688574.529995) can0 18FF02EA#2300080723000807
(946688574.539995) can0 18FF1085#000000031E01001E
(946688574.539995) can0 400#4240297328720000
(946688574.539995) can0 401#0196000000000000
(946688574.539995) can0 19B30007#00005E20AB9C0000
(946688574.539995) can0 19B30100#D6D6D6D6D6D6D6D6
(946688574.549995) can0 18FF01EA#2400050724000507
(946688574.549995) can0 18FF02EA#2500EC062500EC06
(946688574.569995) can0 18FF01EA#2400070724000707
(946688574.569995) can0 18FF02EA#2600070726000707
(946688574.569995) can0 18FF1085#000000031E01001E
(946688574.569995) can0 400#4042277328740000
(946688574.569995) can0 401#0095000000000000
(946688574.589995) can0 18FF01EA#2300F9062300F906
(946688574.589995) can0 18FF02EA#2600070726000707
(946688574.599995) can0 18FF1085#000000031E01001E
(946688574.599995) can0 400#403E296F29730000
(946688574.599995) can0 401#0195000000000000
(946688574.609995) can0 18FF01EA#2500EF062500EF06
(946688574.609995) can0 18FF02EA#2400000724000007
(946688574.629995) can0 18FF01EA#2600EB062600EB06
(946688574.629995) can0 18FF02EA#2400EF062400EF06
(946688574.629995) can0 18FF1085#000000031E01001E
(946688574.629995) can0 400#3F41287029710000
(946688574.629995) can0 401#0196000000000000
(946688574.649995) can0 18FF01EA#2200070722000707
(946688574.649995) can0 18FF02EA#2400FE062400FE06
(946688574.649995) can0 19B30007#00005E20AB9C0000
(946688574.649995) can0 19B30100#D6D6D6D6D6D6D6D6
(946688574.659995) can0 18FF1085#000000031E01001E
(946688574.659995) can0 400#42402975286F0000
(946688574.659995) can0 401#0096000000000000
(946688574.669995) can0 18FF01EA#2400E6062400E606
(946688574.669995) can0 18FF02EA#2600060726000607
(946688574.689995) can0 18FF01EA#2300E7062300E706
(946688574.689995) can0 18FF02EA#2300060723000607
(946688574.689995) can0 18FF1085#000000031E01001E
(946688574.689995) can0 400#4142287528700000
(946688574.689995) can0 401#0096000000000000
(946688574.709995) can0 18FF01EA#2300070723000707
(946688574.709995) can0 18FF02EA#2400E6062400E606
(946688574.719995) can0 18FF1085#000000031E01001E
(946688574.719995) can0 400#3F3F287628700000
(946688574.719995) can0 401#0197000000000000
(946688574.729995) can0 18FF01EA#2600060726000607
(946688574.729995) can0 18FF02EA#2300060723000607
(946688574.749995) can0 18FF01EA#2300F6062300F606
(946688574.749995) can0 18FF02EA#2300EE062300EE06
(946688574.749995) can0 18FF1085#000000031E01001E
(946688574.749995) can0 400#413F297128730000
(946688574.749995) can0 401#0096000000000000
(946688574.759995) can0 19B30007#00005E20AB9C0000
(946688574.759995) can0 19B30100#D6D6D6D6D6D6D6D6
(946688574.769994) can0 18FF01EA#2400050724000507
(946688574.769994) can0 18FF02EA#2400FE062400FE06
(946688574.779994) can0 18FF1085#000000031E01001E
(946688574.779994) can0 400#4040277128760000
(946688574.779994) can0 401#0097000000000000
(946688574.789994) can0 18FF01EA#2300E1062300E106
(946688574.789994) can0 18FF02EA#2400EE062400EE06
(946688574.809994) can0 18FF01EA#2300DC062300DC06
(946688574.809994) can0 18FF02EA#2200F4062200F406
(946688574.809994) can0 18FF1085#000000031E01001E
(946688574.809994) can0 400#413F287129770000
(946688574.809994) can0 401#0097000000000000
(946688574.829994) can0 18FF01EA#2400F3062400F306
(946688574.829994) can0 18FF02EA#2300FB062300FB06
(946688574.839994) can0 18FF1085#000000031E01001E
(946688574.839994) can0 400#4141287128710000
(946688574.839994) can0 401#0096000000000000
(946688574.849994) can0 18FF01EA#2300EC062300EC06
(946688574.849994) can0 18FF02EA#2400E7062400E706
(946688574.869994) can0 18FF01EA#2500ED062500ED06
(946688574.869994) can0 18FF02EA#2400FC062400FC06
(946688574.869994) can0 18FF1085#000000031E01001E
(946688574.869994) can0 400#3F42287229740000
(946688574.869994) can0 401#0097000000000000
(946688574.869994) can0 19B30007#00005E20AB9C0000
(946688574.869994) can0 19B30100#D6D6D6D6D6D6D6D6
(946688574.889994) can0 18FF01EA#2400E9062400E906
(946688574.889994) can0 18FF02EA#2400E7062400E706
(946688574.899994) can0 18FF1085#000000031E01001E
(946688574.899994) can0 400#4241296F29720000
(946688574.899994) can0 401#0097000000000000
(946688574.909994) can0 18FF01EA#2200FB062200FB06
(946688574.909994) can0 18FF02EA#2200D9062200D906
(946688574.929994) can0 18FF01EA#2500ED062500ED06
(946688574.929994) can0 18FF02EA#2400D8062400D806
(946688574.929994) can0 18FF1085#000000031E01001E
(946688574.929994) can0 400#3F3F276F28750000
(946688574.929994) can0 401#0196000000000000
(946688574.949994) can0 18FF01EA#2400D7062400D706
(946688574.949994) can0 18FF02EA#2500E8062500E806
(946688574.959994) can0 18FF1085#000000031E01001E
(946688574.959994) can0 400#403E2973296F0000
(946688574.959994) can0 401#0096000000000000
(946688574.969994) can0 18FF01EA#2400ED062400ED06
(946688574.969994) can0 18FF02EA#2600E0062600E006
(946688574.979994) can0 19B30007#00005E20AB9C0000
(946688574.979994) can0 19B30100#D6D6D6D6D6D6D6D6
(946688574.989994) can0 18FF01EA#2200E5062200E506
(946688574.989994) can0 18FF02EA#2400F2062400F206
(946688574.989994) can0 18FF1085#000000031E01001E
(946688574.989994) can0 400#3F3E297228770000
(946688574.989994) can0 401#0096000000000000
(946688575.009994) can0 18FF01EA#2400F3062400F306
(946688575.009994) can0 18FF02EA#2400DA062400DA06
(946688575.019994) can0 18FF1085#000000031E01001E
(946688575.019994) can0 400#3F402775286F0000
(946688575.019994) can0 401#0096000000000000
(946688575.029994) can0 18FF01EA#2400E9062400E906
(946688575.029994) can0 18FF02EA#2300DD062300DD06
(946688575.049994) can0 18FF01EA#2400E6062400E606
(946688575.049994) can0 18FF02EA#2400F3062400F306
(946688575.049994) can0 18FF1085#000000031E01001E
(946688575.049994) can0 400#413F287429720000
(946688575.049994) can0 401#0098000000000000
(946688575.069994) can0 18FF01EA#2400E9062400E906
(946688575.069994) can0 18FF02EA#2200E3062200E306
(946688575.079994) can0 18FF1085#000000031E01001E
(946688575.079994) can0 400#3F3E287228720000
(946688575.079994) can0 401#0097000000000000
(946688575.089994) can0 18FF01EA#2500DC062500DC06
(946688575.089994) can0 18FF02EA#2400E5062400E506
(946688575.089994) can0 19B30007#00005E20AB9C0000
(946688575.089994) can0 19B30100#D6D6D6D6D6D6D6D6
(946688575.109994) can0 18FF01EA#2300F5062300F506
(946688575.109994) can0 18FF02EA#2200F2062200F206
(946688575.109994) can0 18FF1085#000000031E01001E
(946688575.109994) can0 400#403E287127720000
(946688575.109994) can0 401#0096000000000000
(946688575.129994) can0 18FF01EA#2300DA062300DA06
(946688575.129994) can0 18FF02EA#2400F0062400F006
(946688575.139994) can0 18FF1085#000000031E01001E
(946688575.139994) can0 400#403E297627740000
(946688575.139994) can0 401#0097000000000000
(946688575.149994) can0 18FF01EA#2600F0062600F006
(946688575.149994) can0 18FF02EA#2400DB062400DB06
(946688575.169994) can0 18FF01EA#2400D1062400D106
(946688575.169994) can0 18FF02EA#2300EE062300EE06
(946688575.169994) can0 18FF1085#000000031E01001E
(946688575.169994) can0 400#403F287427740000
(946688575.169994) can0 401#0197000000000000
(946688575.189994) can0 18FF01EA#2400DB062400DB06
(946688575.189994) can0 18FF02EA#2200DB062200DB06
(946688575.199994) can0 18FF1085#000000031E01001E
(946688575.199994) can0 400#403E297729770000
(946688575.199994) can0 401#0097000000000000
(946688575.199994) can0 19B30007#00005E20AB9C0000
(946688575.199994) can0 19B30100#D6D6D6D6D6D6D6D6
(946688575.209994) can0 18FF01EA#2200E3062200E306
(946688575.209994) can0 18FF02EA#2200E9062200E906
(946688575.229994) can0 18FF01EA#2200E3062200E306
(946688575.229994) can0 18FF02EA#2500E8062500E806
(946688575.229994) can0 18FF1085#000000031E01001E
(946688575.229994) can0 400#3E3E286F28720000
(946688575.229994) can0 401#0096000000000000
(946688575.249994) can0 18FF01EA#2300D4062300D406
(946688575.249994) can0 18FF02EA#2300EA062300EA06
(946688575.259994) can0 18FF1085#000000031E01001E
(946688575.259994) can0 400#3E40297028740000
(946688575.259994) can0 401#0097000000000000
(946688575.269994) can0 18FF01EA#2200D8062200D806
(946688575.269994) can0 18FF02EA#2200CC062200CC06
(946688575.289994) can0 18FF01EA#2200EB062200EB06
(946688575.289994) can0 18FF02EA#2300DA062300DA06
(946688575.289994) can0 18FF1085#000000031E01001E
(946688575.289994) can0 400#3E3E297828720000
(946688575.289994) can0 401#0097000000000000
(946688575.309994) can0 18FF01EA#2500DF062500DF06
(946688575.309994) can0 18FF02EA#2200CE062200CE06
(946688575.309994) can0 19B30007#00005E20AB9B0000
(946688575.309994) can0 19B30100#D6D6D6D6D6D6D6D6
(946688575.319994) can0 18FF1085#000000031E01001E
(946688575.319994) can0 400#4141297227780000
(946688575.319994) can0 401#0096000000000000
(946688575.329994) can0 18FF01EA#2200ED062200ED06
(946688575.329994) can0 18FF02EA#2500D2062500D206
(946688575.349994) can0 18FF01EA#2300E7062300E706
(946688575.349994) can0 18FF02EA#2500DE062500DE06
(946688575.349994) can0 18FF1085#000000031E01001E
(946688575.349994) can0 400#41402972296F0000
(946688575.349994) can0 401#0096000000000000
(946688575.369994) can0 18FF01EA#2400E4062400E406
(946688575.369994) can0 18FF02EA#2200E5062200E506
(946688575.379994) can0 18FF1085#000000031E01001E
(946688575.379994) can0 400#3F41297629700000
(946688575.379994) can0 401#0197000000000000
(946688575.389994) can0 18FF01EA#2300DE062300DE06
(946688575.389994) can0 18FF02EA#2500E2062500E206
(946688575.409994) can0 18FF01EA#2500F0062500F006
(946688575.409994) can0 18FF02EA#2200D2062200D206
(946688575.409994) can0 18FF1085#000000031E01001E
(946688575.409994) can0 400#413E297427730000
(946688575.409994) can0 401#0196000000000000
(946688575.419994) can0 19B30007#00005E20AB9B0000
(946688575.419994) can0 19B30100#D6D6D6D6D6D6D6D6
(946688575.429994) can0 18FF01EA#2400CC062400CC06
(946688575.429994) can0 18FF02EA#2500ED062500ED06
(946688575.439994) can0 18FF1085#000000031E01001E
(946688575.439994) can0 400#4041277727770000
(946688575.439994) can0 401#0196000000000000
(946688575.449994) can0 18FF01EA#2300D2062300D206
(946688575.449994) can0 18FF02EA#2400E1062400E106
(946688575.469994) can0 18FF01EA#2200C7062200C706
(946688575.469994) can0 18FF02EA#2300D2062300D206
(946688575.469994) can0 18FF1085#000000031E01001E
(946688575.469994) can0 400#3F40297329700000
(946688575.469994) can0 401#0096000000000000
(946688575.489994) can0 18FF01EA#2300CA062300CA06
(946688575.489994) can0 18FF02EA#2400E3062400E306
(946688575.499994) can0 18FF1085#000000031E01001E
(946688575.499994) can0 400#4040287128780000
(946688575.499994) can0 401#0096000000000000
(946688575.509994) can0 18FF01EA#2500E6062500E606
(946688575.509994) can0 18FF02EA#2400EB062400EB06
(946688575.529994) can0 18FF01EA#2400C7062400C706
(946688575.529994) can0 18FF02EA#2400CB062400CB06
(946688575.529994) can0 18FF1085#000000031E01001E
(946688575.529994) can0 400#3E40296F276E0000
(946688575.529994) can0 401#0096000000000000
(946688575.529994) can0 19B30007#00005E20AB9B0000
(946688575.529994) can0 19B30100#D6D6D6D6D6D6D6D6
(946688575.549994) can0 18FF01EA#2200DF062200DF06
(946688575.549994) can0 18FF02EA#2200DE062200DE06
(946688575.559994) can0 18FF1085#000000031E01001E
(946688575.559994) can0 400#4040297429720000
(946688575.559994) can0 401#0096000000000000
(946688575.569994) can0 18FF01EA#2400C4062400C406
(946688575.569994) can0 18FF02EA#2500DF062500DF06
(946688575.589994) can0 18FF01EA#2200D4062200D406
(946688575.589994) can0 18FF02EA#2200E8062200E806
(946688575.589994) can0 18FF1085#000000031E01001E
(946688575.589994) can0 400#403D286F27780000
(946688575.589994) can0 401#0097000000000000
(946688575.609994) can0 18FF01EA#2500C3062500C306
(946688575.609994) can0 18FF02EA#2500D2062500D206
(946688575.619994) can0 18FF1085#000000031E01001E
(946688575.619994) can0 400#3E40297029780000
(946688575.619994) can0 401#0097000000000000
(946688575.629994) can0 18FF01EA#2300DE062300DE06
(946688575.629994) can0 18FF02EA#2400C3062400C306
(946688575.639994) can0 19B30007#00005E20AB9B0000
(946688575.639994) can0 19B30100#D6D6D6D6D6D6D6D6
(946688575.649994) can0 18FF01EA#2500D8062500D806
(946688575.649994) can0 18FF02EA#2200D5062200D506
(946688575.649994) can0 18FF1085#000000031E01001E
(946688575.649994) can0 400#4040287528700000
(946688575.649994) can0 401#0097000000000000
(946688575.669994) can0 18FF01EA#2400CE062400CE06
(946688575.669994) can0 18FF02EA#2400E4062400E406
(946688575.679994) can0 18FF1085#000000031E01001E
(946688575.679994) can0 400#3F40297827780000
(946688575.679994) can0 401#0096000000000000
(946688575.689994) can0 18FF01EA#2400CB062400CB06
(946688575.689994) can0 18FF02EA#2300E7062300E706
(946688575.709994) can0 18FF01EA#2300E2062300E206
(946688575.709994) can0 18FF02EA#2500D5062500D506
(946688575.709994) can0 18FF1085#000000031E01001E
(946688575.709994) can0 400#413F2971286F0000
(946688575.709994) can0 401#0096000000000000
(946688575.729994) can0 18FF01EA#2300E3062300E306
(946688575.729994) can0 18FF02EA#2300D1062300D106
(946688575.739994) can0 18FF1085#000000031E01001E
(946688575.739994) can0 400#3D3F297328720000
(946688575.739994) can0 401#0097000000000000
(946688575.749994) can0 18FF01EA#2200CF062200CF06
(946688575.749994) can0 18FF02EA#2500D6062500D606
(946688575.749994) can0 19B30007#00005E20AB9B0000
(946688575.749994) can0 19B30100#D6D6D6D6D6D6D6D6
(946688575.769994) can0 18FF01EA#2400D1062400D106
(946688575.769994) can0 18FF02EA#2300BF062300BF06
(946688575.769994) can0 18FF1085#000000031E01001E
(946688575.769994) can0 400#3E40286F28710000
(946688575.769994) can0 401#0097000000000000
(946688575.789994) can0 18FF01EA#2300C7062300C706
(946688575.789994) can0 18FF02EA#2400E5062400E506
(946688575.799994) can0 18FF1085#000000031E01001E
(946688575.799994) can0 400#3F3F277029750000
(946688575.799994) can0 401#0097000000000000
(946688575.809994) can0 18FF01EA#2400C6062400C606
(946688575.809994) can0 18FF02EA#2200DD062200DD06
(946688575.829993) can0 18FF01EA#2400C5062400C506
(946688575.829993) can0 18FF02EA#2400E0062400E006
(946688575.829993) can0 18FF1085#000000031E01001E
(946688575.829993) can0 400#3F3E297129730000
(946688575.829993) can0 401#0097000000000000
(946688575.849993) can0 18FF01EA#2500BE062500BE06
(946688575.849993) can0 18FF02EA#2200C7062200C706
(946688575.859993) can0 18FF1085#000000031E01001E
(946688575.859993) can0 400#403E287727750000
(946688575.859993) can0 401#0096000000000000
(946688575.859993) can0 19B30007#00005E20AB9B0000
(946688575.859993) can0 19B30100#D6D6D6D6D6D6D6D6
(946688575.869993) can0 18FF01EA#2400DE062400DE06
(946688575.869993) can0 18FF02EA#2200C3062200C306
(946688575.889993) can0 18FF01EA#2300D2062300D206
(946688575.889993) can0 18FF02EA#2200D8062200D806
(946688575.889993) can0 18FF1085#000000031E01001E
(946688575.889993) can0 400#3E3F287229740000
(946688575.889993) can0 401#0096000000000000
(946688575.909993) can0 18FF01EA#2200BD062200BD06
(946688575.909993) can0 18FF02EA#2200CA062200CA06
(946688575.919993) can0 18FF1085#000000031E01001E
(946688575.919993) can0 400#403F297828710000
(946688575.919993) can0 401#0197000000000000
(946688575.929993) can0 18FF01EA#2300CC062300CC06
(946688575.929993) can0 18FF02EA#2300BD062300BD06
(946688575.949993) can0 18FF01EA#2200C5062200C506
(946688575.949993) can0 18FF02EA#2400D7062400D706
(946688575.949993) can0 18FF1085#000000031E01001E
(946688575.949993) can0 400#3E41297629750000
(946688575.949993) can0 401#0095000000000000
(946688575.969993) can0 18FF01EA#2400BF062400BF06
(946688575.969993) can0 18FF02EA#2300C6062300C606
(946688575.969993) can0 19B30007#00005E20AB9B0000
(946688575.969993) can0 19B30100#D6D6D6D6D6D6D6D6
(946688575.979993) can0 18FF1085#000000031E01001E
(946688575.979993) can0 400#4040287128720000
(946688575.979993) can0 401#0097000000000000
(946688575.989993) can0 18FF01EA#2300C7062300C706
(946688575.989993) can0 18FF02EA#2500C2062500C206
(946688576.009993) can0 18FF01EA#2500BE062500BE06
(946688576.009993) can0 18FF02EA#2500CE062500CE06
(946688576.009993) can0 18FF1085#000000031E01001E
(946688576.009993) can0 400#4040297329730000
(946688576.009993) can0 401#0096000000000000
(946688576.029993) can0 18FF01EA#2200C7062200C706
(946688576.029993) can0 18FF02EA#2300CA062300CA06
(946688576.039993) can0 18FF1085#000000031E01001E
(946688576.039993) can0 400#413F287029760000
(946688576.039993) can0 401#0197000000000000
(946688576.049993) can0 18FF01EA#2500DF062500DF06
(946688576.049993) can0 18FF02EA#2200C8062200C806
(946688576.069993) can0 18FF01EA#2500CA062500CA06
(946688576.069993) can0 18FF02EA#2400C8062400C806
(946688576.069993) can0 18FF1085#000000031E01001E
(946688576.069993) can0 400#3E3F287328770000
(946688576.069993) can0 401#0097000000000000
(946688576.079993) can0 19B30007#00005E20AB9B0000
(946688576.079993) can0 19B30100#D6D6D6D6D6D6D6D6
(946688576.089993) can0 18FF01EA#2300CF062300CF06
(946688576.089993) can0 18FF02EA#2400C1062400C106
(946688576.099993) can0 18FF1085#000000031E01001E
(946688576.099993) can0 400#3E3F297227750000
(946688576.099993) can0 401#0097000000000000
(946688576.109993) can0 18FF01EA#2400C0062400C006
(946688576.109993) can0 18FF02EA#2500C1062500C106
(946688576.129993) can0 18FF01EA#2200D2062200D206
(946688576.129993) can0 18FF02EA#2400D1062400D106
(946688576.129993) can0 18FF1085#000000031E01001E
(946688576.129993) can0 400#3E41286E28770000
(946688576.129993) can0 401#0096000000000000
(946688576.149993) can0 18FF01EA#2200D8062200D806
(946688576.149993) can0 18FF02EA#2200BE062200BE06
(946688576.159993) can0 18FF1085#000000031E01001E
(946688576.159993) can0 400#3D3D287329710000
(946688576.159993) can0 401#0097000000000000
(946688576.169993) can0 18FF01EA#2400B7062400B706
(946688576.169993) can0 18FF02EA#2400C0062400C006
(946688576.189993) can0 18FF01EA#2200CE062200CE06
(946688576.189993) can0 18FF02EA#2500B9062500B906
(946688576.189993) can0 18FF1085#000000031E01001E
(946688576.189993) can0 400#403E287129770000
(946688576.189993) can0 401#0196000000000000
(946688576.189993) can0 19B30007#00005E20AB9B0000
(946688576.189993) can0 19B30100#D6D6D6D6D6D6D6D6
(946688576.209993) can0 18FF01EA#2400D6062400D606
(946688576.209993) can0 18FF02EA#2400B5062400B506
(946688576.219993) can0 18FF1085#000000031E01001E
(946688576.219993) can0 400#3D3E297829710000
(946688576.219993) can0 401#0196000000000000
(946688576.229993) can0 18FF01EA#2500D8062500D806
(946688576.229993) can0 18FF02EA#2400BE062400BE06
(946688576.249993) can0 18FF01EA#2300BD062300BD06
(946688576.249993) can0 18FF02EA#2400B8062400B806
(946688576.249993) can0 18FF1085#000000031E01001E
(946688576.249993) can0 400#3E40297428730000
(946688576.249993) can0 401#0095000000000000
(946688576.269993) can0 18FF01EA#2200DA062200DA06
(946688576.269993) can0 18FF02EA#2500C7062500C706
(946688576.279993) can0 18FF1085#000000031E01001E
(946688576.279993) can0 400#3E3D296F27720000
(946688576.279993) can0 401#0097000000000000
(946688576.289993) can0 18FF01EA#2300B4062300B406
(946688576.289993) can0 18FF02EA#2400D9062400D906
(946688576.299993) can0 19B30007#00005E20AB9B0000
(946688576.299993) can0 19B30100#D6D6D6D6D6D6D6D6
(946688576.309993) can0 18FF01EA#2200BA062200BA06
(946688576.309993) can0 18FF02EA#2500B9062500B906
(946688576.309993) can0 18FF1085#000000031E01001E
(946688576.309993) can0 400#3E3E287628740000
(946688576.309993) can0 401#0097000000000000
(946688576.329993) can0 18FF01EA#2500B6062500B606
(946688576.329993) can0 18FF02EA#2300B8062300B806
(946688576.339993) can0 18FF1085#000000031E01001E
(946688576.339993) can0 400#3F3F276E29720000
(946688576.339993) can0 401#0196000000000000
(946688576.349993) can0 18FF01EA#2200B5062200B506
(946688576.349993) can0 18FF02EA#2400B6062400B606
(946688576.369993) can0 18FF01EA#2400D3062400D306
(946688576.369993) can0 18FF02EA#2400D2062400D206
(946688576.369993) can0 18FF1085#000000031E01001E
(946688576.369993) can0 400#3E3D287529730000
(946688576.369993) can0 401#0097000000000000
(946688576.389993) can0 18FF01EA#2300D6062300D606
(946688576.389993) can0 18FF02EA#2400B3062400B306
(946688576.399993) can0 18FF1085#000000031E01001E
(946688576.399993) can0 400#3D40297728760000
(946688576.399993) can0 401#0195000000000000
(946688576.409993) can0 18FF01EA#2400C5062400C506
(946688576.409993) can0 18FF02EA#2200C0062200C006
(946688576.409993) can0 19B30007#00005E20AB9B0000
(946688576.409993) can0 19B30100#D6D6D6D6D6D6D6D6
(946688576.429993) can0 18FF01EA#2200C3062200C306
(946688576.429993) can0 18FF02EA#2200C2062200C206
(946688576.429993) can0 18FF1085#000000031E01001E
(946688576.429993) can0 400#3F3E286F28730000
(946688576.429993) can0 401#0096000000000000
(946688576.449993) can0 18FF01EA#2200B0062200B006
(946688576.449993) can0 18FF02EA#2300CD062300CD06
(946688576.459993) can0 18FF1085#000000031E01001E
(946688576.459993) can0 400#3F40297028730000
(946688576.459993) can0 401#0096000000000000
(946688576.469993) can0 18FF01EA#2500BF062500BF06
(946688576.469993) can0 18FF02EA#2200D6062200D606
(946688576.489993) can0 18FF01EA#2300BD062300BD06
(946688576.489993) can0 18FF02EA#2300C2062300C206
(946688576.489993) can0 18FF1085#000000031E01001E
(946688576.489993) can0 400#403F2874286E0000
(946688576.489993) can0 401#0095000000000000
(946688576.509993) can0 18FF01EA#2400B9062400B906
(946688576.509993) can0 18FF02EA#2200C2062200C206
(946688576.519993) can0 18FF1085#000000031E01001E
(946688576.519993) can0 400#3F3E297529720000
(946688576.519993) can0 401#0096000000000000
(946688576.519993) can0 19B30007#00005E20AB9B0000
(946688576.519993) can0 19B30100#D6D6D6D6D6D6D6D6
(946688576.529993) can0 18FF01EA#2400CE062400CE06
(946688576.529993) can0 18FF02EA#2300C5062300C506
(946688576.549993) can0 18FF01EA#2300B9062300B906
(946688576.549993) can0 18FF02EA#2300CB062300CB06
(946688576.549993) can0 18FF1085#000000031E01001E
(946688576.549993) can0 400#403F297728730000
(946688576.549993) can0 401#0096000000000000
(946688576.569993) can0 18FF01EA#2500CF062500CF06
(946688576.569993) can0 18FF02EA#2200B5062200B506
(946688576.579993) can0 18FF1085#000000031E01001E
(946688576.579993) can0 400#403F287429700000
(946688576.579993) can0 401#0097000000000000
(946688576.589993) can0 18FF01EA#2500B6062500B606
(946688576.589993) can0 18FF02EA#2500CF062500CF06
(946688576.609993) can0 18FF01EA#2300CB062300CB06
(946688576.609993) can0 18FF02EA#2500CF062500CF06
(946688576.609993) can0 18FF1085#000000031E01001E
(946688576.609993) can0 400#3F3F297428720000
(946688576.609993) can0 401#0095000000000000
(946688576.629993) can0 18FF01EA#2200B4062200B406
(946688576.629993) can0 18FF02EA#2500B6062500B606
(946688576.629993) can0 19B30007#00005E20AB9B0000
(946688576.629993) can0 19B30100#D6D6D6D6D6D6D6D6
(946688576.639993) can0 18FF1085#000000031E01001E
(946688576.639993) can0 400#3F3F287429770000
(946688576.639993) can0 401#0095000000000000
(946688576.649993) can0 18FF01EA#2200B8062200B806
(946688576.649993) can0 18FF02EA#2500D3062500D306
(946688576.669993) can0 18FF01EA#2400B5062400B506
(946688576.669993) can0 18FF02EA#2400D0062400D006
(946688576.669993) can0 18FF1085#000000031E01001E
(946688576.669993) can0 400#403D287529760000
(946688576.669993) can0 401#0195000000000000
(946688576.689993) can0 18FF01EA#2400B3062400B306
(946688576.689993) can0 18FF02EA#2300CC062300CC06
(946688576.699993) can0 18FF1085#000000031E01001E
(946688576.699993) can0 400#403F287428720000
(946688576.699993) can0 401#0096000000000000
(946688576.709993) can0 18FF01EA#2200D3062200D306
(946688576.709993) can0 18FF02EA#2500AE062500AE06
(946688576.729993) can0 18FF01EA#2300BA062300BA06
(946688576.729993) can0 18FF02EA#2200AE062200AE06
(946688576.729993) can0 18FF1085#000000031E01001E
(946688576.729993) can0 400#3E3D287728730000
(946688576.729993) can0 401#0096000000000000
(946688576.739993) can0 19B30007#00005E20AB9B0000
(946688576.739993) can0 19B30100#D6D6D6D6D6D6D6D6
(946688576.749993) can0 18FF01EA#2300BA062300BA06
(946688576.749993) can0 18FF02EA#2400C6062400C606
(946688576.759993) can0 18FF1085#000000031E01001E
(946688576.759993) can0 400#403F287128740000
(946688576.759993) can0 401#0196000000000000
(946688576.769993) can0 18FF01EA#2300B0062300B006
(946688576.769993) can0 18FF02EA#2500CC062500CC06
(946688576.789993) can0 18FF01EA#2300BF062300BF06
(946688576.789993) can0 18FF02EA#2300B3062300B306
(946688576.789993) can0 18FF1085#000000031E01001E
(946688576.789993) can0 400#3F40297328710000
(946688576.789993) can0 401#0097000000000000
(946688576.809993) can0 18FF01EA#2400BF062400BF06
(946688576.809993) can0 18FF02EA#2400C0062400C006
(946688576.819993) can0 18FF1085#000000031E01001E
(946688576.819993) can0 400#403E287628720000
(946688576.819993) can0 401#0196000000000000
(946688576.829993) can0 18FF01EA#2300B5062300B506
(946688576.829993) can0 18FF02EA#2400AE062400AE06
(946688576.849993) can0 18FF01EA#2300CB062300CB06
(946688576.849993) can0 18FF02EA#2300C5062300C506
(946688576.849993) can0 18FF1085#000000031E01001E
(946688576.849993) can0 400#3D3F297228710000
(946688576.849993) can0 401#0196000000000000
(946688576.849993) can0 19B30007#00005E20AB9B0000
(946688576.849993) can0 19B30100#D6D6D6D6D6D6D6D6
(946688576.869992) can0 18FF01EA#2400B3062400B306
(946688576.869992) can0 18FF02EA#2400B8062400B806
(946688576.879992) can0 18FF1085#000000031E01001E
(946688576.879992) can0 400#3C3F2874286F0000
(946688576.879992) can0 401#0095000000000000
(946688576.889992) can0 18FF01EA#2400C3062400C306
(946688576.889992) can0 18FF02EA#2400C3062400C306
(946688576.909992) can0 18FF01EA#2400AE062400AE06
(946688576.909992) can0 18FF02EA#2400B4062400B406
(946688576.909992) can0 18FF1085#000000031E01001E
(946688576.909992) can0 400#3E3E286F29770000
(946688576.909992) can0 401#0096000000000000
(946688576.929992) can0 18FF01EA#2200CB062200CB06
(946688576.929992) can0 18FF02EA#2400B5062400B506
(946688576.939992) can0 18FF1085#000000031E01001E
(946688576.939992) can0 400#3E3F287628770000
(946688576.939992) can0 401#0095000000000000
(946688576.949992) can0 18FF01EA#2200CE062200CE06
(946688576.949992) can0 18FF02EA#2200B7062200B706
(946688576.959992) can0 19B30007#00005E20AB9B0000
(946688576.959992) can0 19B30100#D6D6D6D6D6D6D6D6
(946688576.969992) can0 18FF01EA#2200AD062200AD06
(946688576.969992) can0 18FF02EA#2300BC062300BC06
(946688576.969992) can0 18FF1085#000000031E01001E
(946688576.969992) can0 400#3E3D297129710000
(946688576.969992) can0 401#0097000000000000
(946688576.989992) can0 18FF01EA#2400B8062400B806
(946688576.989992) can0 18FF02EA#2500CF062500CF06
(946688576.999992) can0 18FF1085#000000031E01001E
(946688576.999992) can0 400#3D3E297129730000
(946688576.999992) can0 401#0197000000000000
(946688577.009992) can0 18FF01EA#2200BF062200BF06
(946688577.009992) can0 18FF02EA#2200B0062200B006
(946688577.029992) can0 18FF01EA#2300B2062300B206
(946688577.029992) can0 18FF02EA#2200B5062200B506
(946688577.029992) can0 18FF1085#000000031E01001E
(946688577.029992) can0 400#3E3F286E2A730000
(946688577.029992) can0 401#0096000000000000
(946688577.049992) can0 18FF01EA#2200AB062200AB06
(946688577.049992) can0 18FF02EA#2300C0062300C006
(946688577.059992) can0 18FF1085#000000031E01001E
(946688577.059992) can0 400#3F3D286E29710000
(946688577.059992) can0 401#0195000000000000
(946688577.069992) can0 18FF01EA#2500B0062500B006
(946688577.069992) can0 18FF02EA#2200C4062200C406
(946688577.069992) can0 19B30007#00005E20AB9B0000
(946688577.069992) can0 19B30100#D6D6D6D6D6D6D6D6
(946688577.089992) can0 18FF01EA#2500B0062500B006
(946688577.089992) can0 18FF02EA#2500A7062500A706
(946688577.089992) can0 18FF1085#000000031E01001E
(946688577.089992) can0 400#3D3D28742A730000
(946688577.089992) can0 401#0095000000000000
(946688577.109992) can0 18FF01EA#2500CC062500CC06
(946688577.109992) can0 18FF02EA#2500C4062500C406
(946688577.119992) can0 18FF1085#000000031E01001E
(946688577.119992) can0 400#3F3F29762A700000
(946688577.119992) can0 401#0096000000000000
(946688577.129992) can0 18FF01EA#2300BB062300BB06
(946688577.129992) can0 18FF02EA#2500B5062500B506
(946688577.149992) can0 18FF01EA#2500B9062500B906
(946688577.149992) can0 18FF02EA#2300A6062300A606
(946688577.149992) can0 18FF1085#000000031E01001E
(946688577.149992) can0 400#403E2870286F0000
