(946688569.010000) can0 001#0F00000000000000
(946688569.010000) can0 002#D503000000000000
(946688569.020000) can0 001#1F00000000000000
(946688569.020000) can0 002#D503000000000000
(946688569.020000) can0 18FF1515#0000000303010003
(946688569.020000) can0 400#0000276027630000
(946688569.020000) can0 401#007F000000000000
(946688569.040000) can0 001#3B00000000000000
(946688569.040000) can0 002#D503000001000000
(946688569.040000) can0 18FF1515#0000000307010007
(946688569.040000) can0 400#0000286328680000
(946688569.040000) can0 401#017E000000000000
(946688569.050000) can0 001#4800000000000000
(946688569.050000) can0 002#D503000002000000
(946688569.060000) can0 001#5400000000000000
(946688569.060000) can0 002#D503000003000000
(946688569.060000) can0 18FF1515#000000030A01000A
(946688569.060000) can0 400#0000276627610000
(946688569.060000) can0 401#017F000000000000
(946688569.070000) can0 001#6000000000000000
(946688569.070000) can0 002#D503000004000000
(946688569.090000) can0 001#7600000000000000
(946688569.090000) can0 002#D503000006000000
(946688569.090000) can0 18FF1515#000000030E01000E
(946688569.090000) can0 400#0001286428630000
(946688569.090000) can0 401#007F000000000000
(946688569.110000) can0 001#8900000000000000
(946688569.110000) can0 002#D503000008000000
(946688569.110000) can0 18FF01EA#0A117D677D007D50
(946688569.110000) can0 18FF02EA#0A117D677D007D50
(946688569.110000) can0 19B50001#8CA0960000000000
(946688569.110000) can0 19B50008#8286840000000000
(946688569.110000) can0 19B50100#9696969696969696
(946688569.110000) can0 19B50800#8484848484848484
(946688569.120000) can0 18FF1515#0000000312010012
(946688569.120000) can0 400#0100286327620000
(946688569.120000) can0 401#007F000000000000
(946688569.130000) can0 001#9B00000000000000
(946688569.130000) can0 002#D50300000C000000
(946688569.140000) can0 001#A300000000000000
(946688569.140000) can0 002#D50300000D000000
(946688569.140000) can0 18FF1515#0000000314010014
(946688569.140000) can0 400#0000286627680000
(946688569.140000) can0 401#007E000000000000
(946688569.150000) can0 001#AB00000000000000
(946688569.150000) can0 002#D50300000F000000
(946688569.160000) can0 001#B200000000000000
(946688569.160000) can0 002#D503000011000000
(946688569.160000) can0 18FF1515#0000000316010016
(946688569.160000) can0 400#0100286728650000
(946688569.160000) can0 401#017F000000000000
(946688569.170000) can0 001#B900000000000000
(946688569.170000) can0 002#D503000013000000
(946688569.180000) can0 001#C000000000000000
(946688569.180000) can0 002#D503000014000000
(946688569.180000) can0 18FF1515#0000000318010018
(946688569.180000) can0 400#0000286227600000
(946688569.180000) can0 401#007E000000000000
(946688569.190000) can0 001#C600000000000000
(946688569.190000) can0 002#D503000016000000
(946688569.200000) can0 001#CC00000000000000
(946688569.200000) can0 002#D503000018000000
(946688569.200000) can0 18FF1515#0000000319010019
(946688569.200000) can0 400#0200276127620000
(946688569.200000) can0 401#007E000000000000
(946688569.210000) can0 001#D200000000000000
(946688569.210000) can0 002#D50300001B000000
(946688569.210000) can0 18FF01EA#0A357D9E7D007D50
(946688569.210000) can0 18FF02EA#0A357D9E7D007D50
(946688569.210000) can0 19B50001#8CA0960000000000
(946688569.210000) can0 19B50008#8286840000000000
(946688569.210000) can0 19B50100#9696969696969696
(946688569.210000) can0 19B50800#8484848484848484
(946688569.220000) can0 001#D700000000000000
(946688569.220000) can0 002#D50300001D000000
(946688569.220000) can0 18FF1515#000000031B01001B
(946688569.220000) can0 400#0302276428620000
(946688569.220000) can0 401#017F000000000000
(946688569.230000) can0 001#DD00000000000000
(946688569.230000) can0 002#D50300001F000000
(946688569.240000) can0 001#E100000000000000
(946688569.240000) can0 002#D503000021000000
(946688569.240000) can0 18FF1515#000000031C01001C
(946688569.240000) can0 400#02032862285F0000
(946688569.240000) can0 401#007F000000000000
(946688569.260000) can0 001#EA00000000000000
(946688569.260000) can0 002#D503000026000000
(946688569.270000) can0 001#EE00000000000000
(946688569.270000) can0 002#D503000028000000
(946688569.270000) can0 18FF1515#000000031D01001D
(946688569.270000) can0 400#0403286528670000
(946688569.270000) can0 401#007E000000000000
(946688569.280000) can0 001#F200000000000000
(946688569.280000) can0 002#D50300002B000000
(946688569.290000) can0 001#F600000000000000
(946688569.290000) can0 002#D50300002D000000
(946688569.290000) can0 18FF1515#000000031E01001E
(946688569.290000) can0 400#0304276328640000
(946688569.290000) can0 401#007E000000000000
(946688569.300000) can0 001#FA00000000000000
(946688569.300000) can0 002#D503000030000000
(946688569.310000) can0 001#FD00000000000000
(946688569.310000) can0 002#D503000032000000
(946688569.310000) can0 18FF1515#000000031F01001F
(946688569.310000) can0 400#0201276127640000
(946688569.310000) can0 401#007E000000000000
(946688569.310000) can0 18FF01EA#0A647DBF7D007D50
(946688569.310000) can0 18FF02EA#0A647DBF7D007D50
(946688569.310000) can0 19B50001#8CA0960000000000
(946688569.310000) can0 19B50008#8286840000000000
(946688569.310000) can0 19B50100#9696969696969696
(946688569.310000) can0 19B50800#8484848484848484
(946688569.320000) can0 001#0001000000000000
(946688569.320000) can0 002#D503000035000000
(946688569.330000) can0 001#0301000000000000
(946688569.330000) can0 002#D503000037000000
(946688569.330000) can0 18FF1515#0000000320010020
(946688569.330000) can0 400#0402286928650000
(946688569.330000) can0 401#017F000000000000
(946688569.340000) can0 001#0601000000000000
(946688569.340000) can0 002#D50300003A000000
(946688569.350000) can0 001#0801000000000000
(946688569.350000) can0 002#D50300003D000000
(946688569.350000) can0 18FF1515#0000000321010021
(946688569.350000) can0 400#0302276028650000
(946688569.350000) can0 401#007F000000000000
(946688569.360000) can0 001#0B01000000000000
(946688569.360000) can0 002#D50300003F000000
(946688569.370000) can0 001#0D01000000000000
(946688569.370000) can0 002#D503000042000000
(946688569.370000) can0 18FF1515#0000000322010022
(946688569.370000) can0 400#0403276728680000
(946688569.370000) can0 401#007E000000000000
(946688569.380000) can0 001#1001000000000000
(946688569.380000) can0 002#D503000045000000
(946688569.390000) can0 001#1201000000000000
(946688569.390000) can0 002#D503000047000000
(946688569.390000) can0 18FF1515#0000000322010022
(946688569.390000) can0 400#0607286827600000
(946688569.390000) can0 401#007E000000000000
(946688569.400000) can0 001#1401000000000000
(946688569.400000) can0 002#D50300004A000000
(946688569.410000) can0 001#1501000000000000
(946688569.410000) can0 002#D50300004D000000
(946688569.410000) can0 18FF1515#0000000323010023
(946688569.410000) can0 400#0606276827620000
(946688569.410000) can0 401#007E000000000000
(946688569.410000) can0 18FF01EA#0A997DD27D007D50
(946688569.410000) can0 18FF02EA#0A997DD27D007D50
(946688569.410000) can0 19B50001#8CA0960000000000
(946688569.410000) can0 19B50008#8286840000000000
(946688569.410000) can0 19B50100#9696969696969696
(946688569.410000) can0 19B50800#8484848484848484
(946688569.420000) can0 001#1701000000000000
(946688569.420000) can0 002#D503000050000000
(946688569.430000) can0 001#1901000000000000
(946688569.430000) can0 002#D503000053000000
(946688569.430000) can0 18FF1515#0000000323010023
(946688569.430000) can0 400#0607286528610000
(946688569.430000) can0 401#007F000000000000
(946688569.440000) can0 001#1A01000000000000
(946688569.440000) can0 002#D503000055000000
(946688569.450000) can0 001#1C01000000000000
(946688569.450000) can0 002#D503000058000000
(946688569.450000) can0 18FF1515#0000000324010024
(946688569.450000) can0 400#0506276127670000
(946688569.450000) can0 401#007F000000000000
(946688569.460000) can0 001#1D01000000000000
(946688569.460000) can0 002#D50300005B000000
(946688569.470000) can0 001#1E01000000000000
(946688569.470000) can0 002#D50300005E000000
(946688569.470000) can0 18FF1515#0000000324010024
(946688569.470000) can0 400#0706276628660000
(946688569.470000) can0 401#007F000000000000
(946688569.480000) can0 001#2001000000000000
(946688569.480000) can0 002#D503000061000000
(946688569.490000) can0 001#2101000000000000
(946688569.490000) can0 002#D503000064000000
(946688569.490000) can0 18FF1515#0000000324010024
(946688569.490000) can0 400#0808276928680000
(946688569.490000) can0 401#007F000000000000
(946688569.510000) can0 001#2301000000000000
(946688569.510000) can0 002#D50300006A000000
(946688569.510000) can0 18FF01EA#0AD27DDE7D007D50
(946688569.510000) can0 18FF02EA#0AD27DDE7D007D50
(946688569.510000) can0 19B50001#8CA0960000000000
(946688569.510000) can0 19B50008#8286840000000000
(946688569.510000) can0 19B50100#9696969696969696
(946688569.510000) can0 19B50800#8484848484848484
(946688569.520000) can0 001#2401000000000000
(946688569.520000) can0 002#D50300006D000000
(946688569.520000) can0 18FF1515#0000000325010025
(946688569.520000) can0 400#0806276627670000
(946688569.520000) can0 401#007F000000000000
(946688569.529999) can0 001#2501000000000000
(946688569.529999) can0 002#D50300006F000000
(946688569.539999) can0 001#2501000000000000
(946688569.539999) can0 002#D503000072000000
(946688569.539999) can0 18FF1515#0000000325010025
(946688569.539999) can0 400#0909276A28680000
(946688569.539999) can0 401#007F000000000000
(946688569.549999) can0 001#2601000000000000
(946688569.549999) can0 002#D503000075000000
(946688569.559999) can0 001#2701000000000000
(946688569.559999) can0 002#D503000078000000
(946688569.559999) can0 18FF1515#0000000325010025
(946688569.559999) can0 400#0A09286227640000
(946688569.559999) can0 401#007F000000000000
(946688569.569999) can0 001#2701000000000000
(946688569.569999) can0 002#D50300007B000000
(946688569.579999) can0 001#2801000000000000
(946688569.579999) can0 002#D50300007E000000
(946688569.579999) can0 18FF1515#0000000325010025
(946688569.579999) can0 400#0909276A28620000
(946688569.579999) can0 401#017E000000000000
(946688569.589999) can0 001#2801000000000000
(946688569.589999) can0 002#D503000081000000
(946688569.599999) can0 001#2901000000000000
(946688569.599999) can0 002#D503000084000000
(946688569.599999) can0 18FF1515#0000000326010026
(946688569.599999) can0 400#0907286A27680000
(946688569.599999) can0 401#007E000000000000
(946688569.599999) can0 18FF1080#0000000000000000
(946688569.599999) can0 18FF1180#0000000000000000
(946688569.599999) can0 18FF1280#0000000000000000
(946688569.599999) can0 18FFE180#0000000000000000
(946688569.599999) can0 18FFE280#0000000000000000
(946688569.609999) can0 001#2901000000000000
(946688569.609999) can0 002#D503000087000000
(946688569.609999) can0 18FF01EA#0A0C7EE57D007D50
(946688569.609999) can0 18FF02EA#0A0C7EE57D007D50
(946688569.609999) can0 19B50001#8CA0960000000000
(946688569.609999) can0 19B50008#8286840000000000
(946688569.609999) can0 19B50100#9696969696969696
(946688569.609999) can0 19B50800#8484848484848484
(946688569.619999) can0 001#2A01000000000000
(946688569.619999) can0 002#D50300008A000000
(946688569.619999) can0 18FF1515#0000000326010026
(946688569.619999) can0 400#0A0A286227660000
(946688569.619999) can0 401#007F000000000000
(946688569.629999) can0 001#2A01000000000000
(946688569.629999) can0 002#D50300008D000000
(946688569.639999) can0 001#2A01000000000000
(946688569.639999) can0 002#D503000090000000
(946688569.639999) can0 18FF1515#0000000326010026
(946688569.639999) can0 400#0A09276628690000
(946688569.639999) can0 401#007E000000000000
(946688569.649999) can0 001#2A01000000000000
(946688569.649999) can0 002#D503000093000000
(946688569.659999) can0 001#2B01000000000000
(946688569.659999) can0 002#D503000096000000
(946688569.659999) can0 18FF1515#0000000326010026
(946688569.659999) can0 400#090B286428620000
(946688569.659999) can0 401#017F000000000000
(946688569.669999) can0 001#2B01000000000000
(946688569.669999) can0 002#D503000099000000
(946688569.679999) can0 001#2B01000000000000
(946688569.679999) can0 002#D50300009C000000
(946688569.679999) can0 18FF1515#0000000326010026
(946688569.679999) can0 400#0A0B276728620000
(946688569.679999) can0 401#007F000000000000
(946688569.689999) can0 001#2B01000000000000
(946688569.689999) can0 002#D50300009F000000
(946688569.699999) can0 001#2B01000000000000
(946688569.699999) can0 002#D5030000A2000000
(946688569.699999) can0 18FF1515#0000000326010026
(946688569.699999) can0 400#0A0C286A286A0000
(946688569.699999) can0 401#007E000000000000
(946688569.709999) can0 001#2B01000000000000
(946688569.709999) can0 002#D5030000A5000000
(946688569.709999) can0 18FF01EA#0A477EE97D007D50
(946688569.709999) can0 18FF02EA#0A477EE97D007D50
(946688569.709999) can0 19B50001#8CA0960000000000
(946688569.709999) can0 19B50008#8286840000000000
(946688569.709999) can0 19B50100#9696969696969696
(946688569.709999) can0 19B50800#8484848484848484
(946688569.719999) can0 001#2B01000000000000
(946688569.719999) can0 002#D5030000A8000000
(946688569.719999) can0 18FF1515#0000000327010027
(946688569.719999) can0 400#0A0C286228650000
(946688569.719999) can0 401#007E000000000000
(946688569.729999) can0 001#2B01000000000000
(946688569.729999) can0 002#D5030000AB000000
(946688569.739999) can0 001#2B01000000000000
(946688569.739999) can0 002#D5030000AE000000
(946688569.739999) can0 18FF1515#0000000327010027
(946688569.739999) can0 400#0B0D276728680000
(946688569.739999) can0 401#007E000000000000
(946688569.749999) can0 001#2B01000000000000
(946688569.749999) can0 002#D5030000B1000000
(946688569.759999) can0 001#2B01000000000000
(946688569.759999) can0 002#D5030000B4000000
(946688569.759999) can0 18FF1515#0000000327010027
(946688569.759999) can0 400#0D0E2763276B0000
(946688569.759999) can0 401#007E000000000000
(946688569.769999) can0 001#2B01000000000000
(946688569.769999) can0 002#D5030000B7000000
(946688569.779999) can0 001#2B01000000000000
(946688569.779999) can0 002#D5030000BA000000
(946688569.779999) can0 18FF1515#0000000327010027
(946688569.779999) can0 400#0C0B286B27690000
(946688569.779999) can0 401#017F000000000000
(946688569.789999) can0 001#2B01000000000000
(946688569.789999) can0 002#D5030000BD000000
(946688569.799999) can0 001#2A01000000000000
(946688569.799999) can0 002#D5030000C0000000
(946688569.799999) can0 18FF1515#0000000327010027
(946688569.799999) can0 400#0E0D276A27650000
(946688569.799999) can0 401#007F000000000000
(946688569.809999) can0 001#2A01000000000000
(946688569.809999) can0 002#D5030000C3000000
(946688569.809999) can0 18FF01EA#0A827EEC7D007D50
(946688569.809999) can0 18FF02EA#0A827EEC7D007D50
(946688569.809999) can0 19B50001#8CA0960000000000
(946688569.809999) can0 19B50008#8286840000000000
(946688569.809999) can0 19B50100#9696969696969696
(946688569.809999) can0 19B50800#8484848484848484
(946688569.819999) can0 001#2A01000000000000
(946688569.819999) can0 002#D5030000C6000000
(946688569.819999) can0 18FF1515#0000000327010027
(946688569.819999) can0 400#0C0E2762286A0000
(946688569.819999) can0 401#017E000000000000
(946688569.829999) can0 001#2A01000000000000
(946688569.829999) can0 002#D5030000C9000000
(946688569.839999) can0 001#2A01000000000000
(946688569.839999) can0 002#D5030000CC000000
(946688569.839999) can0 18FF1515#0000000327010027
(946688569.839999) can0 400#100F286527650000
(946688569.839999) can0 401#007E000000000000
(946688569.849999) can0 001#2901000000000000
(946688569.849999) can0 002#D5030000CF000000
(946688569.859999) can0 001#2901000000000000
(946688569.859999) can0 002#D5030000D2000000
(946688569.859999) can0 18FF1515#0000000327010027
(946688569.859999) can0 400#0D0F2766276C0000
(946688569.859999) can0 401#007F000000000000
(946688569.869999) can0 001#2901000000000000
(946688569.869999) can0 002#D5030000D5000000
(946688569.879999) can0 001#2801000000000000
(946688569.879999) can0 002#D5030000D8000000
(946688569.879999) can0 18FF1515#0000000327010027
(946688569.879999) can0 400#0E0F286827670000
(946688569.879999) can0 401#007F000000000000
(946688569.889999) can0 001#2801000000000000
(946688569.889999) can0 002#D5030000DB000000
(946688569.899999) can0 001#2801000000000000
(946688569.899999) can0 002#D5030000DE000000
(946688569.899999) can0 18FF1515#0000000327010027
(946688569.899999) can0 400#110F286327690000
(946688569.899999) can0 401#017E000000000000
(946688569.909999) can0 001#2701000000000000
(946688569.909999) can0 002#D5030000E1000000
(946688569.909999) can0 18FF01EA#0ABD7EED7D007D50
(946688569.909999) can0 18FF02EA#0ABD7EED7D007D50
(946688569.909999) can0 19B50001#8CA0960000000000
(946688569.909999) can0 19B50008#8286840000000000
(946688569.909999) can0 19B50100#9696969696969696
(946688569.909999) can0 19B50800#8484848484848484
(946688569.919999) can0 001#2701000000000000
(946688569.919999) can0 002#D5030000E4000000
(946688569.919999) can0 18FF1515#0000000327010027
(946688569.919999) can0 400#110F286828690000
(946688569.919999) can0 401#017F000000000000
(946688569.929999) can0 001#2701000000000000
(946688569.929999) can0 002#D5030000E7000000
(946688569.939999) can0 001#2601000000000000
(946688569.939999) can0 002#D5030000EA000000
(946688569.939999) can0 18FF1515#0000000327010027
(946688569.939999) can0 400#1111276328670000
(946688569.939999) can0 401#017F000000000000
(946688569.949999) can0 001#2601000000000000
(946688569.949999) can0 002#D5030000EC000000
(946688569.959999) can0 001#2501000000000000
(946688569.959999) can0 002#D5030000EF000000
(946688569.959999) can0 18FF1515#0000000327010027
(946688569.959999) can0 400#120F276C27650000
(946688569.959999) can0 401#007E000000000000
(946688569.969999) can0 001#2501000000000000
(946688569.969999) can0 002#D5030000F2000000
(946688569.979999) can0 001#2501000000000000
(946688569.979999) can0 002#D5030000F5000000
(946688569.979999) can0 18FF1515#0000000327010027
(946688569.979999) can0 400#10102864276C0000
(946688569.979999) can0 401#007E000000000000
(946688569.989999) can0 001#2401000000000000
(946688569.989999) can0 002#D5030000F8000000
(946688569.999999) can0 001#2401000000000000
(946688569.999999) can0 002#D5030000FB000000
(946688569.999999) can0 18FF1515#0000000327010027
(946688569.999999) can0 400#1010276528640000
(946688569.999999) can0 401#017F000000000000
(946688570.009999) can0 001#2301000000000000
(946688570.009999) can0 002#D5030000FE000000
(946688570.009999) can0 18FF01EA#0AF87EEE7D007D50
(946688570.009999) can0 18FF02EA#0AF87EEE7D007D50
(946688570.009999) can0 19B50001#8CA0960000000000
(946688570.009999) can0 19B50008#8286840000000000
(946688570.009999) can0 19B50100#9696969696969696
(946688570.009999) can0 19B50800#8484848484848484
(946688570.019999) can0 001#2301000000000000
(946688570.019999) can0 002#D503000001010000
(946688570.019999) can0 18FF1515#0000000327010027
(946688570.019999) can0 400#1110276927660000
(946688570.019999) can0 401#017F000000000000
(946688570.029999) can0 001#2201000000000000
(946688570.029999) can0 002#D503000004010000
(946688570.039999) can0 001#2201000000000000
(946688570.039999) can0 002#D503000007010000
(946688570.039999) can0 18FF1515#0000000327010027
(946688570.039999) can0 400#1211286B27650000
(946688570.039999) can0 401#007F000000000000
(946688570.049999) can0 001#2101000000000000
(946688570.049999) can0 002#D50300000A010000
(946688570.059999) can0 001#2101000000000000
(946688570.059999) can0 002#D50300000D010000
(946688570.059999) can0 18FF1515#0000000327010027
(946688570.059999) can0 400#1312276A286B0000
(946688570.059999) can0 401#007F000000000000
(946688570.069999) can0 001#2001000000000000
(946688570.069999) can0 002#D50300000F010000
(946688570.079999) can0 001#2001000000000000
(946688570.079999) can0 002#D503000012010000
(946688570.079999) can0 18FF1515#0000000327010027
(946688570.079999) can0 400#1411276828650000
(946688570.079999) can0 401#007F000000000000
(946688570.089999) can0 001#1F01000000000000
(946688570.089999) can0 002#D503000015010000
(946688570.099999) can0 001#1F01000000000000
(946688570.099999) can0 002#D503000018010000
(946688570.099999) can0 18FF1515#0000000327010027
(946688570.099999) can0 400#1415286628660000
(946688570.099999) can0 401#017E000000000000
(946688570.109999) can0 001#1E01000000000000
(946688570.109999) can0 002#D50300001B010000
(946688570.109999) can0 18FF01EA#0A317FEF7D007D50
(946688570.109999) can0 18FF02EA#0A317FEF7D007D50
(946688570.109999) can0 19B50001#8CA0960000000000
(946688570.109999) can0 19B50008#8286840000000000
(946688570.109999) can0 19B50100#9696969696969696
(946688570.109999) can0 19B50800#8484848484848484
(946688570.119999) can0 001#1E01000000000000
(946688570.119999) can0 002#D50300001E010000
(946688570.119999) can0 18FF1515#0000000327010027
(946688570.119999) can0 400#1414276627660000
(946688570.119999) can0 401#007E000000000000
(946688570.129999) can0 001#1D01000000000000
(946688570.129999) can0 002#D503000021010000
(946688570.139999) can0 001#1D01000000000000
(946688570.139999) can0 002#D503000024010000
(946688570.139999) can0 18FF1515#0000000327010027
(946688570.139999) can0 400#14142865276D0000
(946688570.139999) can0 401#007E000000000000
(946688570.149999) can0 001#1C01000000000000
(946688570.149999) can0 002#D503000026010000
(946688570.159999) can0 001#1C01000000000000
(946688570.159999) can0 002#D503000029010000
(946688570.159999) can0 18FF1515#0000000327010027
(946688570.159999) can0 400#1513286927690000
(946688570.159999) can0 401#007E000000000000
(946688570.169999) can0 001#1B01000000000000
(946688570.169999) can0 002#D50300002C010000
(946688570.179999) can0 001#1A01000000000000
(946688570.179999) can0 002#D50300002F010000
(946688570.179999) can0 18FF1515#0000000327010027
(946688570.179999) can0 400#17142868286C0000
(946688570.179999) can0 401#017E000000000000
(946688570.189999) can0 001#1A01000000000000
(946688570.189999) can0 002#D503000032010000
(946688570.199999) can0 001#1901000000000000
(946688570.199999) can0 002#D503000035010000
(946688570.199999) can0 18FF1515#0000000327010027
(946688570.199999) can0 400#1517286428660000
(946688570.199999) can0 401#007E000000000000
(946688570.199999) can0 18FF1080#0000000000000000
(946688570.199999) can0 18FF1180#0000000000000000
(946688570.199999) can0 18FF1280#0000000000000000
(946688570.199999) can0 18FFE180#0000000000000000
(946688570.199999) can0 18FFE280#0000000000000000
(946688570.209999) can0 001#1901000000000000
(946688570.209999) can0 002#D503000037010000
(946688570.209999) can0 18FF01EA#0A697FEF7D007D50
(946688570.209999) can0 18FF02EA#0A697FEF7D007D50
(946688570.209999) can0 19B50001#8CA0960000000000
(946688570.209999) can0 19B50008#8286840000000000
(946688570.209999) can0 19B50100#9696969696969696
(946688570.209999) can0 19B50800#8484848484848484
(946688570.219999) can0 001#1801000000000000
(946688570.219999) can0 002#D50300003A010000
(946688570.219999) can0 18FF1515#0000000327010027
(946688570.219999) can0 400#1717276928670000
(946688570.219999) can0 401#007F000000000000
(946688570.229999) can0 001#1701000000000000
(946688570.229999) can0 002#D50300003D010000
(946688570.239999) can0 001#1701000000000000
(946688570.239999) can0 002#D503000040010000
(946688570.239999) can0 18FF1515#0000000327010027
(946688570.239999) can0 400#1615286A27650000
(946688570.239999) can0 401#007E000000000000
(946688570.249999) can0 001#1601000000000000
(946688570.249999) can0 002#D503000043010000
(946688570.259999) can0 001#1601000000000000
(946688570.259999) can0 002#D503000045010000
(946688570.259999) can0 18FF1515#0000000327010027
(946688570.259999) can0 400#1917286B286C0000
(946688570.259999) can0 401#007E000000000000
(946688570.269999) can0 001#1501000000000000
(946688570.269999) can0 002#D503000048010000
(946688570.279999) can0 001#1401000000000000
(946688570.279999) can0 002#D50300004B010000
(946688570.279999) can0 18FF1515#0000000327010027
(946688570.279999) can0 400#1616276E27650000
(946688570.279999) can0 401#007E000000000000
(946688570.289999) can0 001#1401000000000000
(946688570.289999) can0 002#D50300004E010000
(946688570.299999) can0 001#1301000000000000
(946688570.299999) can0 002#D503000050010000
(946688570.299999) can0 18FF1515#0000000327010027
(946688570.299999) can0 400#1A192769286A0000
(946688570.299999) can0 401#007E000000000000
(946688570.309999) can0 001#1201000000000000
(946688570.309999) can0 002#D503000053010000
(946688570.309999) can0 18FF01EA#0AA07FEF7D007D50
(946688570.309999) can0 18FF02EA#0AA07FEF7D007D50
(946688570.309999) can0 19B50001#8CA0960000000000
(946688570.309999) can0 19B50008#8286840000000000
(946688570.309999) can0 19B50100#9696969696969696
(946688570.309999) can0 19B50800#8484848484848484
(946688570.319999) can0 001#1201000000000000
(946688570.319999) can0 002#D503000056010000
(946688570.319999) can0 18FF1515#0000000327010027
(946688570.319999) can0 400#1918276B286C0000
(946688570.319999) can0 401#007F000000000000
(946688570.329999) can0 001#1101000000000000
(946688570.329999) can0 002#D503000059010000
(946688570.339999) can0 001#1101000000000000
(946688570.339999) can0 002#D50300005B010000
(946688570.339999) can0 18FF1515#0000000327010027
(946688570.339999) can0 400#1917276627660000
(946688570.339999) can0 401#017F000000000000
(946688570.349999) can0 001#1001000000000000
(946688570.349999) can0 002#D50300005E010000
(946688570.359999) can0 001#0F01000000000000
(946688570.359999) can0 002#D503000061010000
(946688570.359999) can0 18FF1515#0000000327010027
(946688570.359999) can0 400#1817276F28660000
(946688570.359999) can0 401#007F000000000000
(946688570.369999) can0 001#0F01000000000000
(946688570.369999) can0 002#D503000063010000
(946688570.379999) can0 001#0E01000000000000
(946688570.379999) can0 002#D503000066010000
(946688570.379999) can0 18FF1515#0000000327010027
(946688570.379999) can0 400#1B19276627660000
(946688570.379999) can0 401#007E000000000000
(946688570.389999) can0 001#0D01000000000000
(946688570.389999) can0 002#D503000069010000
(946688570.399999) can0 001#0D01000000000000
(946688570.399999) can0 002#D50300006C010000
(946688570.399999) can0 18FF1515#0000000327010027
(946688570.399999) can0 400#191A286927690000
(946688570.399999) can0 401#007F000000000000
(946688570.409999) can0 001#0C01000000000000
(946688570.409999) can0 002#D50300006E010000
(946688570.409999) can0 18FF01EA#0AD67FEF7D007D50
(946688570.409999) can0 18FF02EA#0AD67FEF7D007D50
(946688570.409999) can0 19B50001#8CA0960000000000
(946688570.409999) can0 19B50008#8286840000000000
(946688570.409999) can0 19B50100#9696969696969696
(946688570.409999) can0 19B50800#8484848484848484
(946688570.419999) can0 001#0B01000000000000
(946688570.419999) can0 002#D503000071010000
(946688570.419999) can0 18FF1515#0000000327010027
(946688570.419999) can0 400#1919286927650000
(946688570.419999) can0 401#007F000000000000
(946688570.429999) can0 001#0B01000000000000
(946688570.429999) can0 002#D503000074010000
(946688570.439999) can0 001#0A01000000000000
(946688570.439999) can0 002#D503000076010000
(946688570.439999) can0 18FF1515#0000000327010027
(946688570.439999) can0 400#1A1B276B286C0000
(946688570.439999) can0 401#017E000000000000
(946688570.449999) can0 001#0901000000000000
(946688570.449999) can0 002#D503000079010000
(946688570.459999) can0 001#0901000000000000
(946688570.459999) can0 002#D50300007C010000
(946688570.459999) can0 18FF1515#0000000327010027
(946688570.459999) can0 400#1C1C2768286C0000
(946688570.459999) can0 401#017F000000000000
(946688570.469999) can0 001#0801000000000000
(946688570.469999) can0 002#D50300007E010000
(946688570.479999) can0 001#0701000000000000
(946688570.479999) can0 002#D503000081010000
(946688570.479999) can0 18FF1515#0000000327010027
(946688570.479999) can0 400#1A1C2868286B0000
(946688570.479999) can0 401#007E000000000000
(946688570.489999) can0 001#0601000000000000
(946688570.489999) can0 002#D503000083010000
(946688570.499999) can0 001#0601000000000000
(946688570.499999) can0 002#D503000086010000
(946688570.499999) can0 18FF1515#0000000327010027
(946688570.499999) can0 400#1C1D276E286B0000
(946688570.499999) can0 401#017E000000000000
(946688570.509999) can0 001#0501000000000000
(946688570.509999) can0 002#D503000089010000
(946688570.509999) can0 18FF01EA#0A0A80EF7D007D50
(946688570.509999) can0 18FF02EA#0A0A80EF7D007D50
(946688570.509999) can0 19B50001#8CA0960000000000
(946688570.509999) can0 19B50008#8286840000000000
(946688570.509999) can0 19B50100#9696969696969696
(946688570.509999) can0 19B50800#8484848484848484
(946688570.519999) can0 001#0401000000000000
(946688570.519999) can0 002#D50300008B010000
(946688570.519999) can0 18FF1515#0000000327010027
(946688570.519999) can0 400#1C1B276A286E0000
(946688570.519999) can0 401#007F000000000000
(946688570.529999) can0 001#0401000000000000
(946688570.529999) can0 002#D50300008E010000
(946688570.539999) can0 001#0301000000000000
(946688570.539999) can0 002#D503000091010000
(946688570.539999) can0 18FF1515#0000000327010027
(946688570.539999) can0 400#1C1E276B276A0000
(946688570.539999) can0 401#017E000000000000
(946688570.549999) can0 001#0201000000000000
(946688570.549999) can0 002#D503000093010000
(946688570.559999) can0 001#0201000000000000
(946688570.559999) can0 002#D503000096010000
(946688570.559999) can0 18FF1515#0000000327010027
(946688570.559999) can0 400#1E1F276827660000
(946688570.559999) can0 401#017E000000000000
(946688570.569999) can0 001#0101000000000000
(946688570.569999) can0 002#D503000098010000
(946688570.579998) can0 001#0001000000000000
(946688570.579998) can0 002#D50300009B010000
(946688570.579998) can0 18FF1515#0000000327010027
(946688570.579998) can0 400#1B1B2769286E0000
(946688570.579998) can0 401#007E000000000000
(946688570.589998) can0 001#FF00000000000000
(946688570.589998) can0 002#D50300009D010000
(946688570.599998) can0 001#FF00000000000000
(946688570.599998) can0 002#D5030000A0010000
(946688570.599998) can0 18FF1515#0000000327010027
(946688570.599998) can0 400#1D1E286E28690000
(946688570.599998) can0 401#007F000000000000
(946688570.609998) can0 001#FE00000000000000
(946688570.609998) can0 002#D5030000A2010000
(946688570.609998) can0 18FF01EA#0A3D80EF7D007D50
(946688570.609998) can0 18FF02EA#0A3D80EF7D007D50
(946688570.609998) can0 19B50001#8CA0960000000000
(946688570.609998) can0 19B50008#8286840000000000
(946688570.609998) can0 19B50100#9696969696969696
(946688570.609998) can0 19B50800#8484848484848484
(946688570.619998) can0 001#FD00000000000000
(946688570.619998) can0 002#D5030000A5010000
(946688570.619998) can0 18FF1515#0000000327010027
(946688570.619998) can0 400#1D1E276E28660000
(946688570.619998) can0 401#007F000000000000
(946688570.629998) can0 001#FD00000000000000
(946688570.629998) can0 002#D5030000A8010000
(946688570.639998) can0 001#FC00000000000000
(946688570.639998) can0 002#D5030000AA010000
(946688570.639998) can0 18FF1515#0000000327010027
(946688570.639998) can0 400#1E1D286728680000
(946688570.639998) can0 401#007E000000000000
(946688570.649998) can0 001#FB00000000000000
(946688570.649998) can0 002#D5030000AD010000
(946688570.659998) can0 001#FA00000000000000
(946688570.659998) can0 002#D5030000AF010000
(946688570.659998) can0 18FF1515#0000000327010027
(946688570.659998) can0 400#1E1E286E286E0000
(946688570.659998) can0 401#007F000000000000
(946688570.669998) can0 001#FA00000000000000
(946688570.669998) can0 002#D5030000B2010000
(946688570.679998) can0 001#F900000000000000
(946688570.679998) can0 002#D5030000B4010000
(946688570.679998) can0 18FF1515#0000000327010027
(946688570.679998) can0 400#1D1F286A286A0000
(946688570.679998) can0 401#007E000000000000
(946688570.689998) can0 001#F800000000000000
(946688570.689998) can0 002#D5030000B7010000
(946688570.699998) can0 001#F800000000000000
(946688570.699998) can0 002#D5030000B9010000
(946688570.699998) can0 18FF1515#0000000327010027
(946688570.699998) can0 400#2120286728690000
(946688570.699998) can0 401#007E000000000000
(946688570.709998) can0 001#F700000000000000
(946688570.709998) can0 002#D5030000BC010000
(946688570.709998) can0 18FF01EA#0A6F80EF7D007D50
(946688570.709998) can0 18FF02EA#0A6F80EF7D007D50
(946688570.709998) can0 19B50001#8CA0960000000000
(946688570.709998) can0 19B50008#8286840000000000
(946688570.709998) can0 19B50100#9696969696969696
(946688570.709998) can0 19B50800#8484848484848484
(946688570.719998) can0 001#F600000000000000
(946688570.719998) can0 002#D5030000BE010000
(946688570.719998) can0 18FF1515#0000000327010027
(946688570.719998) can0 400#2121276E28690000
(946688570.719998) can0 401#017F000000000000
(946688570.729998) can0 001#F500000000000000
(946688570.729998) can0 002#D5030000C0010000
(946688570.739998) can0 001#F500000000000000
(946688570.739998) can0 002#D5030000C3010000
(946688570.739998) can0 18FF1515#0000000327010027
(946688570.739998) can0 400#1F20286D276E0000
(946688570.739998) can0 401#007F000000000000
(946688570.749998) can0 001#F400000000000000
(946688570.749998) can0 002#D5030000C5010000
(946688570.759998) can0 001#F300000000000000
(946688570.759998) can0 002#D5030000C8010000
(946688570.759998) can0 18FF1515#0000000327010027
(946688570.759998) can0 400#1F1F276F27680000
(946688570.759998) can0 401#017F000000000000
(946688570.769998) can0 001#F200000000000000
(946688570.769998) can0 002#D5030000CA010000
(946688570.779998) can0 001#F200000000000000
(946688570.779998) can0 002#D5030000CD010000
(946688570.779998) can0 18FF1515#0000000327010027
(946688570.779998) can0 400#1F20286B28690000
(946688570.779998) can0 401#007F000000000000
(946688570.789998) can0 001#F100000000000000
(946688570.789998) can0 002#D5030000CF010000
(946688570.799998) can0 001#F000000000000000
(946688570.799998) can0 002#D5030000D1010000
(946688570.799998) can0 18FF1515#0000000327010027
(946688570.799998) can0 400#2123286E276A0000
(946688570.799998) can0 401#007E000000000000
(946688570.799998) can0 18FF1080#0000000000000000
(946688570.799998) can0 18FF1180#0000000000000000
(946688570.799998) can0 18FF1280#0000000000000000
(946688570.799998) can0 18FFE180#0000000000000000
(946688570.799998) can0 18FFE280#0000000000000000
(946688570.809998) can0 001#EF00000000000000
(946688570.809998) can0 002#D5030000D4010000
(946688570.809998) can0 18FF01EA#0A9F80EF7D007D50
(946688570.809998) can0 18FF02EA#0A9F80EF7D007D50
(946688570.809998) can0 19B50001#8CA0960000000000
(946688570.809998) can0 19B50008#8286840000000000
(946688570.809998) can0 19B50100#9696969696969696
(946688570.809998) can0 19B50800#8484848484848484
(946688570.819998) can0 001#EF00000000000000
(946688570.819998) can0 002#D5030000D6010000
(946688570.819998) can0 18FF1515#0000000327010027
(946688570.819998) can0 400#20212770276D0000
(946688570.819998) can0 401#007F000000000000
(946688570.829998) can0 001#EE00000000000000
(946688570.829998) can0 002#D5030000D9010000
(946688570.839998) can0 001#ED00000000000000
(946688570.839998) can0 002#D5030000DB010000
(946688570.839998) can0 18FF1515#0000000327010027
(946688570.839998) can0 400#21202870286F0000
(946688570.839998) can0 401#007F000000000000
(946688570.849998) can0 001#EC00000000000000
(946688570.849998) can0 002#D5030000DD010000
(946688570.859998) can0 001#EC00000000000000
(946688570.859998) can0 002#D5030000E0010000
(946688570.859998) can0 18FF1515#0000000327010027
(946688570.859998) can0 400#2224276B276A0000
(946688570.859998) can0 401#007F000000000000
(946688570.869998) can0 001#EB00000000000000
(946688570.869998) can0 002#D5030000E2010000
(946688570.879998) can0 001#EA00000000000000
(946688570.879998) can0 002#D5030000E4010000
(946688570.879998) can0 18FF1515#0000000327010027
(946688570.879998) can0 400#22212768286C0000
(946688570.879998) can0 401#007F000000000000
(946688570.889998) can0 001#E900000000000000
(946688570.889998) can0 002#D5030000E7010000
(946688570.899998) can0 001#E900000000000000
(946688570.899998) can0 002#D5030000E9010000
(946688570.899998) can0 18FF1515#0000000327010027
(946688570.899998) can0 400#22212871276B0000
(946688570.899998) can0 401#007F000000000000
(946688570.909998) can0 001#E800000000000000
(946688570.909998) can0 002#D5030000EB010000
(946688570.909998) can0 18FF01EA#0ACE80EF7D007D50
(946688570.909998) can0 18FF02EA#0ACE80EF7D007D50
(946688570.909998) can0 19B50001#8CA0960000000000
(946688570.909998) can0 19B50008#8286840000000000
(946688570.909998) can0 19B50100#9696969696969696
(946688570.909998) can0 19B50800#8484848484848484
(946688570.919998) can0 001#E700000000000000
(946688570.919998) can0 002#D5030000EE010000
(946688570.919998) can0 18FF1515#0000000327010027
(946688570.919998) can0 400#2325286C28680000
(946688570.919998) can0 401#007F000000000000
(946688570.929998) can0 001#E600000000000000
(946688570.929998) can0 002#D5030000F0010000
(946688570.939998) can0 001#E600000000000000
(946688570.939998) can0 002#D5030000F2010000
(946688570.939998) can0 18FF1515#0000000327010027
(946688570.939998) can0 400#2525277028700000
(946688570.939998) can0 401#007E000000000000
(946688570.949998) can0 001#E500000000000000
(946688570.949998) can0 002#D5030000F5010000
(946688570.959998) can0 001#E400000000000000
(946688570.959998) can0 002#D5030000F7010000
(946688570.959998) can0 18FF1515#0000000327010027
(946688570.959998) can0 400#2323286A286A0000
(946688570.959998) can0 401#007F000000000000
(946688570.969998) can0 001#E300000000000000
(946688570.969998) can0 002#D5030000F9010000
(946688570.979998) can0 001#E300000000000000
(946688570.979998) can0 002#D5030000FC010000
(946688570.979998) can0 18FF1515#0000000327010027
(946688570.979998) can0 400#2324286F276D0000
(946688570.979998) can0 401#007F000000000000
(946688570.989998) can0 001#E200000000000000
(946688570.989998) can0 002#D5030000FE010000
(946688571.009998) can0 001#E000000000000000
(946688571.009998) can0 002#D503000002020000
(946688571.009998) can0 18FF1515#0000000327010027
(946688571.009998) can0 400#2423286B27710000
(946688571.009998) can0 401#007E000000000000
(946688571.019998) can0 18FF01EA#0AFF80EF7D007D50
(946688571.019998) can0 18FF02EA#0AFF80EF7D007D50
(946688571.019998) can0 19B50001#8CA0960000000000
(946688571.019998) can0 19B50008#8286840000000000
(946688571.019998) can0 19B50100#9696969696969696
(946688571.019998) can0 19B50800#8484848484848484
(946688571.029998) can0 001#DF00000000000000
(946688571.029998) can0 002#D503000007020000
(946688571.039998) can0 18FF1515#0000000327010027
(946688571.039998) can0 400#2625276A286E0000
(946688571.039998) can0 401#007F000000000000
(946688571.049998) can0 001#DD00000000000000
(946688571.049998) can0 002#D50300000B020000
(946688571.069998) can0 001#DC00000000000000
(946688571.069998) can0 002#D503000010020000
(946688571.069998) can0 18FF1515#0000000327010027
(946688571.069998) can0 400#2625276D286A0000
(946688571.069998) can0 401#007E000000000000
(946688571.089998) can0 001#DA00000000000000
(946688571.089998) can0 002#D503000014020000
(946688571.099998) can0 18FF1515#0000000327010027
(946688571.099998) can0 400#2626276E276F0000
(946688571.099998) can0 401#007F000000000000
(946688571.109998) can0 001#D900000000000000
(946688571.109998) can0 002#D503000018020000
(946688571.129998) can0 001#D700000000000000
(946688571.129998) can0 002#D50300001D020000
(946688571.129998) can0 18FF1515#0000000327010027
(946688571.129998) can0 400#2627276C276B0000
(946688571.129998) can0 401#007F000000000000
(946688571.129998) can0 18FF01EA#0A2F81EF7D007D50
(946688571.129998) can0 18FF02EA#0A2F81EF7D007D50
(946688571.129998) can0 19B50001#8CA0960000000000
(946688571.129998) can0 19B50008#8286840000000000
(946688571.129998) can0 19B50100#9696969696969696
(946688571.129998) can0 19B50800#8484848484848484
(946688571.149998) can0 001#D600000000000000
(946688571.149998) can0 002#D503000021020000
(946688571.159998) can0 18FF1515#0000000327010027
(946688571.159998) can0 400#2726276F27700000
(946688571.159998) can0 401#007E000000000000
(946688571.169998) can0 001#D400000000000000
(946688571.169998) can0 002#D503000025020000
(946688571.189998) can0 001#D300000000000000
(946688571.189998) can0 002#D503000029020000
(946688571.189998) can0 18FF1515#0000000327010027
(946688571.189998) can0 400#2628276A276E0000
(946688571.189998) can0 401#007F000000000000
(946688571.209998) can0 001#D100000000000000
(946688571.209998) can0 002#D50300002E020000
(946688571.219998) can0 18FF1515#0000000327010027
(946688571.219998) can0 400#2927296D286C0000
(946688571.219998) can0 401#007F000000000000
(946688571.229998) can0 001#D000000000000000
(946688571.229998) can0 002#D503000032020000
(946688571.239998) can0 18FF01EA#0A5D81EF7D007D50
(946688571.239998) can0 18FF02EA#0A5D81EF7D007D50
(946688571.239998) can0 19B50001#8CA0960000000000
(946688571.239998) can0 19B50008#8286840000000000
(946688571.239998) can0 19B50100#9696969696969696
(946688571.239998) can0 19B50800#8484848484848484
(946688571.249998) can0 001#CE00000000000000
(946688571.249998) can0 002#D503000036020000
(946688571.249998) can0 18FF1515#0000000327010027
(946688571.249998) can0 400#2727296A286B0000
(946688571.249998) can0 401#007E000000000000
(946688571.269998) can0 001#CD00000000000000
(946688571.269998) can0 002#D50300003A020000
(946688571.279998) can0 18FF1515#0000000327010027
(946688571.279998) can0 400#2A29276E27700000
(946688571.279998) can0 401#007F000000000000
(946688571.289998) can0 001#CB00000000000000
(946688571.289998) can0 002#D50300003E020000
(946688571.309998) can0 001#CA00000000000000
(946688571.309998) can0 002#D503000042020000
(946688571.309998) can0 18FF1515#0000000327010027
(946688571.309998) can0 400#2928296C28720000
(946688571.309998) can0 401#007F000000000000
(946688571.329998) can0 001#C800000000000000
(946688571.329998) can0 002#D503000046020000
(946688571.339998) can0 18FF1515#0000000327010027
(946688571.339998) can0 400#2B28286928710000
(946688571.339998) can0 401#017E000000000000
(946688571.349998) can0 001#C700000000000000
(946688571.349998) can0 002#D50300004A020000
(946688571.349998) can0 18FF01EA#0A8981EF7D007D50
(946688571.349998) can0 18FF02EA#0A8981EF7D007D50
(946688571.349998) can0 19B50001#8CA0960000000000
(946688571.349998) can0 19B50008#8286840000000000
(946688571.349998) can0 19B50100#9696969696969696
(946688571.349998) can0 19B50800#8484848484848484
(946688571.369998) can0 001#C600000000000000
(946688571.369998) can0 002#D50300004E020000
(946688571.369998) can0 18FF1515#0000000327010027
(946688571.369998) can0 400#2A29276A276C0000
(946688571.369998) can0 401#007E000000000000
(946688571.389998) can0 001#C400000000000000
(946688571.389998) can0 002#D503000052020000
(946688571.399998) can0 18FF1515#0000000327010027
(946688571.399998) can0 400#292B277027730000
(946688571.399998) can0 401#007F000000000000
(946688571.409998) can0 001#C300000000000000
(946688571.409998) can0 002#D503000056020000
(946688571.409998) can0 18FF1080#0000000000000000
(946688571.409998) can0 18FF1180#0000000000000000
(946688571.409998) can0 18FF1280#0000000000000000
(946688571.409998) can0 18FFE180#0000000000000000
(946688571.409998) can0 18FFE280#0000000000000000
(946688571.429998) can0 001#C100000000000000
(946688571.429998) can0 002#D50300005A020000
(946688571.429998) can0 18FF1515#0000000327010027
(946688571.429998) can0 400#2C2C2873286B0000
(946688571.429998) can0 401#007F000000000000
(946688571.449998) can0 001#C000000000000000
(946688571.449998) can0 002#D50300005E020000
(946688571.459998) can0 18FF1515#0000000327010027
(946688571.459998) can0 400#2B2B2870286E0000
(946688571.459998) can0 401#007F000000000000
(946688571.459998) can0 18FF01EA#0AB481EF7D007D50
(946688571.459998) can0 18FF02EA#0AB481EF7D007D50
(946688571.459998) can0 19B50001#8CA0960000000000
(946688571.459998) can0 19B50008#8286840000000000
(946688571.459998) can0 19B50100#9696969696969696
(946688571.459998) can0 19B50800#8484848484848484
(946688571.469998) can0 001#BE00000000000000
(946688571.469998) can0 002#D503000062020000
(946688571.489998) can0 001#BD00000000000000
(946688571.489998) can0 002#D503000065020000
(946688571.489998) can0 18FF1515#0000000327010027
(946688571.489998) can0 400#2E2A286D27730000
(946688571.489998) can0 401#007E000000000000
(946688571.509998) can0 001#BB00000000000000
(946688571.509998) can0 002#D503000069020000
(946688571.519998) can0 18FF1515#0000000327010027
(946688571.519998) can0 400#2C2E276D296E0000
(946688571.519998) can0 401#017E000000000000
(946688571.529998) can0 001#BA00000000000000
(946688571.529998) can0 002#D50300006D020000
(946688571.549998) can0 001#B800000000000000
(946688571.549998) can0 002#D503000071020000
(946688571.549998) can0 18FF1515#0000000327010027
(946688571.549998) can0 400#2C2D276D27700000
(946688571.549998) can0 401#007E000000000000
(946688571.569998) can0 001#B700000000000000
(946688571.569998) can0 002#D503000074020000
(946688571.569998) can0 18FF01EA#0ADD81EF7D007D50
(946688571.569998) can0 18FF02EA#0ADD81EF7D007D50
(946688571.569998) can0 19B50001#8CA0960000000000
(946688571.569998) can0 19B50008#8286840000000000
(946688571.569998) can0 19B50100#9696969696969696
(946688571.569998) can0 19B50800#8484848484848484
(946688571.579998) can0 18FF1515#0000000327010027
(946688571.579998) can0 400#2C2E286D27710000
(946688571.579998) can0 401#007F000000000000
(946688571.589998) can0 001#B500000000000000
(946688571.589998) can0 002#D503000078020000
(946688571.609998) can0 001#B400000000000000
(946688571.609998) can0 002#D50300007C020000
(946688571.609998) can0 18FF1515#0000000327010027
(946688571.609998) can0 400#2E2C296C276A0000
(946688571.609998) can0 401#007E000000000000
(946688571.629997) can0 001#B300000000000000
(946688571.629997) can0 002#D50300007F020000
(946688571.639997) can0 18FF1515#0000000327010027
(946688571.639997) can0 400#2C2D286A27710000
(946688571.639997) can0 401#017F000000000000
(946688571.649997) can0 001#B100000000000000
(946688571.649997) can0 002#D503000083020000
(946688571.669997) can0 001#B000000000000000
(946688571.669997) can0 002#D503000086020000
(946688571.669997) can0 18FF1515#0000000327010027
(946688571.669997) can0 400#2C2D286D286D0000
(946688571.669997) can0 401#007F000000000000
(946688571.679997) can0 18FF01EA#0A0482EF7D007D50
(946688571.679997) can0 18FF02EA#0A0482EF7D007D50
(946688571.679997) can0 19B50001#8CA0960000000000
(946688571.679997) can0 19B50008#8286840000000000
(946688571.679997) can0 19B50100#9696969696969696
(946688571.679997) can0 19B50800#8484848484848484
(946688571.689997) can0 001#AE00000000000000
(946688571.689997) can0 002#D50300008A020000
(946688571.699997) can0 18FF1515#0000000327010027
(946688571.699997) can0 400#302F286B28730000
(946688571.699997) can0 401#007F000000000000
(946688571.709997) can0 001#AD00000000000000
(946688571.709997) can0 002#D50300008D020000
(946688571.729997) can0 001#AC00000000000000
(946688571.729997) can0 002#D503000091020000
(946688571.729997) can0 18FF1515#0000000327010027
(946688571.729997) can0 400#2E302770276F0000
(946688571.729997) can0 401#007F000000000000
(946688571.749997) can0 001#AA00000000000000
(946688571.749997) can0 002#D503000094020000
(946688571.759997) can0 18FF1515#0000000327010027
(946688571.759997) can0 400#302E276C276B0000
(946688571.759997) can0 401#017E000000000000
(946688571.769997) can0 001#A900000000000000
(946688571.769997) can0 002#D503000098020000
(946688571.789997) can0 001#A700000000000000
(946688571.789997) can0 002#D50300009B020000
(946688571.789997) can0 18FF1515#0000000327010027
(946688571.789997) can0 400#312E296D286E0000
(946688571.789997) can0 401#007F000000000000
(946688571.789997) can0 18FF01EA#0A2982EF7D007D50
(946688571.789997) can0 18FF02EA#0A2982EF7D007D50
(946688571.789997) can0 19B50001#8CA0960000000000
(946688571.789997) can0 19B50008#8286840000000000
(946688571.789997) can0 19B50100#9696969696969696
(946688571.789997) can0 19B50800#8484848484848484
(946688571.809997) can0 001#A600000000000000
(946688571.809997) can0 002#D50300009E020000
(946688571.819997) can0 18FF1515#0000000327010027
(946688571.819997) can0 400#3231276F296D0000
(946688571.819997) can0 401#007F000000000000
(946688571.829997) can0 001#A500000000000000
(946688571.829997) can0 002#D5030000A2020000
(946688571.849997) can0 001#A300000000000000
(946688571.849997) can0 002#D5030000A5020000
(946688571.849997) can0 18FF1515#0000000327010027
(946688571.849997) can0 400#2F312970276B0000
(946688571.849997) can0 401#017E000000000000
(946688571.869997) can0 001#A200000000000000
(946688571.869997) can0 002#D5030000A8020000
(946688571.879997) can0 18FF1515#0000000327010027
(946688571.879997) can0 400#3230286F28730000
(946688571.879997) can0 401#017E000000000000
(946688571.889997) can0 001#A100000000000000
(946688571.889997) can0 002#D5030000AB020000
(946688571.899997) can0 18FF01EA#0A4D82EF7D007D50
(946688571.899997) can0 18FF02EA#0A4D82EF7D007D50
(946688571.899997) can0 19B50001#8CA0960000000000
(946688571.899997) can0 19B50008#8286840000000000
(946688571.899997) can0 19B50100#9696969696969696
(946688571.899997) can0 19B50800#8484848484848484
(946688571.909997) can0 001#9F00000000000000
(946688571.909997) can0 002#D5030000AF020000
(946688571.909997) can0 18FF1515#0000000327010027
(946688571.909997) can0 400#3330276F28740000
(946688571.909997) can0 401#007F000000000000
(946688571.929997) can0 001#9E00000000000000
(946688571.929997) can0 002#D5030000B2020000
(946688571.939997) can0 18FF1515#0000000327010027
(946688571.939997) can0 400#3231286D28740000
(946688571.939997) can0 401#017F000000000000
(946688571.949997) can0 001#9C00000000000000
(946688571.949997) can0 002#D5030000B5020000
(946688571.969997) can0 001#9B00000000000000
(946688571.969997) can0 002#D5030000B8020000
(946688571.969997) can0 18FF1515#0000000327010027
(946688571.969997) can0 400#3432277128740000
(946688571.969997) can0 401#007F000000000000
(946688571.989997) can0 001#9A00000000000000
(946688571.989997) can0 002#D5030000BB020000
(946688571.999997) can0 18FF1515#0000000327010027
(946688571.999997) can0 400#3133286D27730000
(946688571.999997) can0 401#007E000000000000
(946688572.009997) can0 001#9900000000000000
(946688572.009997) can0 002#D5030000BE020000
(946688572.009997) can0 18FF01EA#0A6F82EF7D007D50
(946688572.009997) can0 18FF02EA#0A6F82EF7D007D50
(946688572.009997) can0 19B50001#8CA0960000000000
(946688572.009997) can0 19B50008#8286840000000000
(946688572.009997) can0 19B50100#9696969696969696
(946688572.009997) can0 19B50800#8484848484848484
(946688572.019997) can0 18FF1080#0000000000000000
(946688572.019997) can0 18FF1180#0000000000000000
(946688572.019997) can0 18FF1280#0000000000000000
(946688572.019997) can0 18FFE180#0000000000000000
(946688572.019997) can0 18FFE280#0000000000000000
(946688572.029997) can0 001#9700000000000000
(946688572.029997) can0 002#D5030000C1020000
(946688572.029997) can0 18FF1515#0000000327010027
(946688572.029997) can0 400#31312871286D0000
(946688572.029997) can0 401#017E000000000000
(946688572.049997) can0 001#9600000000000000
(946688572.049997) can0 002#D5030000C4020000
(946688572.059997) can0 18FF1515#0000000327010027
(946688572.059997) can0 400#3431287328750000
(946688572.059997) can0 401#007E000000000000
(946688572.069997) can0 001#9500000000000000
(946688572.069997) can0 002#D5030000C7020000
(946688572.089997) can0 001#9300000000000000
(946688572.089997) can0 002#D5030000CA020000
(946688572.089997) can0 18FF1515#0000000327010027
(946688572.089997) can0 400#3334287429740000
(946688572.089997) can0 401#007F000000000000
(946688572.109997) can0 001#9200000000000000
(946688572.109997) can0 002#D5030000CD020000
(946688572.119997) can0 18FF1515#0000000327010027
(946688572.119997) can0 400#3535277027710000
(946688572.119997) can0 401#007F000000000000
(946688572.119997) can0 18FF01EA#0A8F82EF7D007D50
(946688572.119997) can0 18FF02EA#0A8F82EF7D007D50
(946688572.119997) can0 19B50001#8CA0960000000000
(946688572.119997) can0 19B50008#8286840000000000
(946688572.119997) can0 19B50100#9696969696969696
(946688572.119997) can0 19B50800#8484848484848484
(946688572.129997) can0 001#9100000000000000
(946688572.129997) can0 002#D5030000D0020000
(946688572.149997) can0 001#8F00000000000000
(946688572.149997) can0 002#D5030000D3020000
(946688572.149997) can0 18FF1515#0000000327010027
(946688572.149997) can0 400#32352775276E0000
(946688572.149997) can0 401#017F000000000000
(946688572.169997) can0 001#8E00000000000000
(946688572.169997) can0 002#D5030000D6020000
(946688572.179997) can0 18FF1515#0000000327010027
(946688572.179997) can0 400#32332771276D0000
(946688572.179997) can0 401#017F000000000000
(946688572.189997) can0 001#8D00000000000000
(946688572.189997) can0 002#D5030000D9020000
(946688572.209997) can0 001#8C00000000000000
(946688572.209997) can0 002#D5030000DB020000
(946688572.209997) can0 18FF1515#0000000327010027
(946688572.209997) can0 400#3535287228700000
(946688572.209997) can0 401#007F000000000000
(946688572.229997) can0 001#8A00000000000000
(946688572.229997) can0 002#D5030000DE020000
(946688572.229997) can0 18FF01EA#0AAE82EF7D007D50
(946688572.229997) can0 18FF02EA#0AAE82EF7D007D50
(946688572.229997) can0 19B50001#8CA0960000000000
(946688572.229997) can0 19B50008#8286840000000000
(946688572.229997) can0 19B50100#9696969696969696
(946688572.229997) can0 19B50800#8484848484848484
(946688572.239997) can0 18FF1515#0000000327010027
(946688572.239997) can0 400#33352773276E0000
(946688572.239997) can0 401#007F000000000000
(946688572.249997) can0 001#8900000000000000
(946688572.249997) can0 002#D5030000E1020000
(946688572.269997) can0 001#8800000000000000
(946688572.269997) can0 002#D5030000E4020000
(946688572.269997) can0 18FF1515#0000000327010027
(946688572.269997) can0 400#3633286E28700000
(946688572.269997) can0 401#017E000000000000
(946688572.289997) can0 001#8700000000000000
(946688572.289997) can0 002#D5030000E6020000
(946688572.299997) can0 18FF1515#0000000327010027
(946688572.299997) can0 400#3534276D27750000
(946688572.299997) can0 401#007F000000000000
(946688572.309997) can0 001#8600000000000000
(946688572.309997) can0 002#D5030000E9020000
(946688572.329997) can0 001#8400000000000000
(946688572.329997) can0 002#D5030000EC020000
(946688572.329997) can0 18FF1515#0000000327010027
(946688572.329997) can0 400#3634277027700000
(946688572.329997) can0 401#007E000000000000
(946688572.339997) can0 18FF01EA#0ACC82EF7D007D50
(946688572.339997) can0 18FF02EA#0ACC82EF7D007D50
(946688572.339997) can0 19B50001#8CA0960000000000
(946688572.339997) can0 19B50008#8286840000000000
(946688572.339997) can0 19B50100#9696969696969696
(946688572.339997) can0 19B50800#8484848484848484
(946688572.349997) can0 001#8300000000000000
(946688572.349997) can0 002#D5030000EE020000
(946688572.359997) can0 18FF1515#0000000327010027
(946688572.359997) can0 400#35342875276D0000
(946688572.359997) can0 401#007E000000000000
(946688572.369997) can0 001#8200000000000000
(946688572.369997) can0 002#D5030000F1020000
(946688572.389997) can0 001#8100000000000000
(946688572.389997) can0 002#D5030000F4020000
(946688572.389997) can0 18FF1515#0000000327010027
(946688572.389997) can0 400#3434277127760000
(946688572.389997) can0 401#007E000000000000
(946688572.409997) can0 001#8000000000000000
(946688572.409997) can0 002#D5030000F6020000
(946688572.419997) can0 18FF1515#0000000327010027
(946688572.419997) can0 400#3735286C28740000
(946688572.419997) can0 401#017F000000000000
(946688572.429997) can0 001#7E00000000000000
(946688572.429997) can0 002#D5030000F9020000
(946688572.449997) can0 001#7D00000000000000
(946688572.449997) can0 002#D5030000FB020000
(946688572.449997) can0 18FF1515#0000000327010027
(946688572.449997) can0 400#3637277328740000
(946688572.449997) can0 401#007E000000000000
(946688572.449997) can0 18FF01EA#0AE882EF7D007D50
(946688572.449997) can0 18FF02EA#0AE882EF7D007D50
(946688572.449997) can0 19B50001#8CA0960000000000
(946688572.449997) can0 19B50008#8286840000000000
(946688572.449997) can0 19B50100#9696969696969696
(946688572.449997) can0 19B50800#8484848484848484
(946688572.469997) can0 001#7C00000000000000
(946688572.469997) can0 002#D5030000FE020000
(946688572.479997) can0 18FF1515#0000000327010027
(946688572.479997) can0 400#3835286D296E0000
(946688572.479997) can0 401#007E000000000000
(946688572.489997) can0 001#7B00000000000000
(946688572.489997) can0 002#D503000000030000
(946688572.509997) can0 001#7A00000000000000
(946688572.509997) can0 002#D503000003030000
(946688572.509997) can0 18FF1515#0000000327010027
(946688572.509997) can0 400#3637287229750000
(946688572.509997) can0 401#007F000000000000
(946688572.529997) can0 001#7900000000000000
(946688572.529997) can0 002#D503000005030000
(946688572.539997) can0 18FF1515#0000000327010027
(946688572.539997) can0 400#3839296D286D0000
(946688572.539997) can0 401#007F000000000000
(946688572.549997) can0 001#7800000000000000
(946688572.549997) can0 002#D503000007030000
(946688572.559997) can0 18FF01EA#0A0283EF7D007D50
(946688572.559997) can0 18FF02EA#0A0283EF7D007D50
(946688572.559997) can0 19B50001#8CA0960000000000
(946688572.559997) can0 19B50008#8286840000000000
(946688572.559997) can0 19B50100#9696969696969696
(946688572.559997) can0 19B50800#8484848484848484
(946688572.569997) can0 001#7600000000000000
(946688572.569997) can0 002#D50300000A030000
(946688572.569997) can0 18FF1515#0000000327010027
(946688572.569997) can0 400#37372776296E0000
(946688572.569997) can0 401#007F000000000000
(946688572.589997) can0 001#7500000000000000
(946688572.589997) can0 002#D50300000C030000
(946688572.599997) can0 18FF1515#0000000327010027
(946688572.599997) can0 400#3639277629740000
(946688572.599997) can0 401#017E000000000000
(946688572.609997) can0 001#7400000000000000
(946688572.609997) can0 002#D50300000F030000
(946688572.629997) can0 001#7300000000000000
(946688572.629997) can0 002#D503000011030000
(946688572.629997) can0 18FF1515#0000000327010027
(946688572.629997) can0 400#3737287027730000
(946688572.629997) can0 401#007F000000000000
(946688572.629997) can0 18FF1080#0000000000000000
(946688572.629997) can0 18FF1180#0000000000000000
(946688572.629997) can0 18FF1280#0000000000000000
(946688572.629997) can0 18FFE180#0000000000000000
(946688572.629997) can0 18FFE280#0000000000000000
(946688572.649997) can0 001#7200000000000000
(946688572.649997) can0 002#D503000013030000
(946688572.659997) can0 18FF1515#0000000327010027
(946688572.659997) can0 400#3838286F28720000
(946688572.659997) can0 401#017E000000000000
(946688572.669997) can0 001#7100000000000000
(946688572.669997) can0 002#D503000015030000
(946688572.669997) can0 18FF01EA#0A1C83EF7D007D50
(946688572.669997) can0 18FF02EA#0A1C83EF7D007D50
(946688572.669997) can0 19B50001#8CA0960000000000
(946688572.669997) can0 19B50008#8286840000000000
(946688572.669997) can0 19B50100#9696969696969696
(946688572.669997) can0 19B50800#8484848484848484
(946688572.689996) can0 001#7000000000000000
(946688572.689996) can0 002#D503000018030000
(946688572.689996) can0 18FF1515#0000000327010027
(946688572.689996) can0 400#3A392973286F0000
(946688572.689996) can0 401#017E000000000000
(946688572.709996) can0 001#6F00000000000000
(946688572.709996) can0 002#D50300001A030000
(946688572.719996) can0 18FF1515#0000000327010027
(946688572.719996) can0 400#3A37296E296E0000
(946688572.719996) can0 401#007E000000000000
(946688572.729996) can0 001#6E00000000000000
(946688572.729996) can0 002#D50300001C030000
(946688572.749996) can0 001#6D00000000000000
(946688572.749996) can0 002#D50300001E030000
(946688572.749996) can0 18FF1515#0000000327010027
(946688572.749996) can0 400#3837286E27760000
(946688572.749996) can0 401#007F000000000000
(946688572.769996) can0 001#6C00000000000000
(946688572.769996) can0 002#D503000020030000
(946688572.779996) can0 18FF1515#0000000327010027
(946688572.779996) can0 400#3839286E276E0000
(946688572.779996) can0 401#007E000000000000
(946688572.779996) can0 18FF01EA#0A3483EF7D007D50
(946688572.779996) can0 18FF02EA#0A3483EF7D007D50
(946688572.779996) can0 19B50001#8CA0960000000000
(946688572.779996) can0 19B50008#8286840000000000
(946688572.779996) can0 19B50100#9696969696969696
(946688572.779996) can0 19B50800#8484848484848484
(946688572.789996) can0 001#6B00000000000000
(946688572.789996) can0 002#D503000023030000
(946688572.809996) can0 001#6A00000000000000
(946688572.809996) can0 002#D503000025030000
(946688572.809996) can0 18FF1515#0000000327010027
(946688572.809996) can0 400#38382774286E0000
(946688572.809996) can0 401#017E000000000000
(946688572.829996) can0 001#6900000000000000
(946688572.829996) can0 002#D503000027030000
(946688572.839996) can0 18FF1515#0000000327010027
(946688572.839996) can0 400#393A277328720000
(946688572.839996) can0 401#007F000000000000
(946688572.849996) can0 001#6800000000000000
(946688572.849996) can0 002#D503000029030000
(946688572.869996) can0 001#6700000000000000
(946688572.869996) can0 002#D50300002B030000
(946688572.869996) can0 18FF1515#0000000327010027
(946688572.869996) can0 400#3A39296F27740000
(946688572.869996) can0 401#007E000000000000
(946688572.889996) can0 001#6600000000000000
(946688572.889996) can0 002#D50300002D030000
(946688572.889996) can0 18FF01EA#0A4A83EF7D007D50
(946688572.889996) can0 18FF02EA#0A4A83EF7D007D50
(946688572.889996) can0 19B50001#8CA0960000000000
(946688572.889996) can0 19B50008#8286840000000000
(946688572.889996) can0 19B50100#9696969696969696
(946688572.889996) can0 19B50800#8484848484848484
(946688572.899996) can0 18FF1515#0000000327010027
(946688572.899996) can0 400#3A38287228770000
(946688572.899996) can0 401#007E000000000000
(946688572.909996) can0 001#6500000000000000
(946688572.909996) can0 002#D50300002F030000
(946688572.929996) can0 001#6400000000000000
(946688572.929996) can0 002#D503000031030000
(946688572.929996) can0 18FF1515#0000000327010027
(946688572.929996) can0 400#3C3A286F29730000
(946688572.929996) can0 401#017E000000000000
(946688572.949996) can0 001#6300000000000000
(946688572.949996) can0 002#D503000033030000
(946688572.959996) can0 18FF1515#0000000327010027
(946688572.959996) can0 400#3C3A287028720000
(946688572.959996) can0 401#007E000000000000
(946688572.969996) can0 001#6200000000000000
(946688572.969996) can0 002#D503000035030000
(946688572.989996) can0 001#6100000000000000
(946688572.989996) can0 002#D503000037030000
(946688572.989996) can0 18FF1515#0000000327010027
(946688572.989996) can0 400#393A297028710000
(946688572.989996) can0 401#017E000000000000
(946688572.999996) can0 18FF01EA#0A6083EF7D007D50
(946688572.999996) can0 18FF02EA#0A6083EF7D007D50
(946688572.999996) can0 19B50001#8CA0960000000000
(946688572.999996) can0 19B50008#8286840000000000
(946688572.999996) can0 19B50100#9696969696969696
(946688572.999996) can0 19B50800#8484848484848484
(946688573.009996) can0 001#6000000000000000
(946688573.009996) can0 002#D503000039030000
(946688573.009996) can0 18FF1515#0000000327010027
(946688573.009996) can0 400#3D3A287328740000
(946688573.009996) can0 401#017E000000000000
(946688573.029996) can0 001#5F00000000000000
(946688573.029996) can0 002#D50300003B030000
(946688573.039996) can0 18FF1515#0000000327010027
(946688573.039996) can0 400#3C3A297227710000
(946688573.039996) can0 401#017E000000000000
(946688573.049996) can0 001#5E00000000000000
(946688573.049996) can0 002#D50300003D030000
(946688573.069996) can0 001#5D00000000000000
(946688573.069996) can0 002#D50300003F030000
(946688573.069996) can0 18FF1515#0000000327010027
(946688573.069996) can0 400#3A3D277428740000
(946688573.069996) can0 401#017E000000000000
(946688573.089996) can0 001#5C00000000000000
(946688573.089996) can0 002#D503000041030000
(946688573.099996) can0 18FF1515#0000000327010027
(946688573.099996) can0 400#3A3D296F27700000
(946688573.099996) can0 401#017E000000000000
(946688573.109996) can0 001#5B00000000000000
(946688573.109996) can0 002#D503000042030000
(946688573.109996) can0 18FF01EA#0A7583EF7D007D50
(946688573.109996) can0 18FF02EA#0A7583EF7D007D50
(946688573.109996) can0 19B50001#8CA0960000000000
(946688573.109996) can0 19B50008#8286840000000000
(946688573.109996) can0 19B50100#9696969696969696
(946688573.109996) can0 19B50800#8484848484848484
(946688573.129996) can0 001#5A00000000000000
(946688573.129996) can0 002#D503000044030000
(946688573.129996) can0 18FF1515#0000000327010027
(946688573.129996) can0 400#3B3A297028750000
(946688573.129996) can0 401#007F000000000000
(946688573.149996) can0 001#5900000000000000
(946688573.149996) can0 002#D503000046030000
(946688573.159996) can0 18FF1515#0000000327010027
(946688573.159996) can0 400#3B3C287327730000
(946688573.159996) can0 401#007F000000000000
(946688573.169996) can0 001#5900000000000000
(946688573.169996) can0 002#D503000048030000
(946688573.189996) can0 001#5800000000000000
(946688573.189996) can0 002#D50300004A030000
(946688573.189996) can0 18FF1515#0000000327010027
(946688573.189996) can0 400#3B3E2876286F0000
(946688573.189996) can0 401#007E000000000000
(946688573.209996) can0 001#5700000000000000
(946688573.209996) can0 002#D50300004B030000
(946688573.219996) can0 18FF1515#0000000327010027
(946688573.219996) can0 400#3E3D277729720000
(946688573.219996) can0 401#007F000000000000
(946688573.219996) can0 18FF01EA#0A8883EF7D007D50
(946688573.219996) can0 18FF02EA#0A8883EF7D007D50
(946688573.219996) can0 19B50001#8CA0960000000000
(946688573.219996) can0 19B50008#8286840000000000
(946688573.219996) can0 19B50100#9696969696969696
(946688573.219996) can0 19B50800#8484848484848484
(946688573.229996) can0 001#5600000000000000
(946688573.229996) can0 002#D50300004D030000
(946688573.239996) can0 18FF1080#0000000000000000
(946688573.239996) can0 18FF1180#0000000000000000
(946688573.239996) can0 18FF1280#0000000000000000
(946688573.239996) can0 18FFE180#0000000000000000
(946688573.239996) can0 18FFE280#0000000000000000
(946688573.249996) can0 001#5500000000000000
(946688573.249996) can0 002#D50300004F030000
(946688573.249996) can0 18FF1515#0000000327010027
(946688573.249996) can0 400#3D3D2972286F0000
(946688573.249996) can0 401#007E000000000000
(946688573.269996) can0 001#5400000000000000
(946688573.269996) can0 002#D503000050030000
(946688573.279996) can0 18FF1515#0000000327010027
(946688573.279996) can0 400#3E3D2874276E0000
(946688573.279996) can0 401#007F000000000000
(946688573.289996) can0 001#5300000000000000
(946688573.289996) can0 002#D503000052030000
(946688573.309996) can0 001#5300000000000000
(946688573.309996) can0 002#D503000054030000
(946688573.309996) can0 18FF1515#0000000327010027
(946688573.309996) can0 400#3D3B277328740000
(946688573.309996) can0 401#007E000000000000
(946688573.329996) can0 001#5200000000000000
(946688573.329996) can0 002#D503000055030000
(946688573.329996) can0 18FF01EA#0A9A83EF7D007D50
(946688573.329996) can0 18FF02EA#0A9A83EF7D007D50
(946688573.329996) can0 19B50001#8CA0960000000000
(946688573.329996) can0 19B50008#8286840000000000
(946688573.329996) can0 19B50100#9696969696969696
(946688573.329996) can0 19B50800#8484848484848484
(946688573.339996) can0 18FF1515#0000000327010027
(946688573.339996) can0 400#3C3C287529740000
(946688573.339996) can0 401#017F000000000000
(946688573.349996) can0 001#5100000000000000
(946688573.349996) can0 002#D503000057030000
(946688573.369996) can0 001#5000000000000000
(946688573.369996) can0 002#D503000059030000
(946688573.369996) can0 18FF1515#0000000327010027
(946688573.369996) can0 400#3D3E287028750000
(946688573.369996) can0 401#007F000000000000
(946688573.389996) can0 001#4F00000000000000
(946688573.389996) can0 002#D50300005A030000
(946688573.399996) can0 18FF1515#0000000327010027
(946688573.399996) can0 400#3D3C297127780000
(946688573.399996) can0 401#017E000000000000
(946688573.409996) can0 001#4E00000000000000
(946688573.409996) can0 002#D50300005C030000
(946688573.429996) can0 001#4E00000000000000
(946688573.429996) can0 002#D50300005D030000
(946688573.429996) can0 18FF1515#0000000327010027
(946688573.429996) can0 400#3E3D287028720000
(946688573.429996) can0 401#017E000000000000
(946688573.439996) can0 18FF01EA#0AAC83EF7D007D50
(946688573.439996) can0 18FF02EA#0AAC83EF7D007D50
(946688573.439996) can0 19B50001#8CA0960000000000
(946688573.439996) can0 19B50008#8286840000000000
(946688573.439996) can0 19B50100#9696969696969696
(946688573.439996) can0 19B50800#8484848484848484
(946688573.449996) can0 001#4D00000000000000
(946688573.449996) can0 002#D50300005F030000
(946688573.459996) can0 18FF1515#0000000327010027
(946688573.459996) can0 400#3D3F297528720000
(946688573.459996) can0 401#017F000000000000
(946688573.469996) can0 001#4C00000000000000
(946688573.469996) can0 002#D503000061030000
(946688573.489996) can0 001#4B00000000000000
(946688573.489996) can0 002#D503000062030000
(946688573.489996) can0 18FF1515#0000000327010027
(946688573.489996) can0 400#3D3F2976286F0000
(946688573.489996) can0 401#007E000000000000
(946688573.509996) can0 001#4B00000000000000
(946688573.509996) can0 002#D503000064030000
(946688573.519996) can0 18FF1515#0000000327010027
(946688573.519996) can0 400#3F3E287427710000
(946688573.519996) can0 401#007F000000000000
(946688573.529996) can0 001#4A00000000000000
(946688573.529996) can0 002#D503000065030000
(946688573.549996) can0 001#4900000000000000
(946688573.549996) can0 002#D503000067030000
(946688573.549996) can0 18FF1515#0000000327010027
(946688573.549996) can0 400#403F287729720000
(946688573.549996) can0 401#007E000000000000
(946688573.549996) can0 18FF01EA#0ABC83EF7D007D50
(946688573.549996) can0 18FF02EA#0ABC83EF7D007D50
(946688573.549996) can0 19B50001#8CA0960000000000
(946688573.549996) can0 19B50008#8286840000000000
(946688573.549996) can0 19B50100#9696969696969696
(946688573.549996) can0 19B50800#8484848484848484
(946688573.569996) can0 001#4800000000000000
(946688573.569996) can0 002#D503000068030000
(946688573.579996) can0 18FF1515#0000000327010027
(946688573.579996) can0 400#3C3E297627770000
(946688573.579996) can0 401#007E000000000000
(946688573.589996) can0 001#4800000000000000
(946688573.589996) can0 002#D503000069030000
(946688573.609996) can0 001#4700000000000000
(946688573.609996) can0 002#D50300006B030000
(946688573.609996) can0 18FF1515#0000000327010027
(946688573.609996) can0 400#3E3E287228780000
(946688573.609996) can0 401#007E000000000000
(946688573.629996) can0 001#4600000000000000
(946688573.629996) can0 002#D50300006C030000
(946688573.639996) can0 18FF1515#0000000327010027
(946688573.639996) can0 400#3E40287629740000
(946688573.639996) can0 401#007E000000000000
(946688573.649996) can0 001#4500000000000000
(946688573.649996) can0 002#D50300006E030000
(946688573.659996) can0 18FF01EA#0ACC83EF7D007D50
(946688573.659996) can0 18FF02EA#0ACC83EF7D007D50
(946688573.659996) can0 19B50001#8CA0960000000000
(946688573.659996) can0 19B50008#8286840000000000
(946688573.659996) can0 19B50100#9696969696969696
(946688573.659996) can0 19B50800#8484848484848484
(946688573.669996) can0 001#4500000000000000
(946688573.669996) can0 002#D50300006F030000
(946688573.669996) can0 18FF1515#0000000327010027
(946688573.669996) can0 400#413D2873286F0000
(946688573.669996) can0 401#007E000000000000
(946688573.689996) can0 001#4400000000000000
(946688573.689996) can0 002#D503000070030000
(946688573.699996) can0 18FF1515#0000000327010027
(946688573.699996) can0 400#3D40297427710000
(946688573.699996) can0 401#007E000000000000
(946688573.709996) can0 001#4300000000000000
(946688573.709996) can0 002#D503000072030000
(946688573.729995) can0 001#4300000000000000
(946688573.729995) can0 002#D503000073030000
(946688573.729995) can0 18FF1515#0000000327010027
(946688573.729995) can0 400#4141287028770000
(946688573.729995) can0 401#007F000000000000
(946688573.749995) can0 001#4200000000000000
(946688573.749995) can0 002#D503000074030000
(946688573.759995) can0 18FF1515#0000000327010027
(946688573.759995) can0 400#403E286F27760000
(946688573.759995) can0 401#017F000000000000
(946688573.769995) can0 001#4100000000000000
(946688573.769995) can0 002#D503000076030000
(946688573.769995) can0 18FF01EA#0ADA83EF7D007D50
(946688573.769995) can0 18FF02EA#0ADA83EF7D007D50
(946688573.769995) can0 19B50001#8CA0960000000000
(946688573.769995) can0 19B50008#8286840000000000
(946688573.769995) can0 19B50100#9696969696969696
(946688573.769995) can0 19B50800#8484848484848484
(946688573.789995) can0 001#4100000000000000
(946688573.789995) can0 002#D503000077030000
(946688573.789995) can0 18FF1515#0000000327010027
(946688573.789995) can0 400#3F3F286F28730000
(946688573.789995) can0 401#007E000000000000
(946688573.809995) can0 001#4000000000000000
(946688573.809995) can0 002#D503000078030000
(946688573.819995) can0 18FF1515#0000000327010027
(946688573.819995) can0 400#403F287727720000
(946688573.819995) can0 401#007E000000000000
(946688573.829995) can0 001#3F00000000000000
(946688573.829995) can0 002#D50300007A030000
(946688573.849995) can0 001#3F00000000000000
(946688573.849995) can0 002#D50300007B030000
(946688573.849995) can0 18FF1515#0000000327010027
(946688573.849995) can0 400#3F3F2875276F0000
(946688573.849995) can0 401#007F000000000000
(946688573.849995) can0 18FF1080#0000000000000000
(946688573.849995) can0 18FF1180#0000000000000000
(946688573.849995) can0 18FF1280#0000000000000000
(946688573.849995) can0 18FFE180#0000000000000000
(946688573.849995) can0 18FFE280#0000000000000000
(946688573.869995) can0 001#3E00000000000000
(946688573.869995) can0 002#D50300007C030000
(946688573.879995) can0 18FF1515#0000000327010027
(946688573.879995) can0 400#4042287728720000
(946688573.879995) can0 401#007E000000000000
(946688573.879995) can0 18FF01EA#0AE883EF7D007D50
(946688573.879995) can0 18FF02EA#0AE883EF7D007D50
(946688573.879995) can0 19B50001#8CA0960000000000
(946688573.879995) can0 19B50008#8286840000000000
(946688573.879995) can0 19B50100#9696969696969696
(946688573.879995) can0 19B50800#8484848484848484
(946688573.889995) can0 001#3D00000000000000
(946688573.889995) can0 002#D50300007D030000
(946688573.909995) can0 001#3D00000000000000
(946688573.909995) can0 002#D50300007F030000
(946688573.909995) can0 18FF1515#0000000327010027
(946688573.909995) can0 400#403F2878286F0000
(946688573.909995) can0 401#007E000000000000
(946688573.929995) can0 001#3C00000000000000
(946688573.929995) can0 002#D503000080030000
(946688573.939995) can0 18FF1515#0000000327010027
(946688573.939995) can0 400#403F297127740000
(946688573.939995) can0 401#007E000000000000
(946688573.949995) can0 001#3B00000000000000
(946688573.949995) can0 002#D503000081030000
(946688573.969995) can0 001#3B00000000000000
(946688573.969995) can0 002#D503000082030000
(946688573.969995) can0 18FF1515#0000000327010027
(946688573.969995) can0 400#413F276F29740000
(946688573.969995) can0 401#017E000000000000
(946688573.989995) can0 001#3A00000000000000
(946688573.989995) can0 002#D503000083030000
(946688573.989995) can0 18FF01EA#0AF583EF7D007D50
(946688573.989995) can0 18FF02EA#0AF583EF7D007D50
(946688573.989995) can0 19B50001#8CA0960000000000
(946688573.989995) can0 19B50008#8286840000000000
(946688573.989995) can0 19B50100#9696969696969696
(946688573.989995) can0 19B50800#8484848484848484
(946688573.999995) can0 18FF1515#0000000327010027
(946688573.999995) can0 400#3F40287028740000
(946688573.999995) can0 401#007F000000000000
(946688574.009995) can0 001#3900000000000000
(946688574.009995) can0 002#D503000085030000
(946688574.029995) can0 001#310086FFC9FF0000
(946688574.029995) can0 002#D5039DFD86030000
(946688574.029995) can0 18FF1515#0000000327010027
(946688574.029995) can0 400#42402873286F0000
(946688574.029995) can0 401#0081000000000000
(946688574.049995) can0 001#2A001AFF98FF0000
(946688574.049995) can0 002#D50381FB86030000
(946688574.059995) can0 18FF1515#0000000325010025
(946688574.059995) can0 400#413F287827700000
(946688574.059995) can0 401#0086000000000000
(946688574.069995) can0 001#2300BBFE6CFF0000
(946688574.069995) can0 002#D503A4F987030000
(946688574.089995) can0 001#1D0067FE45FF0000
(946688574.089995) can0 002#D503FFF788030000
(946688574.089995) can0 18FF1515#0000000324010024
(946688574.089995) can0 400#3F41297228740000
(946688574.089995) can0 401#0088000000000000
(946688574.099995) can0 18FF01EA#0AFF83D97D007D50
(946688574.099995) can0 18FF02EA#0AFF83D97D007D50
(946688574.099995) can0 19B50001#8CA0960000000000
(946688574.099995) can0 19B50008#8286840000000000
(946688574.099995) can0 19B50100#9696969696969696
(946688574.099995) can0 19B50800#8484848484848484
(946688574.109995) can0 001#17001CFE23FF0000
(946688574.109995) can0 002#D5038AF688030000
(946688574.119995) can0 18FF1515#0000000323010023
(946688574.119995) can0 400#413F277828710000
(946688574.119995) can0 401#008B000000000000
(946688574.129995) can0 001#1200DAFD05FF0000
(946688574.129995) can0 002#D50341F589030000
(946688574.149995) can0 001#0E00A0FDEBFE0000
(946688574.149995) can0 002#D5031EF489030000
(946688574.149995) can0 18FF1515#0000000322010022
(946688574.149995) can0 400#4042277827700000
(946688574.149995) can0 401#018C000000000000
(946688574.169995) can0 001#0A006DFDD3FE0000
(946688574.169995) can0 002#D5031DF389030000
(946688574.179995) can0 18FF1515#0000000322010022
(946688574.179995) can0 400#4142287629750000
(946688574.179995) can0 401#008E000000000000
(946688574.189995) can0 001#06003FFDBEFE0000
(946688574.189995) can0 002#D5033AF289030000
(946688574.209995) can0 001#030017FDACFE0000
(946688574.209995) can0 002#D50372F18A030000
(946688574.209995) can0 18FF1515#0000000321010021
(946688574.209995) can0 400#4040297128760000
(946688574.209995) can0 401#008F000000000000
(946688574.209995) can0 18FF01EA#0A0184C97D007D50
(946688574.209995) can0 18FF02EA#0A0184C97D007D50
(946688574.209995) can0 19B50001#8CA0960000000000
(946688574.209995) can0 19B50008#8286840000000000
(946688574.209995) can0 19B50100#9696969696969696
(946688574.209995) can0 19B50800#8484848484848484
(946688574.229995) can0 001#0000F4FC9CFE0000
(946688574.229995) can0 002#D503C0F08A030000
(946688574.239995) can0 18FF1515#0000000321010021
(946688574.239995) can0 400#42402873286F0000
(946688574.239995) can0 401#0090000000000000
(946688574.249995) can0 001#FFFFD4FC8DFE0000
(946688574.249995) can0 002#D50324F08A030000
(946688574.269995) can0 001#FDFFB9FC81FE0000
(946688574.269995) can0 002#D50399EF89030000
(946688574.269995) can0 18FF1515#0000000320010020
(946688574.269995) can0 400#3F412873296F0000
(946688574.269995) can0 401#0193000000000000
(946688574.289995) can0 001#FBFFA0FC75FE0000
(946688574.289995) can0 002#D5031FEF89030000
(946688574.299995) can0 18FF1515#0000000320010020
(946688574.299995) can0 400#41412974296F0000
(946688574.299995) can0 401#0094000000000000
(946688574.309995) can0 001#F9FF8BFC6CFE0000
(946688574.309995) can0 002#D503B3EE89030000
(946688574.319995) can0 18FF01EA#0A0184C07D007D50
(946688574.319995) can0 18FF02EA#0A0184C07D007D50
(946688574.319995) can0 19B50001#8CA0960000000000
(946688574.319995) can0 19B50008#8286840000000000
(946688574.319995) can0 19B50100#9696969696969696
(946688574.319995) can0 19B50800#8484848484848484
(946688574.329995) can0 001#F7FF77FC63FE0000
(946688574.329995) can0 002#D50353EE89030000
(946688574.329995) can0 18FF1515#000000031F01001F
(946688574.329995) can0 400#4242287128700000
(946688574.329995) can0 401#0094000000000000
(946688574.349995) can0 001#F6FF67FC5BFE0000
(946688574.349995) can0 002#D503FFED89030000
(946688574.359995) can0 18FF1515#000000031F01001F
(946688574.359995) can0 400#423F287727700000
(946688574.359995) can0 401#0095000000000000
(946688574.369995) can0 001#F5FF58FC55FE0000
(946688574.369995) can0 002#D503B4ED89030000
(946688574.389995) can0 001#F4FF4BFC4FFE0000
(946688574.389995) can0 002#D50373ED88030000
(946688574.389995) can0 18FF1515#000000031F01001F
(946688574.389995) can0 400#4141297628760000
(946688574.389995) can0 401#0094000000000000
(946688574.409995) can0 001#F3FF3FFC4AFE0000
(946688574.409995) can0 002#D50338ED88030000
(946688574.419995) can0 18FF1515#000000031F01001F
(946688574.419995) can0 400#3F3F2977276F0000
(946688574.419995) can0 401#0195000000000000
(946688574.429995) can0 001#F2FF35FC45FE0000
(946688574.429995) can0 002#D50305ED88030000
(946688574.429995) can0 18FF01EA#0AFE83BA7D007D50
(946688574.429995) can0 18FF02EA#0AFE83BA7D007D50
(946688574.429995) can0 19B50001#8CA0960000000000
(946688574.429995) can0 19B50008#8286840000000000
(946688574.429995) can0 19B50100#9696969696969696
(946688574.429995) can0 19B50800#8484848484848484
(946688574.449995) can0 001#F1FF2BFC41FE0000
(946688574.449995) can0 002#D503D7EC87030000
(946688574.449995) can0 18FF1515#000000031F01001F
(946688574.449995) can0 400#4142286E28750000
(946688574.449995) can0 401#0096000000000000
(946688574.459995) can0 18FF1080#0000000000000000
(946688574.459995) can0 18FF1180#0000000000000000
(946688574.459995) can0 18FF1280#0000000000000000
(946688574.459995) can0 18FFE180#0000000000000000
(946688574.459995) can0 18FFE280#0000000000000000
(946688574.469995) can0 001#F0FF23FC3EFE0000
(946688574.469995) can0 002#D503AFEC87030000
(946688574.479995) can0 18FF1515#000000031E01001E
(946688574.479995) can0 400#42402872286F0000
(946688574.479995) can0 401#0095000000000000
(946688574.489995) can0 001#F0FF1CFC3BFE0000
(946688574.489995) can0 002#D5038CEC87030000
(946688574.509995) can0 001#EFFF16FC38FE0000
(946688574.509995) can0 002#D5036CEC86030000
(946688574.509995) can0 18FF1515#000000031E01001E
(946688574.509995) can0 400#3F3F276F28710000
(946688574.509995) can0 401#0197000000000000
(946688574.529995) can0 001#EFFF11FC36FE0000
(946688574.529995) can0 002#D50351EC86030000
(946688574.539995) can0 18FF1515#000000031E01001E
(946688574.539995) can0 400#4042297628770000
(946688574.539995) can0 401#0096000000000000
(946688574.539995) can0 18FF01EA#0AFA83B77D007D50
(946688574.539995) can0 18FF02EA#0AFA83B77D007D50
(946688574.539995) can0 19B50001#8CA0960000000000
(946688574.539995) can0 19B50008#8286840000000000
(946688574.539995) can0 19B50100#9696969696969696
(946688574.539995) can0 19B50800#8484848484848484
(946688574.549995) can0 001#EEFF0CFC33FE0000
(946688574.549995) can0 002#D50338EC86030000
(946688574.569995) can0 001#EEFF07FC32FE0000
(946688574.569995) can0 002#D50323EC85030000
(946688574.569995) can0 18FF1515#000000031E01001E
(946688574.569995) can0 400#4141297128760000
(946688574.569995) can0 401#0096000000000000
(946688574.589995) can0 001#EEFF04FC30FE0000
(946688574.589995) can0 002#D50310EC85030000
(946688574.599995) can0 18FF1515#000000031E01001E
(946688574.599995) can0 400#3F3F286F28770000
(946688574.599995) can0 401#0097000000000000
(946688574.609995) can0 001#EEFF00FC2FFE0000
(946688574.609995) can0 002#D503FFEB85030000
(946688574.629995) can0 001#EEFFFDFB2EFE0000
(946688574.629995) can0 002#D503F0EB84030000
(946688574.629995) can0 18FF1515#000000031E01001E
(946688574.629995) can0 400#3F3F287228730000
(946688574.629995) can0 401#0096000000000000
(946688574.649995) can0 001#EDFFFBFB2DFE0000
(946688574.649995) can0 002#D503E3EB84030000
(946688574.649995) can0 18FF01EA#0AF683B67D007D50
(946688574.649995) can0 18FF02EA#0AF683B67D007D50
(946688574.649995) can0 19B50001#8CA0960000000000
(946688574.649995) can0 19B50008#8286840000000000
(946688574.649995) can0 19B50100#9696969696969696
(946688574.649995) can0 19B50800#8484848484848484
(946688574.659995) can0 18FF1515#000000031E01001E
(946688574.659995) can0 400#4040297028710000
(946688574.659995) can0 401#0197000000000000
(946688574.669995) can0 001#EDFFF8FB2CFE0000
(946688574.669995) can0 002#D503D7EB83030000
(946688574.689995) can0 001#EDFFF6FB2BFE0000
(946688574.689995) can0 002#D503CDEB83030000
(946688574.689995) can0 18FF1515#000000031E01001E
(946688574.689995) can0 400#4041297728720000
(946688574.689995) can0 401#0096000000000000
(946688574.709995) can0 001#EDFFF4FB2AFE0000
(946688574.709995) can0 002#D503C4EB83030000
(946688574.719995) can0 18FF1515#000000031E01001E
(946688574.719995) can0 400#403E287528770000
(946688574.719995) can0 401#0096000000000000
(946688574.729995) can0 001#EDFFF3FB2AFE0000
(946688574.729995) can0 002#D503BCEB82030000
(946688574.749995) can0 001#EDFFF1FB29FE0000
(946688574.749995) can0 002#D503B4EB82030000
(946688574.749995) can0 18FF1515#000000031E01001E
(946688574.749995) can0 400#403F297228780000
(946688574.749995) can0 401#0096000000000000
(946688574.759995) can0 18FF01EA#0AF283B57D007D50
(946688574.759995) can0 18FF02EA#0AF283B57D007D50
(946688574.759995) can0 19B50001#8CA0960000000000
(946688574.759995) can0 19B50008#8286840000000000
(946688574.759995) can0 19B50100#9696969696969696
(946688574.759995) can0 19B50800#8484848484848484
(946688574.769994) can0 001#EDFFF0FB29FE0000
(946688574.769994) can0 002#D503AEEB82030000
(946688574.779994) can0 18FF1515#000000031E01001E
(946688574.779994) can0 400#4040287827760000
(946688574.779994) can0 401#0096000000000000
(946688574.789994) can0 001#EDFFEFFB29FE0000
(946688574.789994) can0 002#D503A9EB81030000
(946688574.809994) can0 001#EDFFEEFB29FE0000
(946688574.809994) can0 002#D503A4EB81030000
(946688574.809994) can0 18FF1515#000000031E01001E
(946688574.809994) can0 400#4042287428700000
(946688574.809994) can0 401#0096000000000000
(946688574.829994) can0 001#EDFFEDFB28FE0000
(946688574.829994) can0 002#D5039FEB80030000
(946688574.839994) can0 18FF1515#000000031E01001E
(946688574.839994) can0 400#413E287727770000
(946688574.839994) can0 401#0097000000000000
(946688574.849994) can0 001#EDFFECFB28FE0000
(946688574.849994) can0 002#D5039CEB80030000
(946688574.869994) can0 001#EEFFECFB28FE0000
(946688574.869994) can0 002#D50398EB80030000
(946688574.869994) can0 18FF1515#000000031E01001E
(946688574.869994) can0 400#413F297328740000
(946688574.869994) can0 401#0097000000000000
(946688574.869994) can0 18FF01EA#0AEE83B47D007D50
(946688574.869994) can0 18FF02EA#0AEE83B47D007D50
(946688574.869994) can0 19B50001#8CA0960000000000
(946688574.869994) can0 19B50008#8286840000000000
(946688574.869994) can0 19B50100#9696969696969696
(946688574.869994) can0 19B50800#8484848484848484
(946688574.889994) can0 001#EEFFEBFB28FE0000
(946688574.889994) can0 002#D50395EB7F030000
(946688574.899994) can0 18FF1515#000000031E01001E
(946688574.899994) can0 400#413E287628740000
(946688574.899994) can0 401#0097000000000000
(946688574.909994) can0 001#EEFFEBFB28FE0000
(946688574.909994) can0 002#D50393EB7F030000
(946688574.929994) can0 001#EEFFEAFB28FE0000
(946688574.929994) can0 002#D50390EB7F030000
(946688574.929994) can0 18FF1515#000000031E01001E
(946688574.929994) can0 400#4140287429770000
(946688574.929994) can0 401#0098000000000000
(946688574.949994) can0 001#EEFFEAFB28FE0000
(946688574.949994) can0 002#D5038EEB7E030000
(946688574.959994) can0 18FF1515#000000031E01001E
(946688574.959994) can0 400#3F3F277228730000
(946688574.959994) can0 401#0197000000000000
(946688574.969994) can0 001#EEFFE9FB28FE0000
(946688574.969994) can0 002#D5038CEB7E030000
(946688574.979994) can0 18FF01EA#0AEA83B47D007D50
(946688574.979994) can0 18FF02EA#0AEA83B47D007D50
(946688574.979994) can0 19B50001#8CA0960000000000
(946688574.979994) can0 19B50008#8286840000000000
(946688574.979994) can0 19B50100#9696969696969696
(946688574.979994) can0 19B50800#8484848484848484
(946688574.989994) can0 001#EEFFE9FB28FE0000
(946688574.989994) can0 002#D5038BEB7D030000
(946688574.989994) can0 18FF1515#000000031E01001E
(946688574.989994) can0 400#413F287728710000
(946688574.989994) can0 401#0196000000000000
(946688575.009994) can0 001#EEFFE9FB28FE0000
(946688575.009994) can0 002#D50389EB7D030000
(946688575.019994) can0 18FF1515#000000031E01001E
(946688575.019994) can0 400#3E40277629780000
(946688575.019994) can0 401#0097000000000000
(946688575.029994) can0 001#EFFFE8FB28FE0000
(946688575.029994) can0 002#D50388EB7D030000
(946688575.049994) can0 001#EFFFE8FB28FE0000
(946688575.049994) can0 002#D50387EB7C030000
(946688575.049994) can0 18FF1515#000000031E01001E
(946688575.049994) can0 400#4141277728730000
(946688575.049994) can0 401#0097000000000000
(946688575.069994) can0 001#EFFFE8FB28FE0000
(946688575.069994) can0 002#D50386EB7C030000
(946688575.069994) can0 18FF1080#0000000000000000
(946688575.069994) can0 18FF1180#0000000000000000
(946688575.069994) can0 18FF1280#0000000000000000
(946688575.069994) can0 18FFE180#0000000000000000
(946688575.069994) can0 18FFE280#0000000000000000
(946688575.079994) can0 18FF1515#000000031E01001E
(946688575.079994) can0 400#413F286F29730000
(946688575.079994) can0 401#0197000000000000
(946688575.089994) can0 001#EFFFE8FB28FE0000
(946688575.089994) can0 002#D50385EB7C030000
(946688575.089994) can0 18FF01EA#0AE683B47D007D50
(946688575.089994) can0 18FF02EA#0AE683B47D007D50
(946688575.089994) can0 19B50001#8CA0960000000000
(946688575.089994) can0 19B50008#8286840000000000
(946688575.089994) can0 19B50100#9696969696969696
(946688575.089994) can0 19B50800#8484848484848484
(946688575.109994) can0 001#EFFFE8FB29FE0000
(946688575.109994) can0 002#D50384EB7B030000
(946688575.109994) can0 18FF1515#000000031E01001E
(946688575.109994) can0 400#413F287229730000
(946688575.109994) can0 401#0097000000000000
(946688575.129994) can0 001#EFFFE8FB29FE0000
(946688575.129994) can0 002#D50384EB7B030000
(946688575.139994) can0 18FF1515#000000031E01001E
(946688575.139994) can0 400#3E3E297327770000
(946688575.139994) can0 401#0096000000000000
(946688575.149994) can0 001#EFFFE7FB29FE0000
(946688575.149994) can0 002#D50383EB7B030000
(946688575.169994) can0 001#F0FFE7FB29FE0000
(946688575.169994) can0 002#D50383EB7A030000
(946688575.169994) can0 18FF1515#000000031E01001E
(946688575.169994) can0 400#413F287328720000
(946688575.169994) can0 401#0096000000000000
(946688575.189994) can0 001#F0FFE7FB29FE0000
(946688575.189994) can0 002#D50382EB7A030000
(946688575.199994) can0 18FF1515#000000031E01001E
(946688575.199994) can0 400#423E297028740000
(946688575.199994) can0 401#0097000000000000
(946688575.199994) can0 18FF01EA#0AE283B47D007D50
(946688575.199994) can0 18FF02EA#0AE283B47D007D50
(946688575.199994) can0 19B50001#8CA0960000000000
(946688575.199994) can0 19B50008#8286840000000000
(946688575.199994) can0 19B50100#9696969696969696
(946688575.199994) can0 19B50800#8484848484848484
(946688575.209994) can0 001#F0FFE7FB29FE0000
(946688575.209994) can0 002#D50382EB7A030000
(946688575.229994) can0 001#F0FFE7FB29FE0000
(946688575.229994) can0 002#D50381EB79030000
(946688575.229994) can0 18FF1515#000000031E01001E
(946688575.229994) can0 400#3F412976286E0000
(946688575.229994) can0 401#0197000000000000
(946688575.249994) can0 001#F0FFE7FB2AFE0000
(946688575.249994) can0 002#D50381EB79030000
(946688575.259994) can0 18FF1515#000000031E01001E
(946688575.259994) can0 400#4040286F29730000
(946688575.259994) can0 401#0097000000000000
(946688575.269994) can0 001#F0FFE7FB2AFE0000
(946688575.269994) can0 002#D50381EB79030000
(946688575.289994) can0 001#F1FFE7FB2AFE0000
(946688575.289994) can0 002#D50380EB78030000
(946688575.289994) can0 18FF1515#000000031E01001E
(946688575.289994) can0 400#413E286E29720000
(946688575.289994) can0 401#0196000000000000
(946688575.309994) can0 001#F1FFE7FB2AFE0000
(946688575.309994) can0 002#D50380EB78030000
(946688575.309994) can0 18FF01EA#0ADF83B47D007D50
(946688575.309994) can0 18FF02EA#0ADF83B47D007D50
(946688575.309994) can0 19B50001#8CA0960000000000
(946688575.309994) can0 19B50008#8286840000000000
(946688575.309994) can0 19B50100#9696969696969696
(946688575.309994) can0 19B50800#8484848484848484
(946688575.319994) can0 18FF1515#000000031E01001E
(946688575.319994) can0 400#3F3E287829770000
(946688575.319994) can0 401#0096000000000000
(946688575.329994) can0 001#F1FFE7FB2AFE0000
(946688575.329994) can0 002#D50380EB78030000
(946688575.349994) can0 001#F1FFE7FB2AFE0000
(946688575.349994) can0 002#D50380EB77030000
(946688575.349994) can0 18FF1515#000000031E01001E
(946688575.349994) can0 400#3F40287727730000
(946688575.349994) can0 401#0097000000000000
(946688575.369994) can0 001#F1FFE7FB2AFE0000
(946688575.369994) can0 002#D50380EB77030000
(946688575.379994) can0 18FF1515#000000031E01001E
(946688575.379994) can0 400#413F297528760000
(946688575.379994) can0 401#0197000000000000
(946688575.389994) can0 001#F1FFE7FB2BFE0000
(946688575.389994) can0 002#D50380EB77030000
(946688575.409994) can0 001#F1FFE7FB2BFE0000
(946688575.409994) can0 002#D5037FEB76030000
(946688575.409994) can0 18FF1515#000000031E01001E
(946688575.409994) can0 400#4140287328710000
(946688575.409994) can0 401#0097000000000000
(946688575.419994) can0 18FF01EA#0ADB83B47D007D50
(946688575.419994) can0 18FF02EA#0ADB83B47D007D50
(946688575.419994) can0 19B50001#8CA0960000000000
(946688575.419994) can0 19B50008#8286840000000000
(946688575.419994) can0 19B50100#9696969696969696
(946688575.419994) can0 19B50800#8484848484848484
(946688575.429994) can0 001#F2FFE7FB2BFE0000
(946688575.429994) can0 002#D5037FEB76030000
(946688575.439994) can0 18FF1515#000000031E01001E
(946688575.439994) can0 400#3F41277528700000
(946688575.439994) can0 401#0097000000000000
(946688575.449994) can0 001#F2FFE7FB2BFE0000
(946688575.449994) can0 002#D5037FEB76030000
(946688575.469994) can0 001#F2FFE7FB2BFE0000
(946688575.469994) can0 002#D5037FEB76030000
(946688575.469994) can0 18FF1515#000000031E01001E
(946688575.469994) can0 400#3E41297028730000
(946688575.469994) can0 401#0097000000000000
(946688575.489994) can0 001#F2FFE7FB2BFE0000
(946688575.489994) can0 002#D5037FEB75030000
(946688575.499994) can0 18FF1515#000000031E01001E
(946688575.499994) can0 400#3D3E277528710000
(946688575.499994) can0 401#0096000000000000
(946688575.509994) can0 001#F2FFE7FB2BFE0000
(946688575.509994) can0 002#D5037FEB75030000
(946688575.529994) can0 001#F2FFE7FB2CFE0000
(946688575.529994) can0 002#D5037FEB75030000
(946688575.529994) can0 18FF1515#000000031E01001E
(946688575.529994) can0 400#40402975286E0000
(946688575.529994) can0 401#0096000000000000
(946688575.529994) can0 18FF01EA#0AD883B47D007D50
(946688575.529994) can0 18FF02EA#0AD883B47D007D50
(946688575.529994) can0 19B50001#8CA0960000000000
(946688575.529994) can0 19B50008#8286840000000000
(946688575.529994) can0 19B50100#9696969696969696
(946688575.529994) can0 19B50800#8484848484848484
(946688575.549994) can0 001#F3FFE7FB2CFE0000
(946688575.549994) can0 002#D5037FEB74030000
(946688575.559994) can0 18FF1515#000000031E01001E
(946688575.559994) can0 400#403F297527770000
(946688575.559994) can0 401#0096000000000000
(946688575.569994) can0 001#F3FFE7FB2CFE0000
(946688575.569994) can0 002#D5037FEB74030000
(946688575.589994) can0 001#F3FFE7FB2CFE0000
(946688575.589994) can0 002#D5037FEB74030000
(946688575.589994) can0 18FF1515#000000031E01001E
(946688575.589994) can0 400#403E297428700000
(946688575.589994) can0 401#0097000000000000
(946688575.609994) can0 001#F3FFE7FB2CFE0000
(946688575.609994) can0 002#D5037FEB74030000
(946688575.619994) can0 18FF1515#000000031E01001E
(946688575.619994) can0 400#3E3F2970276F0000
(946688575.619994) can0 401#0196000000000000
(946688575.629994) can0 001#F3FFE7FB2CFE0000
(946688575.629994) can0 002#D5037FEB73030000
(946688575.639994) can0 18FF01EA#0AD583B47D007D50
(946688575.639994) can0 18FF02EA#0AD583B47D007D50
(946688575.639994) can0 19B50001#8CA0960000000000
(946688575.639994) can0 19B50008#8286840000000000
(946688575.639994) can0 19B50100#9696969696969696
(946688575.639994) can0 19B50800#8484848484848484
(946688575.649994) can0 001#F3FFE7FB2CFE0000
(946688575.649994) can0 002#D5037FEB73030000
(946688575.649994) can0 18FF1515#000000031E01001E
(946688575.649994) can0 400#3D41287129700000
(946688575.649994) can0 401#0096000000000000
(946688575.669994) can0 001#F3FFE7FB2DFE0000
(946688575.669994) can0 002#D5037FEB73030000
(946688575.679994) can0 18FF1515#000000031E01001E
(946688575.679994) can0 400#403F287528710000
(946688575.679994) can0 401#0097000000000000
(946688575.679994) can0 18FF1080#0000000000000000
(946688575.679994) can0 18FF1180#0000000000000000
(946688575.679994) can0 18FF1280#0000000000000000
(946688575.679994) can0 18FFE180#0000000000000000
(946688575.679994) can0 18FFE280#0000000000000000
(946688575.689994) can0 001#F3FFE7FB2DFE0000
(946688575.689994) can0 002#D5037FEB73030000
(946688575.709994) can0 001#F4FFE7FB2DFE0000
(946688575.709994) can0 002#D5037FEB72030000
(946688575.709994) can0 18FF1515#000000031E01001E
(946688575.709994) can0 400#3F41277529750000
(946688575.709994) can0 401#0096000000000000
(946688575.729994) can0 001#F4FFE7FB2DFE0000
(946688575.729994) can0 002#D5037FEB72030000
(946688575.739994) can0 18FF1515#000000031E01001E
(946688575.739994) can0 400#413F2877296F0000
(946688575.739994) can0 401#0196000000000000
(946688575.749994) can0 001#F4FFE7FB2DFE0000
(946688575.749994) can0 002#D5037FEB72030000
(946688575.749994) can0 18FF01EA#0AD283B47D007D50
(946688575.749994) can0 18FF02EA#0AD283B47D007D50
(946688575.749994) can0 19B50001#8CA0960000000000
(946688575.749994) can0 19B50008#8286840000000000
(946688575.749994) can0 19B50100#9696969696969696
(946688575.749994) can0 19B50800#8484848484848484
(946688575.769994) can0 001#F4FFE7FB2DFE0000
(946688575.769994) can0 002#D5037FEB72030000
(946688575.769994) can0 18FF1515#000000031E01001E
(946688575.769994) can0 400#4140277629730000
(946688575.769994) can0 401#0097000000000000
(946688575.789994) can0 001#F4FFE7FB2DFE0000
(946688575.789994) can0 002#D5037FEB71030000
(946688575.799994) can0 18FF1515#000000031E01001E
(946688575.799994) can0 400#3E3F287229700000
(946688575.799994) can0 401#0097000000000000
(946688575.809994) can0 001#F4FFE7FB2EFE0000
(946688575.809994) can0 002#D5037FEB71030000
(946688575.829993) can0 001#F4FFE7FB2EFE0000
(946688575.829993) can0 002#D5037FEB71030000
(946688575.829993) can0 18FF1515#000000031E01001E
(946688575.829993) can0 400#3E40297028720000
(946688575.829993) can0 401#0097000000000000
(946688575.849993) can0 001#F4FFE7FB2EFE0000
(946688575.849993) can0 002#D5037FEB71030000
(946688575.859993) can0 18FF1515#000000031E01001E
(946688575.859993) can0 400#3E41287628730000
(946688575.859993) can0 401#0096000000000000
(946688575.859993) can0 18FF01EA#0AD083B47D007D50
(946688575.859993) can0 18FF02EA#0AD083B47D007D50
(946688575.859993) can0 19B50001#8CA0960000000000
(946688575.859993) can0 19B50008#8286840000000000
(946688575.859993) can0 19B50100#9696969696969696
(946688575.859993) can0 19B50800#8484848484848484
(946688575.869993) can0 001#F5FFE7FB2EFE0000
(946688575.869993) can0 002#D5037FEB70030000
(946688575.889993) can0 001#F5FFE7FB2EFE0000
(946688575.889993) can0 002#D5037FEB70030000
(946688575.889993) can0 18FF1515#000000031E01001E
(946688575.889993) can0 400#3D41286E28750000
(946688575.889993) can0 401#0096000000000000
(946688575.909993) can0 001#F5FFE7FB2EFE0000
(946688575.909993) can0 002#D5037FEB70030000
(946688575.919993) can0 18FF1515#000000031E01001E
(946688575.919993) can0 400#3F3F287628770000
(946688575.919993) can0 401#0096000000000000
(946688575.929993) can0 001#F5FFE7FB2EFE0000
(946688575.929993) can0 002#D5037FEB70030000
(946688575.949993) can0 001#F5FFE7FB2EFE0000
(946688575.949993) can0 002#D5037FEB6F030000
(946688575.949993) can0 18FF1515#000000031E01001E
(946688575.949993) can0 400#3F3E287028740000
(946688575.949993) can0 401#0196000000000000
(946688575.969993) can0 001#F5FFE7FB2FFE0000
(946688575.969993) can0 002#D5037FEB6F030000
(946688575.969993) can0 18FF01EA#0ACD83B47D007D50
(946688575.969993) can0 18FF02EA#0ACD83B47D007D50
(946688575.969993) can0 19B50001#8CA0960000000000
(946688575.969993) can0 19B50008#8286840000000000
(946688575.969993) can0 19B50100#9696969696969696
(946688575.969993) can0 19B50800#8484848484848484
(946688575.979993) can0 18FF1515#000000031E01001E
(946688575.979993) can0 400#413D287629760000
(946688575.979993) can0 401#0096000000000000
(946688575.989993) can0 001#F5FFE7FB2FFE0000
(946688575.989993) can0 002#D5037FEB6F030000
(946688576.009993) can0 001#F5FFE7FB2FFE0000
(946688576.009993) can0 002#D5037FEB6F030000
(946688576.009993) can0 18FF1515#000000031E01001E
(946688576.009993) can0 400#403E297228760000
(946688576.009993) can0 401#0196000000000000
(946688576.029993) can0 001#F6FFE7FB2FFE0000
(946688576.029993) can0 002#D5037FEB6E030000
(946688576.039993) can0 18FF1515#000000031E01001E
(946688576.039993) can0 400#3F3E287529750000
(946688576.039993) can0 401#0095000000000000
(946688576.049993) can0 001#F6FFE7FB2FFE0000
(946688576.049993) can0 002#D5037FEB6E030000
(946688576.069993) can0 001#F6FFE7FB2FFE0000
(946688576.069993) can0 002#D5037FEB6E030000
(946688576.069993) can0 18FF1515#000000031E01001E
(946688576.069993) can0 400#403F2870296E0000
(946688576.069993) can0 401#0097000000000000
(946688576.079993) can0 18FF01EA#0ACB83B47D007D50
(946688576.079993) can0 18FF02EA#0ACB83B47D007D50
