(0946688485.151261) can0 0000000C#CFFF
(0946688485.151705) can0 0000000D#CF0C00000000
(0946688485.152427) can0 00000001#EEFF000000000000
(0946688485.152738) can0 00000002#2FFC00009F002300
(0946688485.155517) can0 00000103#0101010101010101
(0946688485.156292) can0 00000010#CFFF
(0946688485.156792) can0 00000011#CF00000000000000
(0946688485.162546) can0 00000001#EFFF000000000000
(0946688485.162827) can0 00000002#2EFC00009F002300
(0946688485.163784) can0 00000010#CFFF
(0946688485.164303) can0 00000011#CF06000000000000
(0946688485.165477) can0 00000103#0101010101010101
(0946688485.169301) can0 00000010#CFFF
(0946688485.169778) can0 00000011#CF0C00000000
(0946688485.172638) can0 00000001#EEFF000000000000
(0946688485.172914) can0 00000002#2FFC0000A0002300
(0946688485.174639) can0 00000014#CFFF
(0946688485.175250) can0 00000015#CF00000000000000
(0946688485.175508) can0 00000103#0101010101010101
(0946688485.175800) can0 18FF1515#0000000100010000
(0946688485.182720) can0 00000001#EEFF000001000000
(0946688485.183001) can0 00000002#2EFC0000A0002300
(0946688485.185499) can0 00000103#0101010101010101
(0946688485.191119) can0 00000014#CFFF
(0946688485.191625) can0 00000015#CF06000000000000
(0946688485.192837) can0 00000001#EEFF000001000000
(0946688485.193206) can0 00000002#2EFC0000A0002300
(0946688485.195487) can0 00000103#0101010101010101
(0946688485.197538) can0 00000303#0000
(0946688485.198628) can0 19B50000#0004000000010060
(0946688485.199355) can0 19B50007#0000002700000000
(0946688485.199792) can0 19B50001#BEC4C1936B000000
(0946688485.200391) can0 19B50002#7879780000000000
(0946688485.200997) can0 19B50003#0000000000000000
(0946688485.201575) can0 19B50008#797B7A0000000000
(0946688485.202659) can0 19B50500#0000002500003A64
(0946688485.202925) can0 00000001#EEFF000001000000
(0946688485.203216) can0 00000002#2FFC0000A0002300
(0946688485.204052) can0 19B50600#FFFF007699990000
(0946688485.204698) can0 19B50009#BEC4C10000936B00
(0946688485.205492) can0 00000103#0101010101010101
(0946688485.210133) can0 00000014#CFFF
(0946688485.210570) can0 00000015#CF0C00000000
(0946688485.213033) can0 00000001#EEFF000001000000
(0946688485.213302) can0 00000002#2FFC0000A0002300
(0946688485.215478) can0 00000103#0101010101010101
(0946688485.217475) can0 00000018#CFFF
(0946688485.217956) can0 00000019#CF00000000000000
(0946688485.222122) can0 00000018#CFFF
(0946688485.222603) can0 00000019#CF06000000000000
(0946688485.222785) can0 00000303#0000
(0946688485.223111) can0 00000001#EEFF000001000000
(0946688485.223425) can0 00000002#2FFC0000A0002300
(0946688485.225474) can0 00000103#0101010101010101
(0946688485.227700) can0 00000018#CFFF
(0946688485.228153) can0 00000019#CF0C00000000
(0946688485.232512) can0 0000001C#CFFF
(0946688485.232944) can0 0000001D#CF00000000000000
(0946688485.233278) can0 00000001#EFFF000001000000
(0946688485.233540) can0 00000002#2EFC0000A0002300
(0946688485.235511) can0 00000103#0101010101010101
(0946688485.237900) can0 0000001C#CFFF
(0946688485.238413) can0 0000001D#CF06000000000000
(0946688485.242579) can0 0000001C#CFFF
(0946688485.243021) can0 0000001D#CF0C00000000
(0946688485.243400) can0 00000001#EEFF000001000000
(0946688485.243677) can0 00000002#2EFC0000A0002300
(0946688485.245466) can0 00000103#0101010101010101
(0946688485.253570) can0 00000001#EFFF000001000000
(0946688485.253891) can0 00000002#2EFC0000A0002300
(0946688485.255492) can0 00000103#0101010101010101
(0946688485.264164) can0 00000001#EFFF000001000000
(0946688485.264472) can0 00000002#2EFC0000A0002300
(0946688485.265473) can0 00000103#0101010101010101
(0946688485.274424) can0 00000001#EFFF000001000000
(0946688485.274682) can0 00000002#2EFC0000A0002300
(0946688485.275490) can0 00000103#0101010101010101
(0946688485.275775) can0 18FF1515#0000000100010000
(0946688485.284491) can0 00000001#EFFF000000000000
(0946688485.284791) can0 00000002#2EFC0000A0002300
(0946688485.285496) can0 00000103#0101010101010101
(0946688485.294619) can0 00000001#EFFF000000000000
(0946688485.294896) can0 00000002#2EFC0000A0002300
(0946688485.295506) can0 00000103#0101010101010101
(0946688485.304696) can0 00000001#EEFF000000000000
(0946688485.304971) can0 00000002#2EFC0000A0002300
(0946688485.305500) can0 00000103#0101010101010101
(0946688485.314786) can0 00000001#EEFF000000000000
(0946688485.315087) can0 00000002#2EFC0000A0002300
(0946688485.315473) can0 00000103#0101010101010101
(0946688485.324890) can0 00000001#EEFF000000000000
(0946688485.325182) can0 00000002#2EFC0000A0002300
(0946688485.325466) can0 00000103#0101010101010101
(0946688485.330421) can0 00000303#0000
(0946688485.335015) can0 00000001#EEFF000000000000
(0946688485.335288) can0 00000002#2EFC0000A1002300
(0946688485.335588) can0 00000103#0101010101010101
(0946688485.344890) can0 19B50300#00
(0946688485.345148) can0 00000001#EEFF000001000000
(0946688485.345428) can0 00000002#2FFC0000A1002400
(0946688485.345747) can0 00000103#0101010101010101
(0946688485.346060) can0 19B50300#0000000000000000
(0946688485.355185) can0 00000001#EEFF000001000000
(0946688485.355483) can0 00000002#2EFC0000A1002400
(0946688485.355770) can0 00000103#0101010101010101
(0946688485.363038) can0 19B50301#0000000000000000
(0946688485.365305) can0 00000001#EEFF000001000000
(0946688485.365604) can0 00000002#2EFC0000A1002400
(0946688485.365870) can0 00000103#0101010101010101
(0946688485.375429) can0 00000001#EEFF000001000000
(0946688485.375684) can0 00000002#2EFC0000A1002400
(0946688485.375994) can0 00000103#0101010101010101
(0946688485.376298) can0 18FF1515#0000000100010000
(0946688485.384650) can0 19B50302#0000000000000000
(0946688485.385496) can0 00000103#0101010101010101
(0946688485.385768) can0 00000001#EEFF000000000000
(0946688485.386070) can0 00000002#2EFC0000A1002400
(0946688485.395490) can0 00000103#0101010101010101
(0946688485.395781) can0 00000001#EFFF000001000000
(0946688485.396052) can0 00000002#2FFC0000A1002400
(0946688485.403663) can0 19B50000#0004000000010060
(0946688485.404322) can0 19B50007#0000002700000000
(0946688485.404927) can0 19B50001#BEC4C1936B000000
(0946688485.405478) can0 00000103#0101010101010101
(0946688485.405765) can0 00000001#EFFF000000000000
(0946688485.406083) can0 00000002#2FFC0000A1002400
(0946688485.406365) can0 19B50002#7879780000000000
(0946688485.406671) can0 19B50003#0000000000000000
(0946688485.407054) can0 19B50008#797B7A0000000000
(0946688485.407933) can0 19B50500#0000002500003A64
(0946688485.409013) can0 19B50600#FFFF007699990000
(0946688485.409583) can0 19B50009#BEC4C10000936B00
(0946688485.415503) can0 00000103#0101010101010101
(0946688485.415818) can0 00000001#EFFF000000000000
(0946688485.416122) can0 00000002#2FFC0000A1002400
(0946688485.420432) can0 19B50303#0000000000000000
(0946688485.425474) can0 00000103#0101010101010101
(0946688485.426638) can0 00000001#EEFF000000000000
(0946688485.426904) can0 00000002#2EFC0000A1002400
(0946688485.435474) can0 00000103#0101010101010101
(0946688485.436720) can0 00000001#EEFF000000000000
(0946688485.436997) can0 00000002#2EFC0000A1002400
(0946688485.445490) can0 00000103#0101010101010101
(0946688485.446818) can0 00000001#EEFF000000000000
(0946688485.447137) can0 00000002#2FFC0000A1002400
(0946688485.449064) can0 19B50304#0000000000000000
(0946688485.455327) can0 00000303#0000
(0946688485.455614) can0 00000103#0101010101010101
(0946688485.456968) can0 00000001#EEFF000000000000
(0946688485.457262) can0 00000002#2EFC0000A1002400
(0946688485.465491) can0 00000103#0101010101010101
(0946688485.467042) can0 00000001#EEFF000000000000
(0946688485.467320) can0 00000002#2EFC0000A1002400
(0946688485.475504) can0 00000103#0101010101010101
(0946688485.475776) can0 18FF1515#0000000100010000
(0946688485.477169) can0 00000001#EEFF000000000000
(0946688485.477463) can0 00000002#2EFC0000A1002400
(0946688485.479526) can0 19B50305#0000000000000000
(0946688485.485499) can0 00000103#0101010101010101
(0946688485.486288) can0 00000303#0000
(0946688485.487263) can0 00000001#EFFF000001000000
(0946688485.487524) can0 00000002#2EFC0000A1002400
(0946688485.495489) can0 00000103#0101010101010101
(0946688485.497360) can0 00000001#EEFF000000000000
(0946688485.497626) can0 00000002#2EFC0000A2002400
(0946688485.505478) can0 00000103#0101010101010101
(0946688485.507444) can0 00000001#EFFF000001000000
(0946688485.507738) can0 00000002#2EFC0000A2002400
(0946688485.515538) can0 00000103#0101010101010101
(0946688485.517524) can0 00000001#EEFF000001000000
(0946688485.517818) can0 00000002#2EFC0000A2002400
(0946688485.525512) can0 00000103#0101010101010101
(0946688485.527634) can0 00000001#EEFF000001000000
(0946688485.527933) can0 00000002#2EFC0000A2002400
(0946688485.535456) can0 00000103#0101010101010101
(0946688485.535747) can0 19B50306#0000000000000000
(0946688485.537748) can0 00000001#EFFF000001000000
(0946688485.538031) can0 00000002#2EFC0000A2002400
(0946688485.545458) can0 00000103#0101010101010101
(0946688485.547830) can0 00000001#EFFF000002000000
(0946688485.548116) can0 00000002#2EFC0000A2002400
(0946688485.548890) can0 00000007#D003830093A30000
(0946688485.555468) can0 00000103#0101010101010101
(0946688485.557972) can0 00000001#EEFF000001000000
(0946688485.558229) can0 00000002#2EFC0000A2002400
(0946688485.565479) can0 00000103#0101010101010101
(0946688485.568018) can0 00000001#EEFF000001000000
(0946688485.568358) can0 00000002#2EFC0000A2002400
(0946688485.575478) can0 00000103#0101010101010101
(0946688485.575771) can0 18FF1515#0000000100010000
(0946688485.578144) can0 00000001#EEFF000001000000
(0946688485.578435) can0 00000002#2EFC0000A2002400
(0946688485.582172) can0 00000303#0000
(0946688485.585505) can0 00000103#0101010101010101
(0946688485.588244) can0 00000001#EEFF000000000000
(0946688485.588532) can0 00000002#2EFC0000A2002400
(0946688485.595494) can0 00000103#0101010101010101
(0946688485.597146) can0 19B50000#0004000000010060
(0946688485.597725) can0 19B50007#0000002700000000
(0946688485.598296) can0 19B50001#BEC4C1936B000000
(0946688485.598585) can0 00000001#EFFF000000000000
(0946688485.598860) can0 00000002#2EFC0000A2002400
(0946688485.599167) can0 19B50002#7879780000000000
(0946688485.599794) can0 19B50003#0000000000000000
(0946688485.600412) can0 19B50008#797B7A0000000000
(0946688485.601279) can0 19B50500#0000002500003A64
(0946688485.602546) can0 19B50600#FFFF007699990000
(0946688485.603130) can0 19B50009#BEC4C10000936B00
(0946688485.605495) can0 00000103#0101010101010101
(0946688485.608438) can0 00000001#EEFF000000000000
(0946688485.608714) can0 00000002#2EFC0000A2002400
(0946688485.613129) can0 00000303#0000
(0946688485.615495) can0 00000103#0101010101010101
(0946688485.619006) can0 00000001#EFFF000001000000
(0946688485.619311) can0 00000002#2EFC0000A2002400
(0946688485.625476) can0 00000103#0101010101010101
(0946688485.629116) can0 00000001#EFFF000001000000
(0946688485.629384) can0 00000002#2EFC0000A2002400
(0946688485.635505) can0 00000103#0101010101010101
(0946688485.639293) can0 00000001#EFFF000001000000
(0946688485.639598) can0 00000002#2EFC0000A2002400
(0946688485.644889) can0 00000008#D0FF
(0946688485.645342) can0 00000009#D000000000000000
(0946688485.645610) can0 00000103#0101010101010101
(0946688485.649759) can0 00000001#EFFF000001000000
(0946688485.650048) can0 00000002#2EFC0000A2002400
(0946688485.655491) can0 00000103#0101010101010101
(0946688485.659579) can0 00000008#D0FF
(0946688485.659864) can0 00000001#EFFF000001000000
(0946688485.660158) can0 00000002#2FFC0000A2002400
(0946688485.665520) can0 00000103#0101010101010101
(0946688485.669958) can0 00000001#EFFF000001000000
(0946688485.670235) can0 00000002#2FFC0000A3002400
(0946688485.675473) can0 00000103#0101010101010101
(0946688485.675767) can0 18FF1515#0000000100010000
(0946688485.680074) can0 00000001#EFFF000001000000
(0946688485.680339) can0 00000002#2EFC0000A3002400
(0946688485.685504) can0 00000103#0101010101010101
(0946688485.690155) can0 00000001#EFFF000000000000
(0946688485.690453) can0 00000002#2EFC0000A3002400
(0946688485.695474) can0 00000103#0101010101010101
(0946688485.700228) can0 00000001#EFFF000000000000
(0946688485.700537) can0 00000002#2EFC0000A3002400
(0946688485.705488) can0 00000103#0101010101010101
(0946688485.708068) can0 00000303#0000
(0946688485.710354) can0 00000001#EFFF000000000000
(0946688485.710619) can0 00000002#2FFC0000A3002400
(0946688485.715481) can0 00000103#0101010101010101
(0946688485.720417) can0 00000001#EEFF000000000000
(0946688485.720703) can0 00000002#2EFC0000A3002400
(0946688485.725482) can0 00000103#0101010101010101
(0946688485.730545) can0 00000001#EFFF000001000000
(0946688485.730821) can0 00000002#2EFC0000A3002400
(0946688485.735506) can0 00000103#0101010101010101
(0946688485.739004) can0 00000303#0000
(0946688485.740592) can0 00000001#EFFF000001000000
(0946688485.740872) can0 00000002#2FFC0000A3002400
(0946688485.745496) can0 00000103#0101010101010101
(0946688485.750695) can0 00000001#EFFF000001000000
(0946688485.750997) can0 00000002#2FFC0000A3002400
(0946688485.755487) can0 00000103#0101010101010101
(0946688485.760780) can0 00000001#EEFF000001000000
(0946688485.761093) can0 00000002#2EFC0000A3002400
(0946688485.765492) can0 00000103#0101010101010101
(0946688485.770868) can0 00000001#EFFF000001000000
(0946688485.771177) can0 00000002#2EFC0000A3002400
(0946688485.775476) can0 00000103#0101010101010101
(0946688485.775780) can0 18FF1515#0000000100010000
(0946688485.781616) can0 00000001#EEFF000001000000
(0946688485.781899) can0 00000002#2EFC0000A3002400
(0946688485.785506) can0 00000103#0101010101010101
(0946688485.791720) can0 00000001#EFFF000001000000
(0946688485.792001) can0 00000002#2EFC0000A3002400
(0946688485.795502) can0 00000103#0101010101010101
(0946688485.799213) can0 19B50000#0004000000010060
(0946688485.799793) can0 19B50007#0000002700000000
(0946688485.800369) can0 19B50001#BEC4C1936B000000
(0946688485.800947) can0 19B50002#7879780000000000
(0946688485.801721) can0 19B50003#0000000000000000
(0946688485.801998) can0 00000001#EFFF000001000000
(0946688485.802300) can0 00000002#2EFC0000A3002400
(0946688485.802592) can0 19B50008#797B7A0000000000
(0946688485.803535) can0 19B50500#0000002500003A64
(0946688485.804630) can0 19B50600#FFFF007699990000
(0946688485.805207) can0 19B50009#BEC4C10000936B00
(0946688485.805485) can0 00000103#0101010101010101
(0946688485.811890) can0 00000001#EFFF000001000000
(0946688485.812170) can0 00000002#2EFC0000A3002400
(0946688485.815481) can0 00000103#0101010101010101
(0946688485.821980) can0 00000001#EEFF000001000000
(0946688485.822301) can0 00000002#2FFC0000A3002400
(0946688485.825477) can0 00000103#0101010101010101
(0946688485.832107) can0 00000001#EEFF000001000000
(0946688485.832389) can0 00000002#2EFC0000A3002400
(0946688485.835495) can0 00000103#0101010101010101
(0946688485.839874) can0 00000303#0000
(0946688485.842200) can0 00000001#EFFF000000000000
(0946688485.842482) can0 00000002#2EFC0000A3002400
(0946688485.845497) can0 00000103#0101010101010101
(0946688485.852281) can0 00000001#EFFF000000000000
(0946688485.852578) can0 00000002#2EFC0000A4002400
(0946688485.855492) can0 00000103#0101010101010101
(0946688485.862397) can0 00000001#EEFF000000000000
(0946688485.862658) can0 00000002#2EFC0000A4002400
(0946688485.864891) can0 00000303#0000
(0946688485.865509) can0 00000103#0101010101010101
(0946688485.872489) can0 00000001#EFFF000000000000
(0946688485.872770) can0 00000002#2EFC0000A4002400
(0946688485.875480) can0 00000103#0101010101010101
(0946688485.875781) can0 18FF1515#0000000100010000
(0946688485.882576) can0 00000001#EFFF000000000000
(0946688485.882869) can0 00000002#2FFC0000A4002400
(0946688485.885478) can0 00000103#0101010101010101
(0946688485.892660) can0 00000001#EFFF000001000000
(0946688485.892977) can0 00000002#2EFC0000A4002400
(0946688485.895497) can0 00000103#0101010101010101
(0946688485.902790) can0 00000001#EFFF000000000000
(0946688485.903052) can0 00000002#2EFC0000A4002500
(0946688485.905498) can0 00000103#0101010101010101
(0946688485.912872) can0 00000001#EFFF000001000000
(0946688485.913174) can0 00000002#2EFC0000A4002500
(0946688485.915488) can0 00000103#0101010101010101
(0946688485.922999) can0 00000001#EFFF000001000000
(0946688485.923318) can0 00000002#2EFC0000A4002500
(0946688485.925479) can0 00000103#0101010101010101
(0946688485.933095) can0 00000001#EFFF000001000000
(0946688485.933348) can0 00000002#2EFC0000A4002500
(0946688485.935496) can0 00000103#0101010101010101
(0946688485.943155) can0 00000001#EFFF000002000000
(0946688485.943432) can0 00000002#2EFC0000A4002500
(0946688485.945485) can0 00000103#0101010101010101
(0946688485.953237) can0 00000001#EFFF000001000000
(0946688485.954024) can0 00000002#2EFC0000A4002500
(0946688485.955493) can0 00000103#0101010101010101
(0946688485.963332) can0 00000001#EFFF000001000000
(0946688485.963624) can0 00000002#2FFC0000A4002500
(0946688485.964750) can0 00000303#0000
(0946688485.965500) can0 00000103#0101010101010101
(0946688485.973423) can0 00000001#EFFF000001000000
(0946688485.973702) can0 00000002#2FFC0000A4002500
(0946688485.975519) can0 00000103#0101010101010101
(0946688485.975824) can0 18FF1515#0000000100010000
(0946688485.983510) can0 00000001#EFFF000001000000
(0946688485.983792) can0 00000002#2FFC0000A4002500
(0946688485.985522) can0 00000103#0101010101010101
(0946688485.994156) can0 00000001#EFFF000001000000
(0946688485.994427) can0 00000002#2FFC0000A4002500
(0946688485.995489) can0 00000103#0101010101010101
(0946688486.001685) can0 00000303#0000
(0946688486.004255) can0 00000001#EFFF000001000000
(0946688486.004534) can0 00000002#2FFC0000A4002500
(0946688486.005204) can0 19B50000#0004000000010060
(0946688486.005549) can0 00000103#0101010101010101
(0946688486.005827) can0 19B50007#0000002700000000
(0946688486.006498) can0 19B50001#BEC4C1936B000000
(0946688486.007152) can0 19B50002#7879780000000000
(0946688486.007762) can0 19B50003#0000000000000000
(0946688486.008330) can0 19B50008#797B7A0000000000
(0946688486.009168) can0 19B50500#0000002500003A64
(0946688486.010279) can0 19B50600#FFFF007699990000
(0946688486.011022) can0 19B50009#BEC4C10000936B00
(0946688486.014366) can0 00000001#EFFF000001000000
(0946688486.014661) can0 00000002#2FFC0000A4002500
(0946688486.015470) can0 00000103#0101010101010101
(0946688486.024447) can0 00000001#EEFF000000000000
(0946688486.024735) can0 00000002#2FFC0000A4002500
(0946688486.025488) can0 00000103#0101010101010101
(0946688486.034542) can0 00000001#EEFF000000000000
(0946688486.034864) can0 00000002#2FFC0000A4002500
(0946688486.035519) can0 00000103#0101010101010101
(0946688486.044669) can0 00000001#EEFF000000000000
(0946688486.044945) can0 00000002#2FFC0000A5002500
(0946688486.045526) can0 00000103#0101010101010101
(0946688486.054743) can0 00000001#EEFF000000000000
(0946688486.055051) can0 00000002#2EFC0000A5002500
(0946688486.055472) can0 00000103#0101010101010101
(0946688486.064867) can0 00000001#EEFF000000000000
(0946688486.065123) can0 00000002#2EFC0000A5002500
(0946688486.065487) can0 00000103#0101010101010101
(0946688486.074958) can0 00000001#EEFF000000000000
(0946688486.075245) can0 00000002#2EFC0000A5002500
(0946688486.075551) can0 00000103#0101010101010101
(0946688486.075885) can0 18FF1515#0000000100010000
(0946688486.085042) can0 00000001#EEFF000000000000
(0946688486.085349) can0 00000002#2EFC0000A5002500
(0946688486.085643) can0 00000103#0101010101010101
(0946688486.095169) can0 00000001#EEFF000001000000
(0946688486.095427) can0 00000002#2EFC0000A5002500
(0946688486.095722) can0 00000103#0101010101010101
(0946688486.103645) can0 00000303#0000
(0946688486.105248) can0 00000001#EEFF000001000000
(0946688486.105504) can0 00000002#2FFC0000A5002500
(0946688486.105799) can0 00000103#0101010101010101
(0946688486.115295) can0 00000001#EEFF000001000000
(0946688486.115622) can0 00000002#2EFC0000A5002500
(0946688486.115882) can0 00000103#0101010101010101
(0946688486.125400) can0 00000001#EFFF000001000000
(0946688486.125677) can0 00000002#2EFC0000A5002500
(0946688486.125977) can0 00000103#0101010101010101
(0946688486.126887) can0 00000007#D103830093A30000
(0946688486.128571) can0 00000303#0000
(0946688486.135488) can0 00000103#0101010101010101
(0946688486.135760) can0 00000001#EFFF000001000000
(0946688486.136077) can0 00000002#2EFC0000A5002500
(0946688486.145473) can0 00000103#0101010101010101
(0946688486.145752) can0 00000001#EEFF000001000000
(0946688486.146069) can0 00000002#2EFC0000A5002500
(0946688486.155499) can0 00000103#0101010101010101
(0946688486.155765) can0 00000001#EEFF000001000000
(0946688486.156070) can0 00000002#2EFC0000A5002500
(0946688486.165489) can0 00000103#0101010101010101
(0946688486.166555) can0 00000001#EEFF000001000000
(0946688486.166868) can0 00000002#2EFC0000A5002500
(0946688486.175498) can0 00000103#0101010101010101
(0946688486.175840) can0 18FF1515#0000000100010000
(0946688486.176658) can0 00000001#EEFF000001000000
(0946688486.176969) can0 00000002#2EFC0000A5002500
(0946688486.185484) can0 00000103#0101010101010101
(0946688486.186760) can0 00000001#EEFF000001000000
(0946688486.187038) can0 00000002#2EFC0000A5002500
(0946688486.195493) can0 00000103#0101010101010101
(0946688486.196330) can0 19B50000#0004000000010060
(0946688486.196865) can0 00000001#EEFF000001000000
(0946688486.197155) can0 00000002#2EFC0000A5002500
(0946688486.197462) can0 19B50007#0000002700000000
(0946688486.197875) can0 19B50001#BEC4C1936B000000
(0946688486.198439) can0 19B50002#7879780000000000
(0946688486.199027) can0 19B50003#0000000000000000
(0946688486.199643) can0 19B50008#797B7A0000000000
(0946688486.200641) can0 19B50500#0000002500003A64
(0946688486.201744) can0 19B50600#FFFF007699990000
(0946688486.202291) can0 19B50009#BEC4C10000936B00
(0946688486.205485) can0 00000103#0101010101010101
(0946688486.206979) can0 00000001#EFFF000001000000
(0946688486.207262) can0 00000002#2EFC0000A6002500
(0946688486.215512) can0 00000103#0101010101010101
(0946688486.217080) can0 00000001#EFFF000001000000
(0946688486.217368) can0 00000002#2FFC0000A6002500
(0946688486.224110) can0 00000008#D1FF
(0946688486.224624) can0 00000009#D100000000000000
(0946688486.225506) can0 00000103#0101010101010101
(0946688486.227181) can0 00000001#EFFF000000000000
(0946688486.227448) can0 00000002#2EFC0000A6002500
(0946688486.228531) can0 00000008#D1FF
(0946688486.229230) can0 00000009#D106000000000000
(0946688486.230485) can0 00000303#0000
(0946688486.233966) can0 00000008#D1FF
(0946688486.234442) can0 00000009#D10C00000000
(0946688486.235516) can0 00000103#0101010101010101
(0946688486.237249) can0 00000001#EFFF000001000000
(0946688486.237563) can0 00000002#2FFC0000A6002500
(0946688486.238626) can0 0000000C#D1FF
(0946688486.239099) can0 0000000D#D100000000000000
(0946688486.243919) can0 0000000C#D1FF
(0946688486.244438) can0 0000000D#D106000000000000
(0946688486.245505) can0 00000103#0101010101010101
(0946688486.247363) can0 00000001#EFFF000001000000
(0946688486.247645) can0 00000002#2FFC0000A6002500
(0946688486.255457) can0 00000103#0101010101010101
(0946688486.257422) can0 00000001#EFFF000001000000
(0946688486.257699) can0 00000002#2FFC0000A6002500
(0946688486.260027) can0 0000000C#D1FF
(0946688486.260463) can0 0000000D#D10C00000000
(0946688486.261422) can0 00000303#0000
(0946688486.265494) can0 00000103#0101010101010101
(0946688486.267538) can0 00000001#EEFF000000000000
(0946688486.267845) can0 00000002#2EFC0000A6002500
(0946688486.269148) can0 00000010#D1FF
(0946688486.269637) can0 00000011#D100000000000000
(0946688486.275205) can0 00000010#D1FF
(0946688486.275492) can0 00000103#0101010101010101
(0946688486.275793) can0 00000011#D106000000000000
(0946688486.276102) can0 18FF1515#0000000100010000
(0946688486.277656) can0 00000001#EEFF000001000000
(0946688486.277929) can0 00000002#2EFC0000A6002500
(0946688486.279754) can0 00000010#D1FF
(0946688486.280211) can0 00000011#D10C00000000
(0946688486.285550) can0 00000103#0101010101010101
(0946688486.285718) can0 00000014#D1FF
(0946688486.286229) can0 00000015#D100000000000000
(0946688486.287761) can0 00000001#EEFF000001000000
(0946688486.288057) can0 00000002#2EFC0000A6002500
(0946688486.289881) can0 00000014#D1FF
(0946688486.290392) can0 00000015#D106000000000000
(0946688486.295542) can0 00000103#0101010101010101
(0946688486.295949) can0 00000014#D1FF
(0946688486.296383) can0 00000015#D10C00000000
(0946688486.297911) can0 00000001#EEFF000001000000
(0946688486.298200) can0 00000002#2EFC0000A6002500
(0946688486.300122) can0 00000018#D1FF
(0946688486.300598) can0 00000019#D100000000000000
(0946688486.305489) can0 00000103#0101010101010101
(0946688486.307989) can0 00000001#EEFF000001000000
(0946688486.308264) can0 00000002#2EFC0000A6002500
(0946688486.315474) can0 00000103#0101010101010101
(0946688486.317456) can0 00000018#D1FF
(0946688486.317934) can0 00000019#D106000000000000
(0946688486.318229) can0 00000001#EFFF000001000000
(0946688486.318521) can0 00000002#2EFC0000A6002500
(0946688486.323539) can0 00000018#D1FF
(0946688486.323977) can0 00000019#D10C00000000
(0946688486.325528) can0 00000103#0101010101010101
(0946688486.328186) can0 00000001#EEFF000001000000
(0946688486.328484) can0 00000002#2FFC0000A6002500
(0946688486.328669) can0 0000001C#D1FF
(0946688486.329185) can0 0000001D#D100000000000000
(0946688486.333887) can0 0000001C#D1FF
(0946688486.334363) can0 0000001D#D106000000000000
(0946688486.335474) can0 00000103#0101010101010101
(0946688486.338167) can0 0000001C#D1FF
(0946688486.338432) can0 00000001#EFFF000001000000
(0946688486.338745) can0 00000002#2FFC0000A6002500
(0946688486.345476) can0 00000103#0101010101010101
(0946688486.349032) can0 00000001#EEFF000001000000
(0946688486.349294) can0 00000002#2EFC0000A6002500
(0946688486.355501) can0 00000103#0101010101010101
(0946688486.359139) can0 00000001#EEFF000001000000
(0946688486.359454) can0 00000002#2EFC0000A6002500
(0946688486.363283) can0 00000303#0000
(0946688486.365510) can0 00000103#0101010101010101
(0946688486.369208) can0 00000001#EFFF000001000000
(0946688486.369492) can0 00000002#2FFC0000A6002500
(0946688486.375530) can0 00000103#0101010101010101
(0946688486.375796) can0 18FF1515#0000000100010000
(0946688486.379351) can0 00000001#EFFF000001000000
(0946688486.379632) can0 00000002#2FFC0000A7002500
(0946688486.385544) can0 00000103#0101010101010101
(0946688486.388276) can0 00000303#0000
(0946688486.389423) can0 00000001#EFFF000001000000
(0946688486.389738) can0 00000002#2EFC0000A7002500
(0946688486.395483) can0 00000103#0101010101010101
(0946688486.396144) can0 19B50000#0004000000010060
(0946688486.396749) can0 19B50007#0000002700000000
(0946688486.397301) can0 19B50001#BEC4C1936B000000
(0946688486.397897) can0 19B50002#7879780000000000
(0946688486.398517) can0 19B50003#0000000000000000
(0946688486.399094) can0 19B50008#797B7A0000000000
(0946688486.399618) can0 00000001#EFFF000001000000
(0946688486.399929) can0 00000002#2EFC0000A7002500
(0946688486.400214) can0 19B50500#0000002500003A64
(0946688486.401502) can0 19B50600#FFFF007699990000
(0946688486.402040) can0 19B50009#BEC4C10000936B00
(0946688486.405504) can0 00000103#0101010101010101
(0946688486.409640) can0 00000001#EFFF000001000000
(0946688486.409921) can0 00000002#2FFC0000A7002500
(0946688486.415496) can0 00000103#0101010101010101
(0946688486.419718) can0 00000001#EFFF000001000000
(0946688486.420012) can0 00000002#2FFC0000A7002500
(0946688486.425488) can0 00000103#0101010101010101
(0946688486.429831) can0 00000001#EFFF000000000000
(0946688486.430139) can0 00000002#2FFC0000A7002500
(0946688486.435484) can0 00000103#0101010101010101
(0946688486.439962) can0 00000001#EFFF000001000000
(0946688486.440215) can0 00000002#2FFC0000A7002500
(0946688486.445510) can0 00000103#0101010101010101
(0946688486.450031) can0 00000001#EEFF000000000000
(0946688486.450348) can0 00000002#2EFC0000A7002500
(0946688486.455505) can0 00000103#0101010101010101
(0946688486.460158) can0 00000001#EFFF000001000000
(0946688486.460455) can0 00000002#2EFC0000A7002600
(0946688486.465494) can0 00000103#0101010101010101
(0946688486.470243) can0 00000001#EEFF000001000000
(0946688486.470537) can0 00000002#2EFC0000A7002600
(0946688486.475488) can0 00000103#0101010101010101
(0946688486.475793) can0 18FF1515#0000000100010000
(0946688486.480352) can0 00000001#EEFF000001000000
(0946688486.480661) can0 00000002#2EFC0000A7002600
(0946688486.485489) can0 00000103#0101010101010101
(0946688486.488186) can0 00000303#0000
(0946688486.490445) can0 00000001#EEFF000001000000
(0946688486.490734) can0 00000002#2EFC0000A7002600
(0946688486.495481) can0 00000103#0101010101010101
(0946688486.500545) can0 00000001#EEFF000001000000
(0946688486.500819) can0 00000002#2EFC0000A7002600
(0946688486.505504) can0 00000103#0101010101010101
(0946688486.510599) can0 00000001#EEFF000001000000
(0946688486.510900) can0 00000002#2EFC0000A7002600
(0946688486.515489) can0 00000103#0101010101010101
(0946688486.519157) can0 00000303#0000
(0946688486.520720) can0 00000001#EEFF000001000000
(0946688486.520996) can0 00000002#2EFC0000A7002600
(0946688486.525489) can0 00000103#0101010101010101
(0946688486.531662) can0 00000001#EFFF000001000000
(0946688486.531964) can0 00000002#2EFC0000A7002600
(0946688486.535485) can0 00000103#0101010101010101
(0946688486.541771) can0 00000001#EFFF000002000000
(0946688486.542055) can0 00000002#2EFC0000A7002600
(0946688486.545470) can0 00000103#0101010101010101
(0946688486.551903) can0 00000001#EFFF000001000000
(0946688486.552206) can0 00000002#2EFC0000A7002600
(0946688486.555463) can0 00000103#0101010101010101
(0946688486.562003) can0 00000001#EFFF000001000000
(0946688486.562269) can0 00000002#2EFC0000A7002600
(0946688486.565498) can0 00000103#0101010101010101
(0946688486.572107) can0 00000001#EFFF000001000000
(0946688486.572372) can0 00000002#2EFC0000A8002600
(0946688486.575470) can0 00000103#0101010101010101
(0946688486.575791) can0 18FF1515#0000000100010000
(0946688486.582187) can0 00000001#EFFF000001000000
(0946688486.582496) can0 00000002#2EFC0000A8002600
(0946688486.585482) can0 00000103#0101010101010101
(0946688486.592306) can0 00000001#EFFF000001000000
(0946688486.592605) can0 00000002#2FFC0000A8002600
(0946688486.595482) can0 00000103#0101010101010101
(0946688486.599584) can0 19B50000#0004000000010060
(0946688486.600349) can0 19B50007#0000002700000000
(0946688486.600957) can0 19B50001#BEC4C1936B000000
(0946688486.601529) can0 19B50002#7879780000000000
(0946688486.602134) can0 19B50003#0000000000000000
(0946688486.602426) can0 00000001#EFFF000001000000
(0946688486.602696) can0 00000002#2FFC0000A8002600
(0946688486.603002) can0 19B50008#797B7A0000000000
(0946688486.603904) can0 19B50500#0000002500003A64
(0946688486.605000) can0 19B50600#FFFF007699990000
(0946688486.605472) can0 00000103#0101010101010101
(0946688486.605766) can0 19B50009#BEC4C10000936B00
(0946688486.612488) can0 00000001#EFFF000001000000
(0946688486.612772) can0 00000002#2FFC0000A8002600
(0946688486.615039) can0 00000303#0000
(0946688486.615497) can0 00000103#0101010101010101
(0946688486.622580) can0 00000001#EFFF000001000000
(0946688486.622875) can0 00000002#2EFC0000A8002600
(0946688486.625489) can0 00000103#0101010101010101
(0946688486.632702) can0 00000001#EFFF000001000000
(0946688486.632967) can0 00000002#2EFC0000A8002600
(0946688486.635498) can0 00000103#0101010101010101
(0946688486.642770) can0 00000001#EFFF000001000000
(0946688486.643029) can0 00000002#2EFC0000A8002600
(0946688486.645471) can0 00000103#0101010101010101
(0946688486.646030) can0 00000303#0000
(0946688486.652863) can0 00000001#EFFF000001000000
(0946688486.653167) can0 00000002#2EFC0000A8002600
(0946688486.655476) can0 00000103#0101010101010101
(0946688486.662948) can0 00000001#EEFF000001000000
(0946688486.663229) can0 00000002#2EFC0000A8002600
(0946688486.665472) can0 00000103#0101010101010101
(0946688486.673052) can0 00000001#EEFF000001000000
(0946688486.673352) can0 00000002#2EFC0000A8002600
(0946688486.675478) can0 00000103#0101010101010101
(0946688486.675783) can0 18FF1515#0000000100010000
(0946688486.683143) can0 00000001#EEFF000001000000
(0946688486.683446) can0 00000002#2EFC0000A8002600
(0946688486.685491) can0 00000103#0101010101010101
(0946688486.693259) can0 00000001#EEFF000001000000
(0946688486.693528) can0 00000002#2EFC0000A8002600
(0946688486.695492) can0 00000103#0101010101010101
(0946688486.703338) can0 00000001#EEFF000001000000
(0946688486.703626) can0 00000002#2FFC0000A8002600
(0946688486.705473) can0 00000103#0101010101010101
(0946688486.714072) can0 00000001#EEFF000001000000
(0946688486.714334) can0 00000002#2EFC0000A8002600
(0946688486.715461) can0 00000103#0101010101010101
(0946688486.724150) can0 00000001#EFFF000001000000
(0946688486.724453) can0 00000002#2EFC0000A8002600
(0946688486.725496) can0 00000103#0101010101010101
(0946688486.734240) can0 00000001#EFFF000001000000
(0946688486.734528) can0 00000002#2EFC0000A8002600
(0946688486.735488) can0 00000103#0101010101010101
(0946688486.744319) can0 00000001#EEFF000001000000
(0946688486.744624) can0 00000002#2FFC0000A9002600
(0946688486.745456) can0 00000103#0101010101010101
(0946688486.746888) can0 00000303#0000
(0946688486.754434) can0 00000001#EEFF000001000000
(0946688486.754698) can0 00000002#2EFC0000A9002600
(0946688486.755512) can0 00000103#0101010101010101
(0946688486.764504) can0 00000001#EEFF000001000000
(0946688486.764764) can0 00000002#2EFC0000A9002600
(0946688486.765478) can0 00000103#0101010101010101
(0946688486.771869) can0 00000303#0000
(0946688486.774610) can0 00000001#EEFF000001000000
(0946688486.774888) can0 00000002#2FFC0000A9002600
(0946688486.775495) can0 00000103#0101010101010101
(0946688486.775846) can0 18FF1515#0000000100010000
(0946688486.784716) can0 00000001#EEFF000001000000
(0946688486.785005) can0 00000002#2EFC0000A9002600
(0946688486.785488) can0 00000103#0101010101010101
(0946688486.794785) can0 00000001#EEFF000001000000
(0946688486.795086) can0 00000002#2EFC0000A9002600
(0946688486.795517) can0 00000103#0101010101010101
(0946688486.799322) can0 19B50000#0004000000010060
(0946688486.800135) can0 19B50007#0000002700000000
(0946688486.800703) can0 19B50001#BEC4C1936B000000
(0946688486.801284) can0 19B50002#7879780000000000
(0946688486.801873) can0 19B50003#0000000000000000
(0946688486.802499) can0 19B50008#797B7A0000000000
(0946688486.803311) can0 19B50500#0000002500003A64
(0946688486.804405) can0 19B50600#FFFF007699990000
(0946688486.804898) can0 00000001#EFFF000000000000
(0946688486.805215) can0 00000002#2EFC0000A9002600
(0946688486.805479) can0 00000103#0101010101010101
(0946688486.805757) can0 19B50009#BEC4C10000936B00
(0946688486.808882) can0 00000007#D203830093A30000
(0946688486.814992) can0 00000001#EFFF000001000000
(0946688486.815288) can0 00000002#2EFC0000A9002600
(0946688486.815564) can0 00000103#0101010101010101
(0946688486.825109) can0 00000001#EEFF000000000000
(0946688486.825382) can0 00000002#2FFC0000A9002600
(0946688486.825709) can0 00000103#0101010101010101
(0946688486.835175) can0 00000001#EFFF000000000000
(0946688486.835466) can0 00000002#2FFC0000A9002600
(0946688486.835765) can0 00000103#0101010101010101
(0946688486.845297) can0 00000001#EEFF000000000000
(0946688486.845571) can0 00000002#2FFC0000A9002600
(0946688486.845854) can0 00000103#0101010101010101
(0946688486.855368) can0 00000001#EFFF000000000000
(0946688486.855676) can0 00000002#2FFC0000A9002600
(0946688486.856005) can0 00000103#0101010101010101
(0946688486.865489) can0 00000001#EFFF000001000000
(0946688486.865758) can0 00000103#0101010101010101
(0946688486.866076) can0 00000002#2FFC0000A9002600
(0946688486.875497) can0 00000103#0101010101010101
(0946688486.875766) can0 00000001#EEFF000001000000
(0946688486.876054) can0 00000002#2FFC0000A9002600
(0946688486.876388) can0 18FF1515#0000000100010000
(0946688486.878740) can0 00000303#0000
(0946688486.885514) can0 00000103#0101010101010101
(0946688486.885784) can0 00000001#EFFF000001000000
(0946688486.886078) can0 00000002#2FFC0000A9002600
(0946688486.895484) can0 00000103#0101010101010101
(0946688486.895868) can0 00000001#EFFF000001000000
(0946688486.896703) can0 00000002#2FFC0000A9002600
(0946688486.903092) can0 0000001C#D2FF
(0946688486.903601) can0 0000001D#D200000000000000
(0946688486.903751) can0 00000303#0000
(0946688486.905475) can0 00000103#0101010101010101
(0946688486.905926) can0 00000001#EEFF000001000000
(0946688486.906218) can0 00000002#2EFC0000A9002600
(0946688486.915470) can0 00000103#0101010101010101
(0946688486.916050) can0 00000001#EFFF000001000000
(0946688486.916330) can0 00000002#2DFC0000AA002600
(0946688486.919513) can0 0000001C#D2FF
(0946688486.919996) can0 0000001D#D206000000000000
(0946688486.925497) can0 00000103#0101010101010101
(0946688486.926208) can0 0000001C#D2FF
(0946688486.926678) can0 00000001#EFFF000001000000
(0946688486.926950) can0 00000002#2CFC0000AA002600
(0946688486.935492) can0 00000103#0101010101010101
(0946688486.936746) can0 00000001#EEFF000001000000
(0946688486.937024) can0 00000002#2DFC0000AA002600
(0946688486.945480) can0 00000103#0101010101010101
(0946688486.946837) can0 00000001#EEFF000002000000
(0946688486.947131) can0 00000002#2DFC0000AA002600
(0946688486.955488) can0 00000103#0101010101010101
(0946688486.956964) can0 00000001#EFFF000002000000
(0946688486.957235) can0 00000002#2DFC0000AA002600
(0946688486.965472) can0 00000103#0101010101010101
(0946688486.967032) can0 00000001#EEFF000002000000
(0946688486.967295) can0 00000002#2EFC0000AA002600
(0946688486.975471) can0 00000103#0101010101010101
(0946688486.975773) can0 18FF1515#0000000100010000
(0946688486.977107) can0 00000001#EEFF000002000000
(0946688486.977416) can0 00000002#2EFC0000AA002600
(0946688486.985503) can0 00000103#0101010101010101
(0946688486.987230) can0 00000001#EFFF0000FFFF0000
(0946688486.987532) can0 00000002#2FFC0000AA002700
(0946688486.994800) can0 19B50000#0004000000010060
(0946688486.995417) can0 19B50007#0000002700000000
(0946688486.995669) can0 00000103#0101010101010101
(0946688486.996177) can0 19B50001#BEC4C1936B000000
(0946688486.996760) can0 19B50002#7879780000000000
(0946688486.997357) can0 00000001#EFFF0000FFFF0000
(0946688486.997652) can0 00000002#2FFC0000AA002700
(0946688486.997935) can0 19B50003#0000000000000000
(0946688486.998224) can0 19B50008#797B7A0000000000
(0946688486.998960) can0 19B50500#0000002500003A64
(0946688487.000270) can0 19B50600#FFFF007699990000
(0946688487.000843) can0 19B50009#BEC4C10000936B00
(0946688487.005487) can0 00000103#0101010101010101
(0946688487.007435) can0 00000001#EFFF0000FFFF0000
(0946688487.007704) can0 00000002#2FFC0000AA002700
(0946688487.011623) can0 00000303#0000
(0946688487.015477) can0 00000103#0101010101010101
(0946688487.017488) can0 00000001#F0FF0000FFFF0000
(0946688487.017784) can0 00000002#2FFC0000AA002700
(0946688487.025490) can0 00000103#0101010101010101
(0946688487.027631) can0 00000001#F0FF0000FEFF0000
(0946688487.027892) can0 00000002#2EFC0000AA002700
(0946688487.035494) can0 00000103#0101010101010101
(0946688487.036590) can0 00000303#0000
(0946688487.037756) can0 00000001#EFFF0000FEFF0000
(0946688487.037973) can0 00000002#2DFC0000AA002700
(0946688487.045484) can0 00000103#0101010101010101
(0946688487.047773) can0 00000001#EFFF0000FEFF0000
(0946688487.048104) can0 00000002#2EFC0000AA002700
(0946688487.055486) can0 00000103#0101010101010101
(0946688487.057873) can0 00000001#F0FF0000FFFF0000
(0946688487.058150) can0 00000002#2DFC0000AA002700
(0946688487.065513) can0 00000103#0101010101010101
(0946688487.067986) can0 00000001#EFFF0000FFFF0000
(0946688487.068300) can0 00000002#2DFC0000AA002700
(0946688487.075483) can0 00000103#0101010101010101
(0946688487.075782) can0 18FF1515#0000000100010000
(0946688487.078072) can0 00000001#EFFF000000000000
(0946688487.078348) can0 00000002#2EFC0000AA002700
(0946688487.085511) can0 00000103#0101010101010101
(0946688487.088162) can0 00000001#EEFF000000000000
(0946688487.088476) can0 00000002#2CFC0000AA002700
(0946688487.095488) can0 00000103#0101010101010101
(0946688487.098268) can0 00000001#EEFF000002000000
(0946688487.098572) can0 00000002#30FC0000AA002700
(0946688487.105492) can0 00000103#0101010101010101
(0946688487.109083) can0 00000001#EEFF000001000000
(0946688487.109362) can0 00000002#2DFC0000AB002700
(0946688487.115513) can0 00000103#0101010101010101
(0946688487.119145) can0 00000001#EEFF000003000000
(0946688487.119465) can0 00000002#2FFC0000AB002700
(0946688487.125504) can0 00000103#0101010101010101
(0946688487.129284) can0 00000001#EEFF000004000000
(0946688487.129552) can0 00000002#2EFC0000AB002700
(0946688487.135498) can0 00000103#0101010101010101
(0946688487.139372) can0 00000001#EEFF000002000000
(0946688487.139647) can0 00000002#31FC0000AB002700
(0946688487.145489) can0 00000103#0101010101010101
(0946688487.149489) can0 00000001#EEFF000003000000
(0946688487.149754) can0 00000002#2DFC0000AB002700
(0946688487.155487) can0 00000103#0101010101010101
(0946688487.159628) can0 00000001#EFFF000002000000
(0946688487.159890) can0 00000002#2CFC0000AB002700
(0946688487.165486) can0 00000103#0101010101010101
(0946688487.169696) can0 00000001#EEFF0000FFFF0000
(0946688487.169951) can0 00000002#33FC0000AB002700
(0946688487.170445) can0 00000303#0000
(0946688487.175514) can0 00000103#0101010101010101
(0946688487.175804) can0 18FF1515#0000000100010000
(0946688487.179756) can0 00000001#F1FF0000FFFF0000
(0946688487.180046) can0 00000002#2CFC0000AB002700
(0946688487.185495) can0 00000103#0101010101010101
(0946688487.189884) can0 00000001#EEFF000000000000
(0946688487.190144) can0 00000002#32FC0000AB002700
(0946688487.195484) can0 00000103#0101010101010101
(0946688487.198322) can0 19B50000#0004000000010060
(0946688487.199078) can0 19B50007#0000002700000000
(0946688487.199667) can0 19B50001#BEC4C1936B000000
(0946688487.199934) can0 00000001#EDFF0000FDFF0000
(0946688487.200222) can0 00000002#2CFC0000AB002700
(0946688487.200541) can0 19B50002#7879780000000000
(0946688487.200841) can0 19B50003#0000000000000000
(0946688487.201400) can0 19B50008#797B7A0000000000
(0946688487.202321) can0 19B50500#0000002500003A64
(0946688487.203490) can0 19B50600#FFFF007699990000
(0946688487.204006) can0 19B50009#BEC4C10000936B00
(0946688487.205491) can0 00000103#0101010101010101
(0946688487.209993) can0 00000001#EEFF0000FDFF0000
(0946688487.210288) can0 00000002#30FC0000AB002700
(0946688487.215513) can0 00000103#0101010101010101
(0946688487.220112) can0 00000001#EDFF0000FFFF0000
(0946688487.220379) can0 00000002#2EFC0000AB002700
(0946688487.225531) can0 00000103#0101010101010101
(0946688487.230139) can0 00000001#EDFF0000FFFF0000
(0946688487.230434) can0 00000002#2EFC0000AB002700
(0946688487.235495) can0 00000103#0101010101010101
(0946688487.240236) can0 00000001#EEFF0000FEFF0000
(0946688487.240515) can0 00000002#2DFC0000AB002700
(0946688487.245495) can0 00000103#0101010101010101
(0946688487.250352) can0 00000001#ECFF0000FEFF0000
(0946688487.250643) can0 00000002#30FC0000AB002700
(0946688487.255488) can0 00000103#0101010101010101
(0946688487.260418) can0 00000001#EEFF0000FFFF0000
(0946688487.260737) can0 00000002#2DFC0000AC002700
(0946688487.265482) can0 00000103#0101010101010101
(0946688487.267345) can0 00000303#0000
(0946688487.270548) can0 00000001#EEFF0000FFFF0000
(0946688487.270862) can0 00000002#2FFC0000AC002700
(0946688487.275505) can0 00000103#0101010101010101
(0946688487.275789) can0 18FF1515#0000000100010000
(0946688487.280611) can0 00000001#EEFF000000000000
(0946688487.280892) can0 00000002#2EFC0000AC002700
(0946688487.285479) can0 00000103#0101010101010101
(0946688487.290729) can0 00000001#EFFF000001000000
(0946688487.291032) can0 00000002#2FFC0000AC002700
(0946688487.295493) can0 00000103#0101010101010101
(0946688487.298298) can0 00000303#0000
(0946688487.300780) can0 00000001#F0FF000001000000
(0946688487.301069) can0 00000002#2EFC0000AC002700
(0946688487.305490) can0 00000103#0101010101010101
(0946688487.311523) can0 00000001#EEFF000001000000
(0946688487.311780) can0 00000002#30FC0000AC002700
(0946688487.315516) can0 00000103#0101010101010101
(0946688487.321579) can0 00000001#EFFF000001000000
(0946688487.321900) can0 00000002#2EFC0000AC002700
(0946688487.325497) can0 00000103#0101010101010101
(0946688487.331665) can0 00000001#F0FF000002000000
(0946688487.331960) can0 00000002#2FFC0000AC002700
(0946688487.335513) can0 00000103#0101010101010101
(0946688487.341789) can0 00000001#EEFF000001000000
(0946688487.342063) can0 00000002#2FFC0000AC002700
(0946688487.345505) can0 00000103#0101010101010101
(0946688487.351836) can0 00000001#EEFF000002000000
(0946688487.352141) can0 00000002#2EFC0000AC002700
(0946688487.355488) can0 00000103#0101010101010101
(0946688487.361930) can0 00000001#EEFF000001000000
(0946688487.362261) can0 00000002#2DFC0000AC002700
(0946688487.365485) can0 00000103#0101010101010101
(0946688487.372080) can0 00000001#EDFF000000000000
(0946688487.372364) can0 00000002#30FC0000AC002700
(0946688487.375514) can0 00000103#0101010101010101
(0946688487.375787) can0 18FF1515#0000000100010000
(0946688487.382157) can0 00000001#EEFF000000000000
(0946688487.382424) can0 00000002#2EFC0000AC002700
(0946688487.385250) can0 00000007#D303830093A30000
(0946688487.385505) can0 00000103#0101010101010101
(0946688487.392240) can0 00000001#EEFF000000000000
(0946688487.392523) can0 00000002#2FFC0000AC002700
(0946688487.394198) can0 00000303#0000
(0946688487.395154) can0 19B50000#0004000000010060
(0946688487.395477) can0 00000103#0101010101010101
(0946688487.395774) can0 19B50007#0000002700000000
(0946688487.396453) can0 19B50001#BEC4C1936B000000
(0946688487.397038) can0 19B50002#7879780000000000
(0946688487.397675) can0 19B50003#0000000000000000
(0946688487.398257) can0 19B50008#797B7A0000000000
(0946688487.399323) can0 19B50500#0000002500003A64
(0946688487.400383) can0 19B50600#FFFF007699990000
(0946688487.400992) can0 19B50009#BEC4C10000936B00
(0946688487.402403) can0 00000001#EEFF000000000000
(0946688487.402623) can0 00000002#2EFC0000AC002700
(0946688487.405486) can0 00000103#0101010101010101
(0946688487.412411) can0 00000001#EEFF0000FFFF0000
(0946688487.412727) can0 00000002#2EFC0000AC002700
(0946688487.415478) can0 00000103#0101010101010101
(0946688487.422523) can0 00000001#EEFF0000FFFF0000
(0946688487.422797) can0 00000002#2FFC0000AD002700
(0946688487.425175) can0 00000303#0000
(0946688487.425472) can0 00000103#0101010101010101
(0946688487.432640) can0 00000001#EFFF0000FFFF0000
(0946688487.432926) can0 00000002#2EFC0000AD002700
(0946688487.435454) can0 00000103#0101010101010101
(0946688487.442724) can0 00000001#EFFF000000000000
(0946688487.443020) can0 00000002#2EFC0000AD002700
(0946688487.445464) can0 00000103#0101010101010101
(0946688487.452788) can0 00000001#EEFF000000000000
(0946688487.453135) can0 00000002#2FFC0000AD002700
(0946688487.455494) can0 00000103#0101010101010101
(0946688487.462897) can0 00000001#EFFF000000000000
(0946688487.463183) can0 00000002#2EFC0000AD002700
(0946688487.465483) can0 00000103#0101010101010101
(0946688487.472992) can0 00000001#EFFF000001000000
(0946688487.473301) can0 00000002#2FFC0000AD002700
(0946688487.475481) can0 00000103#0101010101010101
(0946688487.475775) can0 18FF1515#0000000100010000
(0946688487.483116) can0 00000001#EEFF000001000000
(0946688487.483408) can0 00000002#2FFC0000AD002700
(0946688487.485504) can0 00000103#0101010101010101
(0946688487.492602) can0 0000001C#D3FF
(0946688487.493082) can0 0000001D#D300000000000000
(0946688487.493370) can0 00000001#EEFF000001000000
(0946688487.493678) can0 00000002#2EFC0000AD002700
(0946688487.495498) can0 00000103#0101010101010101
(0946688487.495686) can0 0000001C#D3FF
(0946688487.496154) can0 0000001D#D306000000000000
(0946688487.501672) can0 0000001C#D3FF
(0946688487.502140) can0 0000001D#D30C00000000
(0946688487.503277) can0 00000001#EEFF000001000000
(0946688487.503575) can0 00000002#2FFC0000AD002800
(0946688487.505486) can0 00000103#0101010101010101
(0946688487.514134) can0 00000001#EFFF000001000000
(0946688487.514403) can0 00000002#2EFC0000AD002800
(0946688487.515494) can0 00000103#0101010101010101
(0946688487.524198) can0 00000001#EFFF000001000000
(0946688487.524517) can0 00000002#2EFC0000AD002800
(0946688487.525010) can0 00000303#0000
(0946688487.525499) can0 00000103#0101010101010101
(0946688487.534289) can0 00000001#EFFF000001000000
(0946688487.534572) can0 00000002#2EFC0000AD002800
(0946688487.535465) can0 00000103#0101010101010101
(0946688487.544350) can0 00000001#EFFF000001000000
(0946688487.544680) can0 00000002#2EFC0000AD002800
(0946688487.545494) can0 00000103#0101010101010101
(0946688487.549996) can0 00000303#0000
(0946688487.554469) can0 00000001#EFFF000001000000
(0946688487.554786) can0 00000002#2EFC0000AD002800
(0946688487.555485) can0 00000103#0101010101010101
(0946688487.564578) can0 00000001#EFFF000001000000
(0946688487.564869) can0 00000002#2DFC0000AD002800
(0946688487.565483) can0 00000103#0101010101010101
(0946688487.568937) can0 19B50307#0000000000000000
(0946688487.574691) can0 00000001#EFFF000001000000
(0946688487.574990) can0 00000002#2DFC0000AD002800
(0946688487.575484) can0 00000103#0101010101010101
(0946688487.575783) can0 18FF1515#0000000100010000
(0946688487.582771) can0 19B50308#0000000000000000
(0946688487.584777) can0 00000001#EFFF000001000000
(0946688487.585084) can0 00000002#2DFC0000AE002800
(0946688487.585504) can0 00000103#0101010101010101
(0946688487.594859) can0 00000001#EFFF000000000000
(0946688487.595162) can0 00000002#2EFC0000AE002800
(0946688487.595477) can0 00000103#0101010101010101
(0946688487.598709) can0 19B50309#0000000000000000
(0946688487.604978) can0 00000001#EFFF000000000000
(0946688487.605299) can0 00000002#2EFC0000AE002800
(0946688487.605550) can0 00000103#0101010101010101
(0946688487.607841) can0 19B50000#0004000000010060
(0946688487.608592) can0 19B50007#0000002700000000
(0946688487.609159) can0 19B50001#BEC4C1936B000000
(0946688487.609757) can0 19B50002#7879780000000000
(0946688487.610328) can0 19B50003#0000000000000000
(0946688487.610903) can0 19B50008#797B7A0000000000
(0946688487.611838) can0 19B50500#0000002500003A64
(0946688487.612902) can0 19B50600#FFFF007699990000
(0946688487.613494) can0 19B50009#BEC4C10000936B00
(0946688487.615089) can0 00000001#EFFF000000000000
(0946688487.615375) can0 00000002#2EFC0000AE002800
(0946688487.615684) can0 00000103#0101010101010101
(0946688487.625199) can0 00000001#EEFF000000000000
(0946688487.625473) can0 00000002#2FFC0000AE002800
(0946688487.625765) can0 00000103#0101010101010101
(0946688487.629133) can0 19B5030A#0000000000000000
(0946688487.635297) can0 00000001#EEFF000000000000
(0946688487.635579) can0 00000002#2FFC0000AE002800
(0946688487.635872) can0 00000103#0101010101010101
(0946688487.645412) can0 00000001#EEFF000000000000
(0946688487.645678) can0 00000002#2FFC0000AE002800
(0946688487.645997) can0 00000103#0101010101010101
(0946688487.655491) can0 00000001#EEFF000000000000
(0946688487.655736) can0 00000103#0101010101010101
(0946688487.656046) can0 00000002#2FFC0000AE002800
(0946688487.656402) can0 19B5030B#0000000000000000
(0946688487.657887) can0 00000303#0000
(0946688487.665487) can0 00000103#0101010101010101
(0946688487.665769) can0 00000001#EEFF000000000000
(0946688487.666096) can0 00000002#2FFC0000AE002800
(0946688487.675539) can0 00000103#0101010101010101
(0946688487.675760) can0 00000001#EEFF000000000000
(0946688487.676083) can0 00000002#30FC0000AE002800
(0946688487.676366) can0 18FF1515#0000000100010000
(0946688487.682874) can0 00000303#0000
(0946688487.685495) can0 00000103#0101010101010101
(0946688487.685785) can0 00000001#EEFF000001000000
(0946688487.686071) can0 00000002#2FFC0000AE002800
(0946688487.695498) can0 00000103#0101010101010101
(0946688487.696589) can0 00000001#EFFF000001000000
(0946688487.696870) can0 00000002#2EFC0000AE002800
(0946688487.705495) can0 00000103#0101010101010101
(0946688487.706663) can0 00000001#EFFF000001000000
(0946688487.706982) can0 00000002#2EFC0000AE002800
(0946688487.715487) can0 00000103#0101010101010101
(0946688487.716747) can0 00000001#EFFF000001000000
(0946688487.717051) can0 00000002#2EFC0000AF002800
(0946688487.725486) can0 00000103#0101010101010101
(0946688487.726823) can0 00000001#EFFF000001000000
(0946688487.727125) can0 00000002#2EFC0000AF002800
(0946688487.735474) can0 00000103#0101010101010101
(0946688487.736949) can0 00000001#EFFF000002000000
(0946688487.737212) can0 00000002#2EFC0000AF002800
(0946688487.745490) can0 00000103#0101010101010101
(0946688487.746999) can0 00000001#EFFF000002000000
(0946688487.747328) can0 00000002#2EFC0000AF002800
(0946688487.755487) can0 00000103#0101010101010101
(0946688487.757122) can0 00000001#EFFF000002000000
(0946688487.757404) can0 00000002#2EFC0000AF002800
(0946688487.765489) can0 00000103#0101010101010101
(0946688487.767252) can0 00000001#EFFF000001000000
(0946688487.767508) can0 00000002#2EFC0000AF002800
(0946688487.775495) can0 00000103#0101010101010101
(0946688487.775805) can0 18FF1515#0000000100010000
(0946688487.777303) can0 00000001#EEFF000001000000
(0946688487.777603) can0 00000002#2FFC0000AF002800
(0946688487.778736) can0 00000007#D403860096A60000
(0946688487.785478) can0 00000103#0101010101010101
(0946688487.787447) can0 00000001#EFFF000001000000
(0946688487.787697) can0 00000002#2FFC0000AF002800
(0946688487.790747) can0 00000303#0000
(0946688487.795489) can0 00000103#0101010101010101
(0946688487.797507) can0 00000001#EFFF000000000000
(0946688487.797788) can0 00000002#30FC0000AF002800
(0946688487.798430) can0 19B50000#0004000000010060
(0946688487.799021) can0 19B50007#0000002700000000
(0946688487.799636) can0 19B50001#BEC4C1936B000000
(0946688487.800164) can0 19B50002#7879780000000000
(0946688487.800762) can0 19B50003#0000000000000000
(0946688487.801375) can0 19B50008#797B7A0000000000
(0946688487.802244) can0 19B50500#0000002500003A64
(0946688487.803367) can0 19B50600#FFFF007699990000
(0946688487.803938) can0 19B50009#BEC4C10000936B00
(0946688487.805495) can0 00000103#0101010101010101
(0946688487.807610) can0 00000001#EFFF000000000000
(0946688487.807903) can0 00000002#30FC0000AF002800
(0946688487.815490) can0 00000103#0101010101010101
(0946688487.815755) can0 00000303#0000
(0946688487.817708) can0 00000001#EFFF000000000000
(0946688487.818007) can0 00000002#30FC0000AF002800
(0946688487.825511) can0 00000103#0101010101010101
(0946688487.827792) can0 00000001#F0FF000000000000
(0946688487.828093) can0 00000002#30FC0000AF002800
(0946688487.835479) can0 00000103#0101010101010101
(0946688487.837914) can0 00000001#F0FF000000000000
(0946688487.838209) can0 00000002#2FFC0000AF002800
(0946688487.845474) can0 00000103#0101010101010101
(0946688487.848003) can0 00000001#EFFF0000FFFF0000
(0946688487.848329) can0 00000002#2EFC0000AF002800
(0946688487.855495) can0 00000103#0101010101010101
(0946688487.858077) can0 00000001#EFFF0000FFFF0000
(0946688487.858381) can0 00000002#2EFC0000AF002800
(0946688487.865487) can0 00000103#0101010101010101
(0946688487.868194) can0 00000001#EFFF0000FFFF0000
(0946688487.868488) can0 00000002#2EFC0000AF002800
(0946688487.875462) can0 00000103#0101010101010101
(0946688487.875779) can0 18FF1515#0000000100010000
(0946688487.878260) can0 00000001#EEFF000002000000
(0946688487.878548) can0 00000002#2FFC0000B0002800
(0946688487.882657) can0 00000008#D4FF
(0946688487.883172) can0 00000009#D40079797A7979FF
(0946688487.885481) can0 00000103#0101010101010101
(0946688487.885701) can0 00000008#D4FF
(0946688487.886185) can0 00000009#D406FFFFFFFFFFFF
(0946688487.888381) can0 00000001#EFFF000002000000
(0946688487.888649) can0 00000002#2FFC0000B0002800
(0946688487.891397) can0 00000008#D4FF
(0946688487.891878) can0 00000009#D40CFFFFFFFF
(0946688487.895472) can0 00000103#0101010101010101
(0946688487.899026) can0 00000001#EFFF000002000000
(0946688487.899367) can0 00000002#2FFC0000B0002800
(0946688487.905497) can0 00000103#0101010101010101
(0946688487.907791) can0 0000000C#D4FF
(0946688487.908283) can0 0000000D#D4007A7A7A7A7AFF
(0946688487.909152) can0 00000001#EFFF000001000000
(0946688487.909431) can0 00000002#2FFC0000B0002800
(0946688487.913945) can0 0000000C#D4FF
(0946688487.914462) can0 0000000D#D406FFFFFFFFFFFF
(0946688487.915490) can0 00000103#0101010101010101
(0946688487.918534) can0 0000000C#D4FF
(0946688487.918976) can0 0000000D#D40CFFFFFFFF
(0946688487.919267) can0 00000001#EFFF000001000000
(0946688487.919555) can0 00000002#2FFC0000B0002800
(0946688487.921623) can0 00000303#0000
(0946688487.924066) can0 00000010#D4FF
(0946688487.924575) can0 00000011#D4007B7B7B7B7BFF
(0946688487.925501) can0 00000103#0101010101010101
(0946688487.928779) can0 00000010#D4FF
(0946688487.929259) can0 00000011#D406FFFFFFFFFFFF
(0946688487.929563) can0 00000001#EEFF000001000000
(0946688487.929854) can0 00000002#2FFC0000B0002800
(0946688487.935479) can0 00000103#0101010101010101
(0946688487.936521) can0 00000010#D4FF
(0946688487.936959) can0 00000011#D40CFFFFFFFF
(0946688487.939432) can0 00000001#EEFF000001000000
(0946688487.939747) can0 00000002#2FFC0000B0002800
(0946688487.942340) can0 00000014#D4FF
(0946688487.942800) can0 00000015#D4007B7B7B7B7BFF
(0946688487.945473) can0 00000103#0101010101010101
(0946688487.946598) can0 00000303#0000
(0946688487.947254) can0 00000014#D4FF
(0946688487.947731) can0 00000015#D406FFFFFFFFFFFF
(0946688487.949553) can0 00000001#EFFF000001000000
(0946688487.949832) can0 00000002#2FFC0000B0002800
(0946688487.955498) can0 00000103#0101010101010101
(0946688487.959634) can0 00000001#EFFF000000000000
(0946688487.959924) can0 00000002#2FFC0000B0002800
(0946688487.964626) can0 00000014#D4FF
(0946688487.965080) can0 00000015#D40CFFFFFFFF
(0946688487.965493) can0 00000103#0101010101010101
(0946688487.969744) can0 00000001#EFFF000000000000
(0946688487.970052) can0 00000002#2FFC0000B0002800
(0946688487.971200) can0 00000018#D4FF
(0946688487.971746) can0 00000019#D4007979797A79FF
(0946688487.975497) can0 00000103#0101010101010101
(0946688487.975845) can0 18FF1515#0000000100010000
(0946688487.976263) can0 00000018#D4FF
(0946688487.977193) can0 00000019#D406FFFFFFFFFFFF
(0946688487.979882) can0 00000001#EFFF000000000000
(0946688487.980139) can0 00000002#2EFC0000B0002800
(0946688487.981820) can0 00000018#D4FF
(0946688487.982275) can0 00000019#D40CFFFFFFFF
(0946688487.985515) can0 00000103#0101010101010101
(0946688487.986567) can0 0000001C#D4FF
(0946688487.987044) can0 0000001D#D4007A7A7A7A7AFF
(0946688487.989932) can0 00000001#EFFF000000000000
(0946688487.990256) can0 00000002#2EFC0000B0002800
(0946688487.992128) can0 0000001C#D4FF
(0946688487.992702) can0 0000001D#D406FFFFFFFFFFFF
(0946688487.995465) can0 00000103#0101010101010101
(0946688487.998212) can0 19B50000#0004000000010060
(0946688487.998800) can0 19B50007#0000002700000000
(0946688487.999384) can0 19B50001#BEC4C1936B000000
(0946688487.999980) can0 19B50002#7879780000000000
(0946688488.000307) can0 00000001#EFFF000000000000
(0946688488.000571) can0 00000002#2EFC0000B0002800
(0946688488.000903) can0 19B50003#0000000000000000
(0946688488.001135) can0 19B50008#797B7A0000000000
(0946688488.002087) can0 19B50500#0000002500003A64
(0946688488.003161) can0 19B50600#FFFF007699990000
(0946688488.003726) can0 19B50009#BEC4C10000936B00
(0946688488.005508) can0 00000103#0101010101010101
(0946688488.010142) can0 00000001#EFFF000000000000
(0946688488.010453) can0 00000002#2EFC0000B0002800
(0946688488.011074) can0 0000001C#D4FF
(0946688488.011546) can0 0000001D#D40CFFFFFFFF
(0946688488.015530) can0 00000103#0101010101010101
(0946688488.020273) can0 00000001#EFFF000000000000
(0946688488.020571) can0 00000002#2EFC0000B0002800
(0946688488.025486) can0 00000103#0101010101010101
(0946688488.030370) can0 00000001#EFFF000000000000
(0946688488.030655) can0 00000002#2EFC0000B0002800
(0946688488.035501) can0 00000103#0101010101010101
(0946688488.040485) can0 00000001#EEFF000000000000
(0946688488.040767) can0 00000002#2EFC0000B0002800
(0946688488.045510) can0 00000103#0101010101010101
(0946688488.050594) can0 00000001#EEFF000001000000
(0946688488.050862) can0 00000002#2EFC0000B0002800
(0946688488.052482) can0 00000303#0000
(0946688488.055497) can0 00000103#0101010101010101
(0946688488.060677) can0 00000001#EEFF000001000000
(0946688488.060976) can0 00000002#2EFC0000B1002800
(0946688488.065540) can0 00000103#0101010101010101
(0946688488.071575) can0 00000001#EEFF000001000000
(0946688488.071882) can0 00000002#2EFC0000B1002800
(0946688488.075484) can0 00000103#0101010101010101
(0946688488.075789) can0 18FF1515#0000000100010000
(0946688488.077487) can0 00000303#0000
(0946688488.078150) can0 19B50800#00
(0946688488.078713) can0 19B50800#79797A7979FFFFFF
(0946688488.081654) can0 00000001#EEFF000001000000
(0946688488.081937) can0 00000002#2EFC0000B1002800
(0946688488.085486) can0 00000103#0101010101010101
(0946688488.091768) can0 00000001#EEFF000001000000
(0946688488.092057) can0 00000002#2EFC0000B1002800
(0946688488.093441) can0 19B50801#FFFFFFFFFFFFFFFF
(0946688488.095495) can0 00000103#0101010101010101
(0946688488.101894) can0 00000001#EEFF000001000000
(0946688488.102196) can0 00000002#2EFC0000B1002800
(0946688488.105506) can0 00000103#0101010101010101
(0946688488.111978) can0 00000001#EEFF000001000000
(0946688488.112259) can0 00000002#2EFC0000B1002800
(0946688488.115501) can0 00000103#0101010101010101
(0946688488.120208) can0 19B50802#7A7A7A7A7AFFFFFF
(0946688488.122046) can0 00000001#EEFF000001000000
(0946688488.122366) can0 00000002#2EFC0000B1002800
(0946688488.125491) can0 00000103#0101010101010101
(0946688488.132176) can0 00000001#EFFF000001000000
(0946688488.132451) can0 00000002#2EFC0000B1002800
(0946688488.135482) can0 00000103#0101010101010101
(0946688488.136719) can0 19B50803#FFFFFFFFFFFFFFFF
(0946688488.142234) can0 00000001#EFFF000001000000
(0946688488.142546) can0 00000002#2EFC0000B1002800
(0946688488.145490) can0 00000103#0101010101010101
(0946688488.152350) can0 00000001#EFFF000001000000
(0946688488.152639) can0 00000002#2FFC0000B1002800
(0946688488.153097) can0 19B50804#7B7B7B7B7BFFFFFF
(0946688488.155506) can0 00000103#0101010101010101
(0946688488.162497) can0 00000001#EFFF000000000000
(0946688488.162763) can0 00000002#2FFC0000B1002800
(0946688488.165540) can0 00000103#0101010101010101
(0946688488.168544) can0 19B50805#FFFFFFFFFFFFFFFF
(0946688488.172572) can0 00000001#EFFF000000000000
(0946688488.172873) can0 00000002#2FFC0000B1002800
(0946688488.175490) can0 00000103#0101010101010101
(0946688488.175782) can0 18FF1515#0000000100010000
(0946688488.182664) can0 00000001#EFFF000000000000
(0946688488.182958) can0 00000002#2FFC0000B1002800
(0946688488.183278) can0 19B50806#7B7B7B7B7BFFFFFF
(0946688488.185349) can0 00000303#0000
(0946688488.185632) can0 00000103#0101010101010101
(0946688488.192778) can0 00000001#EFFF000000000000
(0946688488.193084) can0 00000002#2FFC0000B1002800
(0946688488.193384) can0 19B50000#0004000000010060
(0946688488.193954) can0 19B50007#0000002700000000
(0946688488.194621) can0 19B50001#BEC4C1936B000000
(0946688488.195184) can0 19B50002#7879780000000000
(0946688488.195488) can0 00000103#0101010101010101
(0946688488.195782) can0 19B50003#0000000000000000
(0946688488.196486) can0 19B50008#797B7A0000000000
(0946688488.197518) can0 19B50500#0000002500003A64
(0946688488.198618) can0 19B50600#FFFF007699990000
(0946688488.199178) can0 19B50009#BEC4C10000936B00
(0946688488.202874) can0 00000001#EEFF000000000000
(0946688488.203159) can0 00000002#2EFC0000B1002900
(0946688488.205504) can0 00000103#0101010101010101
(0946688488.210380) can0 00000303#0000
(0946688488.212991) can0 00000001#EEFF000000000000
(0946688488.213278) can0 00000002#2EFC0000B1002900
(0946688488.215538) can0 00000103#0101010101010101
(0946688488.222986) can0 19B50807#FFFFFFFFFFFFFFFF
(0946688488.223272) can0 00000001#EEFF000000000000
(0946688488.223571) can0 00000002#2EFC0000B1002900
(0946688488.225484) can0 00000103#0101010101010101
(0946688488.233161) can0 00000001#EFFF000001000000
(0946688488.233434) can0 00000002#2FFC0000B2002900
(0946688488.235482) can0 00000103#0101010101010101
(0946688488.240399) can0 19B50808#7979797A79FFFFFF
(0946688488.243271) can0 00000001#EFFF000001000000
(0946688488.243541) can0 00000002#2FFC0000B2002900
(0946688488.245482) can0 00000103#0101010101010101
(0946688488.253331) can0 00000001#EFFF000001000000
(0946688488.253607) can0 00000002#2FFC0000B2002900
(0946688488.255544) can0 00000103#0101010101010101
(0946688488.257944) can0 19B50809#FFFFFFFFFFFFFFFF
(0946688488.264109) can0 00000001#EFFF000001000000
(0946688488.264379) can0 00000002#2FFC0000B2002900
(0946688488.265497) can0 00000103#0101010101010101
(0946688488.272281) can0 19B5080A#7A7A7A7A7AFFFFFF
(0946688488.274231) can0 00000001#EEFF000001000000
(0946688488.274539) can0 00000002#2EFC0000B2002900
(0946688488.275571) can0 00000103#0101010101010101
(0946688488.275887) can0 18FF1515#0000000100010000
(0946688488.281476) can0 00000007#D503860096A60000
(0946688488.284403) can0 00000001#EEFF000001000000
(0946688488.284673) can0 00000002#2EFC0000B2002900
(0946688488.285477) can0 00000103#0101010101010101
(0946688488.294386) can0 00000001#EEFF000001000000
(0946688488.294690) can0 00000002#2EFC0000B2002900
(0946688488.295495) can0 00000103#0101010101010101
(0946688488.304502) can0 00000001#EEFF000001000000
(0946688488.304781) can0 00000002#2EFC0000B2002900
(0946688488.305523) can0 00000103#0101010101010101
(0946688488.311298) can0 00000303#0000
(0946688488.314583) can0 00000001#EEFF000001000000
(0946688488.314860) can0 00000002#2EFC0000B2002900
(0946688488.315536) can0 00000103#0101010101010101
(0946688488.324679) can0 00000001#EFFF000001000000
(0946688488.324965) can0 00000002#2EFC0000B2002900
(0946688488.325520) can0 00000103#0101010101010101
(0946688488.334773) can0 00000001#EFFF000001000000
(0946688488.335049) can0 00000002#2EFC0000B2002900
(0946688488.335451) can0 00000103#0101010101010101
(0946688488.342231) can0 00000303#0000
(0946688488.344865) can0 00000001#EFFF000002000000
(0946688488.345156) can0 00000002#2EFC0000B2002900
(0946688488.345476) can0 00000103#0101010101010101
(0946688488.354949) can0 00000001#EFFF000002000000
(0946688488.355246) can0 00000002#2EFC0000B2002900
(0946688488.355516) can0 00000103#0101010101010101
(0946688488.365052) can0 00000001#EFFF000002000000
(0946688488.365332) can0 00000002#2EFC0000B2002900
(0946688488.365655) can0 00000103#0101010101010101
(0946688488.375153) can0 00000001#EFFF000001000000
(0946688488.375465) can0 00000002#2EFC0000B2002900
(0946688488.375749) can0 00000103#0101010101010101
(0946688488.376098) can0 18FF1515#0000000100010000
(0946688488.381506) can0 00000008#D5FF
(0946688488.382015) can0 00000009#D50079797A7979FF
(0946688488.383198) can0 00000008#D5FF
(0946688488.383679) can0 00000009#D506FFFFFFFFFFFF
(0946688488.385247) can0 00000001#EFFF000002000000
(0946688488.385543) can0 00000002#2FFC0000B2002900
(0946688488.385834) can0 00000103#0101010101010101
(0946688488.388070) can0 00000008#D5FF
(0946688488.388524) can0 00000009#D50CFFFFFFFF
(0946688488.393978) can0 19B50000#0004000000010060
(0946688488.394544) can0 19B50007#0000002700000000
(0946688488.395100) can0 19B50001#BEC4C1936B000000
(0946688488.395389) can0 00000001#EEFF000001000000
(0946688488.395669) can0 00000002#2EFC0000B3002900
(0946688488.395967) can0 00000103#0101010101010101
(0946688488.396271) can0 19B50002#7879780000000000
(0946688488.396545) can0 19B50003#0000000000000000
(0946688488.397038) can0 19B50008#797B7A0000000000
(0946688488.397933) can0 19B50500#0000002500003A64
(0946688488.399013) can0 19B50600#FFFF007699990000
(0946688488.399603) can0 19B50009#BEC4C10000936B00
(0946688488.405130) can0 0000000C#D5FF
(0946688488.405469) can0 00000001#EFFF0000FFFF0000
(0946688488.405733) can0 0000000D#D5007A7A7A7A7AFF
(0946688488.406032) can0 00000103#0101010101010101
(0946688488.406334) can0 00000002#2EFC0000B3002900
(0946688488.410653) can0 0000000C#D5FF
(0946688488.411121) can0 0000000D#D506FFFFFFFFFFFF
(0946688488.415167) can0 0000000C#D5FF
(0946688488.415508) can0 00000103#0101010101010101
(0946688488.415799) can0 00000001#EFFF000000000000
(0946688488.416107) can0 00000002#2EFC0000B3002900
(0946688488.425491) can0 00000103#0101010101010101
(0946688488.425789) can0 00000001#EFFF000000000000
(0946688488.426071) can0 00000002#2EFC0000B3002900
(0946688488.435482) can0 00000103#0101010101010101
(0946688488.435770) can0 00000001#EEFF000000000000
(0946688488.436654) can0 00000002#2DFC0000B3002900
(0946688488.443108) can0 00000303#0000
(0946688488.445515) can0 00000103#0101010101010101
(0946688488.446617) can0 00000001#EEFF000000000000
(0946688488.446907) can0 00000002#2DFC0000B3002900
(0946688488.455474) can0 00000103#0101010101010101
(0946688488.456690) can0 00000001#EEFF000001000000
(0946688488.456996) can0 00000002#2DFC0000B3002900
(0946688488.465490) can0 00000103#0101010101010101
(0946688488.466772) can0 00000001#EEFF000001000000
(0946688488.467073) can0 00000002#2DFC0000B3002900
(0946688488.468117) can0 00000303#0000
(0946688488.475512) can0 00000103#0101010101010101
(0946688488.475801) can0 18FF1515#0000000100010000
(0946688488.476884) can0 00000001#EEFF000001000000
(0946688488.477189) can0 00000002#2DFC0000B3002900
(0946688488.485489) can0 00000103#0101010101010101
(0946688488.487004) can0 00000001#EEFF000001000000
(0946688488.487293) can0 00000002#2EFC0000B3002900
(0946688488.495495) can0 00000103#0101010101010101
(0946688488.497083) can0 00000001#EEFF000001000000
(0946688488.497367) can0 00000002#2FFC0000B3002900
(0946688488.505470) can0 00000103#0101010101010101
(0946688488.507148) can0 00000001#EEFF000001000000
(0946688488.507427) can0 00000002#30FC0000B4002900
(0946688488.515468) can0 00000103#0101010101010101
(0946688488.517240) can0 00000001#EEFF000001000000
(0946688488.517508) can0 00000002#30FC0000B4002900
(0946688488.525496) can0 00000103#0101010101010101
(0946688488.527322) can0 00000001#EEFF000001000000
(0946688488.527602) can0 00000002#2FFC0000B4002900
(0946688488.535484) can0 00000103#0101010101010101
(0946688488.537418) can0 00000001#EEFF000001000000
(0946688488.537703) can0 00000002#30FC0000B4002900
(0946688488.545484) can0 00000103#0101010101010101
(0946688488.547527) can0 00000001#EEFF000001000000
(0946688488.547805) can0 00000002#2FFC0000B4002900
(0946688488.555471) can0 00000103#0101010101010101
(0946688488.557611) can0 00000001#EEFF000001000000
(0946688488.557897) can0 00000002#2FFC0000B4002900
(0946688488.565474) can0 00000103#0101010101010101
(0946688488.567734) can0 00000001#EEFF000000000000
(0946688488.568039) can0 00000002#2FFC0000B4002900
(0946688488.575483) can0 00000103#0101010101010101
(0946688488.575801) can0 18FF1515#0000000100010000
(0946688488.575994) can0 00000303#0000
(0946688488.577818) can0 00000001#EDFF000001000000
(0946688488.578127) can0 00000002#2EFC0000B4002900
(0946688488.585514) can0 00000103#0101010101010101
(0946688488.587903) can0 00000001#F1FF000001000000
(0946688488.588193) can0 00000002#2EFC0000B4002900
(0946688488.595482) can0 00000103#0101010101010101
(0946688488.596174) can0 19B50000#0004000000010060
(0946688488.596912) can0 19B50007#0000002700000000
(0946688488.597529) can0 19B50001#BEC4C1936B000000
(0946688488.597999) can0 00000001#F0FF000002000000
(0946688488.598310) can0 00000002#2DFC0000B4002900
(0946688488.598571) can0 19B50002#7879780000000000
(0946688488.599060) can0 19B50003#0000000000000000
(0946688488.599618) can0 19B50008#797B7A0000000000
(0946688488.600494) can0 19B50500#0000002500003A64
(0946688488.601008) can0 00000303#0000
(0946688488.601691) can0 19B50600#FFFF007699990000
(0946688488.602271) can0 19B50009#BEC4C10000936B00
(0946688488.605513) can0 00000103#0101010101010101
(0946688488.608119) can0 00000001#EFFF000002000000
(0946688488.608380) can0 00000002#2EFC0000B4002900
(0946688488.615472) can0 00000103#0101010101010101
(0946688488.618201) can0 00000001#EFFF000002000000
(0946688488.618459) can0 00000002#2EFC0000B4002900
(0946688488.625496) can0 00000103#0101010101010101
(0946688488.628276) can0 00000001#EEFF000002000000
(0946688488.628543) can0 00000002#2EFC0000B4002900
(0946688488.635488) can0 00000103#0101010101010101
(0946688488.638360) can0 00000001#EEFF000002000000
(0946688488.638660) can0 00000002#2EFC0000B4002900
(0946688488.645482) can0 00000103#0101010101010101
(0946688488.649154) can0 00000001#EEFF000002000000
(0946688488.649453) can0 00000002#2EFC0000B4002900
(0946688488.655472) can0 00000103#0101010101010101
(0946688488.659279) can0 00000001#EDFF000002000000
(0946688488.659565) can0 00000002#2FFC0000B4002900
(0946688488.665501) can0 00000103#0101010101010101
(0946688488.669372) can0 00000001#EDFF000002000000
(0946688488.669643) can0 00000002#2FFC0000B4002900
(0946688488.675511) can0 00000103#0101010101010101
(0946688488.675787) can0 18FF1515#0000000100010000
(0946688488.679707) can0 00000001#EDFF0000FFFF0000
(0946688488.679935) can0 00000002#31FC0000B4002900
(0946688488.685500) can0 00000103#0101010101010101
(0946688488.689667) can0 00000001#EEFF0000FFFF0000
(0946688488.689966) can0 00000002#30FC0000B5002900
(0946688488.695543) can0 00000103#0101010101010101
(0946688488.699747) can0 00000001#EFFF0000FEFF0000
(0946688488.700024) can0 00000002#32FC0000B5002900
(0946688488.701885) can0 00000303#0000
(0946688488.705514) can0 00000103#0101010101010101
(0946688488.709862) can0 00000001#F0FF0000FEFF0000
(0946688488.710128) can0 00000002#32FC0000B5002900
(0946688488.715508) can0 00000103#0101010101010101
(0946688488.719928) can0 00000001#F1FF0000FEFF0000
(0946688488.720230) can0 00000002#32FC0000B5002A00
(0946688488.725498) can0 00000103#0101010101010101
(0946688488.730029) can0 00000001#F2FF0000FEFF0000
(0946688488.730324) can0 00000002#31FC0000B5002A00
(0946688488.732889) can0 00000303#0000
(0946688488.735487) can0 00000103#0101010101010101
(0946688488.740109) can0 00000001#F3FF0000FEFF0000
(0946688488.740399) can0 00000002#30FC0000B5002A00
(0946688488.745481) can0 00000103#0101010101010101
(0946688488.750217) can0 00000001#F3FF0000FEFF0000
(0946688488.750487) can0 00000002#30FC0000B5002A00
(0946688488.755517) can0 00000103#0101010101010101
(0946688488.760301) can0 00000001#ECFF000004000000
(0946688488.760551) can0 00000002#2AFC0000B5002A00
(0946688488.765474) can0 00000103#0101010101010101
(0946688488.770373) can0 00000001#EBFF000004000000
(0946688488.770648) can0 00000002#2AFC0000B5002900
(0946688488.775500) can0 00000103#0101010101010101
(0946688488.775791) can0 18FF1515#0000000100010000
(0946688488.780457) can0 00000001#EDFF000005000000
(0946688488.780735) can0 00000002#2CFC0000B5002900
(0946688488.785489) can0 00000103#0101010101010101
(0946688488.790573) can0 00000001#ECFF000006000000
(0946688488.790835) can0 00000002#2CFC0000B5002900
(0946688488.795188) can0 19B50000#0004000000010060
(0946688488.795490) can0 00000103#0101010101010101
(0946688488.795790) can0 19B50007#0000002700000000
(0946688488.796754) can0 19B50001#BEC4C1936B000000
(0946688488.797326) can0 19B50002#7879780000000000
(0946688488.797936) can0 19B50003#0000000000000000
(0946688488.798501) can0 19B50008#797B7A0000000000
(0946688488.799401) can0 19B50500#0000002500003A64
(0946688488.800521) can0 19B50600#FFFF007699990000
(0946688488.800771) can0 00000001#ECFF000006000000
(0946688488.801054) can0 00000002#2FFC0000B5002900
(0946688488.801373) can0 19B50009#BEC4C10000936B00
(0946688488.805493) can0 00000103#0101010101010101
(0946688488.810727) can0 00000001#ECFF000006000000
(0946688488.811614) can0 00000002#2FFC0000B6002900
(0946688488.815448) can0 00000103#0101010101010101
(0946688488.820824) can0 00000001#EBFF000007000000
(0946688488.821113) can0 00000002#32FC0000B6002900
(0946688488.825476) can0 00000103#0101010101010101
(0946688488.829756) can0 00000303#0000
(0946688488.831505) can0 00000001#ECFF000006000000
(0946688488.831785) can0 00000002#32FC0000B6002900
(0946688488.835453) can0 00000103#0101010101010101
(0946688488.841629) can0 00000001#ECFF000006000000
(0946688488.841924) can0 00000002#33FC0000B6002900
(0946688488.845494) can0 00000103#0101010101010101
(0946688488.851747) can0 00000001#EBFF000005000000
(0946688488.852028) can0 00000002#33FC0000B6002900
(0946688488.855454) can0 00000103#0101010101010101
(0946688488.860739) can0 00000303#0000
(0946688488.861794) can0 00000001#EFFF0000FDFF0000
(0946688488.862093) can0 00000002#30FC0000B6002900
(0946688488.865473) can0 00000103#0101010101010101
(0946688488.869966) can0 00000007#D603860096A60000
(0946688488.871900) can0 00000001#EFFF0000FAFF0000
(0946688488.872197) can0 00000002#2FFC0000B6002900
(0946688488.875490) can0 00000103#0101010101010101
(0946688488.875768) can0 18FF1515#0000000100010000
(0946688488.882032) can0 00000001#EFFF0000F9FF0000
(0946688488.882322) can0 00000002#2EFC0000B6002900
(0946688488.885477) can0 00000103#0101010101010101
(0946688488.892113) can0 00000001#EFFF0000F8FF0000
(0946688488.892414) can0 00000002#2DFC0000B6002900
(0946688488.895486) can0 00000103#0101010101010101
(0946688488.902158) can0 00000001#EFFF0000F7FF0000
(0946688488.902456) can0 00000002#2DFC0000B6002900
(0946688488.905488) can0 00000103#0101010101010101
(0946688488.912302) can0 00000001#EFFF0000F7FF0000
(0946688488.912603) can0 00000002#2DFC0000B6002A00
(0946688488.915473) can0 00000103#0101010101010101
(0946688488.922368) can0 00000001#EFFF0000F7FF0000
(0946688488.922685) can0 00000002#2CFC0000B6002A00
(0946688488.925478) can0 00000103#0101010101010101
(0946688488.932499) can0 00000001#EFFF0000F7FF0000
(0946688488.932763) can0 00000002#2CFC0000B6002A00
(0946688488.935498) can0 00000103#0101010101010101
(0946688488.942555) can0 00000001#EFFF000005000000
(0946688488.942864) can0 00000002#2FFC0000B6002A00
(0946688488.945486) can0 00000103#0101010101010101
(0946688488.952663) can0 00000001#F0FF000007000000
(0946688488.952981) can0 00000002#30FC0000B6002A00
(0946688488.955491) can0 00000103#0101010101010101
(0946688488.957656) can0 00000303#0000
(0946688488.962764) can0 00000001#F0FF000007000000
(0946688488.963084) can0 00000002#30FC0000B6002A00
(0946688488.965512) can0 00000103#0101010101010101
(0946688488.972610) can0 0000000C#D6FF
(0946688488.972913) can0 00000001#F0FF000008000000
(0946688488.973203) can0 00000002#30FC0000B7002A00
(0946688488.975484) can0 00000103#0101010101010101
(0946688488.975773) can0 18FF1515#0000000100010000
(0946688488.982976) can0 00000001#F0FF000009000000
(0946688488.983264) can0 00000002#30FC0000B7002A00
(0946688488.985496) can0 00000103#0101010101010101
(0946688488.988596) can0 00000303#0000
(0946688488.991727) can0 19B50000#0004000000010060
(0946688488.992325) can0 19B50007#0000002700000000
(0946688488.992912) can0 19B50001#BEC4C1936B000000
(0946688488.993163) can0 00000001#EFFF000008000000
(0946688488.993456) can0 00000002#30FC0000B7002A00
(0946688488.993750) can0 19B50002#7879780000000000
(0946688488.994405) can0 19B50003#0000000000000000
(0946688488.995020) can0 19B50008#797B7A0000000000
(0946688488.995496) can0 00000103#0101010101010101
(0946688488.996190) can0 19B50500#0000002500003A64
(0946688488.997281) can0 19B50600#FFFF007699990000
(0946688488.997887) can0 19B50009#BEC4C10000936B00
(0946688489.003182) can0 00000001#EFFF000008000000
(0946688489.003468) can0 00000002#30FC0000B7002A00
(0946688489.005493) can0 00000103#0101010101010101
(0946688489.013302) can0 00000001#EEFF000008000000
(0946688489.014085) can0 00000002#2FFC0000B7002900
(0946688489.015453) can0 00000103#0101010101010101
(0946688489.023379) can0 00000001#EEFF000006000000
(0946688489.023657) can0 00000002#2FFC0000B7002900
(0946688489.025464) can0 00000103#0101010101010101
(0946688489.034109) can0 00000001#EDFF000001000000
(0946688489.034373) can0 00000002#2DFC0000B7002900
(0946688489.035454) can0 00000103#0101010101010101
(0946688489.044176) can0 00000001#EEFF000000000000
(0946688489.044488) can0 00000002#2DFC0000B7002900
(0946688489.045452) can0 00000103#0101010101010101
(0946688489.054289) can0 00000001#EEFF0000FFFF0000
(0946688489.054566) can0 00000002#2EFC0000B7002900
(0946688489.055481) can0 00000103#0101010101010101
(0946688489.064390) can0 00000001#EEFF0000FEFF0000
(0946688489.064656) can0 00000002#2EFC0000B7002900
(0946688489.065486) can0 00000103#0101010101010101
(0946688489.074557) can0 00000001#EFFF0000FEFF0000
(0946688489.074829) can0 00000002#2EFC0000B7002900
(0946688489.075474) can0 00000103#0101010101010101
(0946688489.075767) can0 18FF1515#0000000100010000
(0946688489.084726) can0 00000001#EEFF0000FDFF0000
(0946688489.085021) can0 00000002#2FFC0000B7002A00
(0946688489.085492) can0 00000103#0101010101010101
(0946688489.085694) can0 00000303#0000
(0946688489.094827) can0 00000001#EEFF0000FCFF0000
(0946688489.095120) can0 00000002#2FFC0000B7002A00
(0946688489.095489) can0 00000103#0101010101010101
(0946688489.104930) can0 00000001#EEFF0000FBFF0000
(0946688489.105227) can0 00000002#2FFC0000B7002A00
(0946688489.105521) can0 00000103#0101010101010101
(0946688489.115039) can0 00000001#EEFF000001000000
(0946688489.115317) can0 00000002#2EFC0000B7002A00
(0946688489.115601) can0 00000103#0101010101010101
(0946688489.116482) can0 00000303#0000
(0946688489.125161) can0 00000001#EEFF000002000000
(0946688489.125425) can0 00000002#2EFC0000B8002B00
(0946688489.125723) can0 00000103#0101010101010101
(0946688489.135239) can0 00000001#EDFF000003000000
(0946688489.135508) can0 00000002#2EFC0000B8002B00
(0946688489.135786) can0 00000103#0101010101010101
(0946688489.145323) can0 00000001#EDFF000004000000
(0946688489.145593) can0 00000002#2EFC0000B8002A00
(0946688489.145863) can0 00000103#0101010101010101
(0946688489.155373) can0 00000001#EDFF000004000000
(0946688489.155696) can0 00000002#2EFC0000B8002A00
(0946688489.155948) can0 00000103#0101010101010101
(0946688489.165478) can0 00000103#0101010101010101
(0946688489.165741) can0 00000001#EDFF000005000000
(0946688489.166037) can0 00000002#2FFC0000B8002A00
(0946688489.175483) can0 00000103#0101010101010101
(0946688489.175822) can0 00000001#EDFF000004000000
(0946688489.176088) can0 00000002#2FFC0000B8002A00
(0946688489.176520) can0 18FF1515#0000000100010000
(0946688489.185503) can0 00000103#0101010101010101
(0946688489.185824) can0 00000001#EDFF000004000000
(0946688489.186071) can0 00000002#2FFC0000B8002A00
(0946688489.194382) can0 19B50000#0004000000010060
(0946688489.194981) can0 19B50007#0000002700000000
(0946688489.195496) can0 00000103#0101010101010101
(0946688489.195759) can0 19B50001#BEC4C1936B000000
(0946688489.196040) can0 00000001#EEFF000004000000
(0946688489.196543) can0 19B50002#7879780000000000
(0946688489.196798) can0 00000002#2FFC0000B8002A00
(0946688489.197160) can0 19B50003#0000000000000000
(0946688489.197710) can0 19B50008#797B7A0000000000
(0946688489.198585) can0 19B50500#0000002500003A64
(0946688489.199673) can0 19B50600#FFFF007699990000
(0946688489.200248) can0 19B50009#BEC4C10000936B00
(0946688489.205480) can0 00000103#0101010101010101
(0946688489.205903) can0 00000001#EEFF000004000000
(0946688489.206196) can0 00000002#2FFC0000B8002A00
(0946688489.213415) can0 00000303#0000
(0946688489.215474) can0 00000103#0101010101010101
(0946688489.216653) can0 00000001#EFFF000001000000
(0946688489.216956) can0 00000002#2EFC0000B9002A00
(0946688489.225474) can0 00000103#0101010101010101
(0946688489.226747) can0 00000001#EFFF000001000000
(0946688489.227074) can0 00000002#2FFC0000B9002A00
(0946688489.235489) can0 00000103#0101010101010101
(0946688489.237154) can0 00000001#EFFF000000000000
(0946688489.237455) can0 00000002#2EFC0000B9002A00
(0946688489.244338) can0 00000303#0000
(0946688489.245494) can0 00000103#0101010101010101
(0946688489.247260) can0 00000001#EEFF000000000000
(0946688489.247545) can0 00000002#2EFC0000B9002A00
(0946688489.255493) can0 00000103#0101010101010101
(0946688489.257337) can0 00000001#EEFF000000000000
(0946688489.257660) can0 00000002#2EFC0000B9002A00
(0946688489.265516) can0 00000103#0101010101010101
(0946688489.267481) can0 00000001#EEFF0000FFFF0000
(0946688489.267744) can0 00000002#2DFC0000B9002A00
(0946688489.275480) can0 00000103#0101010101010101
(0946688489.275772) can0 18FF1515#0000000100010000
(0946688489.277580) can0 00000001#EEFF0000FFFF0000
(0946688489.277877) can0 00000002#2DFC0000B9002A00
(0946688489.285504) can0 00000103#0101010101010101
(0946688489.287656) can0 00000001#EFFF0000FFFF0000
(0946688489.287959) can0 00000002#2DFC0000B9002A00
(0946688489.295491) can0 00000103#0101010101010101
(0946688489.297787) can0 00000001#EFFF000000000000
(0946688489.298054) can0 00000002#2EFC0000B9002A00
(0946688489.305487) can0 00000103#0101010101010101
(0946688489.307866) can0 00000001#EFFF000000000000
(0946688489.308169) can0 00000002#2EFC0000B9002B00
(0946688489.315496) can0 00000103#0101010101010101
(0946688489.318005) can0 00000001#EFFF000001000000
(0946688489.318289) can0 00000002#2FFC0000B9002B00
(0946688489.325485) can0 00000103#0101010101010101
(0946688489.328078) can0 00000001#EFFF000001000000
(0946688489.328370) can0 00000002#2FFC0000B9002B00
(0946688489.335504) can0 00000103#0101010101010101
(0946688489.338197) can0 00000001#EFFF000002000000
(0946688489.338503) can0 00000002#2FFC0000B9002B00
(0946688489.345499) can0 00000103#0101010101010101
(0946688489.348321) can0 00000001#EFFF000003000000
(0946688489.349271) can0 00000002#2FFC0000B9002B00
(0946688489.355486) can0 00000103#0101010101010101
(0946688489.359165) can0 00000001#EFFF000003000000
(0946688489.359547) can0 00000002#30FC0000B9002A00
(0946688489.365489) can0 00000103#0101010101010101
(0946688489.369260) can0 00000001#EFFF000004000000
(0946688489.369525) can0 00000002#2FFC0000B9002A00
(0946688489.375515) can0 00000103#0101010101010101
(0946688489.375799) can0 18FF1515#0000000100010000
(0946688489.379648) can0 00000001#EEFF000004000000
(0946688489.379904) can0 00000002#2FFC0000B9002A00
(0946688489.385505) can0 00000103#0101010101010101
(0946688489.389660) can0 00000001#EDFF000003000000
(0946688489.389954) can0 00000002#2EFC0000B9002A00
(0946688489.394464) can0 19B50000#0004000000010060
(0946688489.395023) can0 19B50007#0000002700000000
(0946688489.395495) can0 00000103#0101010101010101
(0946688489.395780) can0 19B50001#BEC4C1936B000000
(0946688489.396384) can0 19B50002#7879780000000000
(0946688489.396989) can0 19B50003#0000000000000000
(0946688489.397549) can0 19B50008#797B7A0000000000
(0946688489.398518) can0 19B50500#0000002500003A64
(0946688489.399501) can0 19B50600#FFFF007699990000
(0946688489.399752) can0 00000001#EDFF000003000000
(0946688489.400076) can0 00000002#2FFC0000BA002A00
(0946688489.400371) can0 19B50009#BEC4C10000936B00
(0946688489.405534) can0 00000103#0101010101010101
(0946688489.409868) can0 00000001#EDFF000002000000
(0946688489.410174) can0 00000002#30FC0000BA002A00
(0946688489.415486) can0 00000103#0101010101010101
(0946688489.419955) can0 00000001#EDFF000001000000
(0946688489.420261) can0 00000002#30FC0000BA002A00
(0946688489.425472) can0 00000103#0101010101010101
(0946688489.430038) can0 00000007#D703860096A60000
(0946688489.430351) can0 00000001#EDFF000002000000
(0946688489.430610) can0 00000002#2DFC0000BA002A00
(0946688489.435465) can0 00000103#0101010101010101
(0946688489.440156) can0 00000001#F0FF000000000000
(0946688489.440457) can0 00000002#33FC0000BA002A00
(0946688489.445458) can0 00000103#0101010101010101
(0946688489.450237) can0 00000001#EEFF000001000000
(0946688489.450535) can0 00000002#2EFC0000BA002A00
(0946688489.455466) can0 00000103#0101010101010101
(0946688489.460364) can0 00000001#EDFF0000FEFF0000
(0946688489.460642) can0 00000002#30FC0000BA002A00
(0946688489.465145) can0 00000303#0000
(0946688489.465503) can0 00000103#0101010101010101
(0946688489.470425) can0 00000001#F0FF0000FDFF0000
(0946688489.470738) can0 00000002#2EFC0000BA002A00
(0946688489.475483) can0 00000103#0101010101010101
(0946688489.475777) can0 18FF1515#0000000100010000
(0946688489.480525) can0 00000001#F0FF0000FEFF0000
(0946688489.480818) can0 00000002#30FC0000BA002B00
(0946688489.485515) can0 00000103#0101010101010101
(0946688489.490614) can0 00000001#F0FF0000FFFF0000
(0946688489.490927) can0 00000002#30FC0000BA002B00
(0946688489.495498) can0 00000103#0101010101010101
(0946688489.496089) can0 00000303#0000
(0946688489.500711) can0 00000001#F1FF000000000000
(0946688489.501016) can0 00000002#31FC0000BA002B00
(0946688489.505477) can0 00000103#0101010101010101
(0946688489.511614) can0 00000001#F0FF000001000000
(0946688489.511896) can0 00000002#33FC0000BA002B00
(0946688489.515485) can0 00000103#0101010101010101
(0946688489.521706) can0 00000001#EFFF000002000000
(0946688489.521978) can0 00000002#33FC0000BA002B00
(0946688489.525478) can0 00000103#0101010101010101
(0946688489.531778) can0 00000001#EEFF000002000000
(0946688489.532078) can0 00000002#33FC0000BA002B00
(0946688489.535305) can0 0000000C#D7FF
(0946688489.535520) can0 00000103#0101010101010101
(0946688489.535798) can0 0000000D#D7007A7A7A7A7AFF
(0946688489.540030) can0 0000000C#D7FF
(0946688489.540513) can0 0000000D#D706FFFFFFFFFFFF
(0946688489.541858) can0 00000001#EEFF000002000000
(0946688489.542166) can0 00000002#32FC0000BA002B00
(0946688489.544384) can0 0000000C#D7FF
(0946688489.544852) can0 0000000D#D70CFFFFFFFF
(0946688489.545498) can0 00000103#0101010101010101
(0946688489.550126) can0 00000010#D7FF
(0946688489.550580) can0 00000011#D7007B7B7B7B7BFF
(0946688489.551982) can0 00000001#EDFF000002000000
(0946688489.552249) can0 00000002#32FC0000BA002B00
(0946688489.554330) can0 00000010#D7FF
(0946688489.554824) can0 00000011#D706FFFFFFFFFFFF
(0946688489.555477) can0 00000103#0101010101010101
(0946688489.560013) can0 00000010#D7FF
(0946688489.560456) can0 00000011#D70CFFFFFFFF
(0946688489.562061) can0 00000001#EDFF000003000000
(0946688489.562323) can0 00000002#31FC0000BB002B00
(0946688489.564192) can0 00000014#D7FF
(0946688489.564717) can0 00000015#D7007B7B7B7B7BFF
(0946688489.565495) can0 00000103#0101010101010101
(0946688489.569448) can0 00000014#D7FF
(0946688489.570276) can0 00000015#D706FFFFFFFFFFFF
(0946688489.572130) can0 00000001#EDFF000003000000
(0946688489.572422) can0 00000002#2CFC0000BB002B00
(0946688489.574136) can0 00000014#D7FF
(0946688489.574617) can0 00000015#D70CFFFFFFFF
(0946688489.575497) can0 00000103#0101010101010101
(0946688489.575783) can0 18FF1515#0000000100010000
(0946688489.579613) can0 00000018#D7FF
(0946688489.580090) can0 00000019#D7007979797A79FF
(0946688489.582237) can0 00000001#EEFF000003000000
(0946688489.582526) can0 00000002#2CFC0000BB002B00
(0946688489.585484) can0 00000103#0101010101010101
(0946688489.592010) can0 00000303#0000
(0946688489.592330) can0 00000001#EEFF000003000000
(0946688489.592631) can0 00000002#2BFC0000BB002B00
(0946688489.595504) can0 00000103#0101010101010101
(0946688489.599006) can0 00000018#D7FF
(0946688489.599507) can0 00000019#D706FFFFFFFFFFFF
(0946688489.602428) can0 00000001#EEFF000002000000
(0946688489.602729) can0 00000002#2BFC0000BB002B00
(0946688489.605498) can0 00000103#0101010101010101
(0946688489.606414) can0 19B50000#0004000000010060
(0946688489.606982) can0 19B50007#0000002700000000
(0946688489.607555) can0 19B50001#BEC4C1936B000000
(0946688489.608150) can0 19B50002#7879780000000000
(0946688489.608726) can0 19B50003#0000000000000000
(0946688489.609321) can0 19B50008#797B7A0000000000
(0946688489.610284) can0 19B50500#0000002500003A64
(0946688489.611324) can0 19B50600#FFFF007699990000
(0946688489.611919) can0 19B50009#BEC4C10000936B00
(0946688489.612530) can0 00000001#EFFF000002000000
(0946688489.612791) can0 00000002#2BFC0000BB002B00
(0946688489.615484) can0 00000103#0101010101010101
(0946688489.618883) can0 00000018#D7FF
(0946688489.619360) can0 00000019#D70CFFFFFFFF
(0946688489.622619) can0 00000001#EEFF000002000000
(0946688489.622897) can0 00000002#2CFC0000BB002B00
(0946688489.623114) can0 00000303#0000
(0946688489.625051) can0 0000001C#D7FF
(0946688489.625499) can0 00000103#0101010101010101
(0946688489.625781) can0 0000001D#D7007A7A7A7A7AFF
(0946688489.631001) can0 0000001C#D7FF
(0946688489.631530) can0 0000001D#D706FFFFFFFFFFFF
(0946688489.632676) can0 00000001#EEFF000002000000
(0946688489.633009) can0 00000002#2CFC0000BB002B00
(0946688489.635236) can0 0000001C#D7FF
(0946688489.635510) can0 00000103#0101010101010101
(0946688489.635762) can0 0000001D#D70CFFFFFFFF
(0946688489.642775) can0 00000001#EEFF000001000000
(0946688489.643079) can0 00000002#2DFC0000BB002B00
(0946688489.645505) can0 00000103#0101010101010101
(0946688489.652898) can0 00000001#EFFF000000000000
(0946688489.653194) can0 00000002#30FC0000BB002B00
(0946688489.655497) can0 00000103#0101010101010101
(0946688489.662979) can0 00000001#EFFF000000000000
(0946688489.663273) can0 00000002#30FC0000BC002B00
(0946688489.665492) can0 00000103#0101010101010101
(0946688489.673086) can0 00000001#EFFF000000000000
(0946688489.673360) can0 00000002#30FC0000BC002B00
(0946688489.675492) can0 00000103#0101010101010101
(0946688489.675785) can0 18FF1515#0000000100010000
(0946688489.683173) can0 00000001#EEFF000001000000
(0946688489.683478) can0 00000002#2FFC0000BC002B00
(0946688489.685526) can0 00000103#0101010101010101
(0946688489.693287) can0 00000001#EEFF000001000000
(0946688489.693554) can0 00000002#2FFC0000BC002B00
(0946688489.695506) can0 00000103#0101010101010101
(0946688489.703366) can0 00000001#EEFF000001000000
(0946688489.703677) can0 00000002#2EFC0000BC002B00
(0946688489.705495) can0 00000103#0101010101010101
(0946688489.714017) can0 00000001#EEFF000001000000
(0946688489.714294) can0 00000002#2EFC0000BC002B00
(0946688489.715486) can0 00000103#0101010101010101
(0946688489.716285) can0 19B5080B#FFFFFFFFFFFFFFFF
(0946688489.724138) can0 00000001#EEFF000000000000
(0946688489.724424) can0 00000002#2EFC0000BC002B00
(0946688489.725522) can0 00000103#0101010101010101
(0946688489.725839) can0 00000303#8000
(0946688489.734226) can0 00000001#EEFF000000000000
(0946688489.734513) can0 00000002#2EFC0000BC002B00
(0946688489.735513) can0 00000103#0101010101010101
(0946688489.744331) can0 00000001#EFFF0000FEFF0000
(0946688489.744638) can0 00000002#2EFC0000BC002B00
(0946688489.745504) can0 00000103#0101010101010101
(0946688489.750851) can0 00000303#0000
(0946688489.754454) can0 00000001#EFFF0000FEFF0000
(0946688489.754733) can0 00000002#2EFC0000BC002B00
(0946688489.755538) can0 00000103#0101010101010101
(0946688489.764582) can0 00000001#EFFF0000FFFF0000
(0946688489.764884) can0 00000002#2EFC0000BC002B00
(0946688489.765494) can0 00000103#0101010101010101
(0946688489.774654) can0 00000001#EFFF0000FFFF0000
(0946688489.774931) can0 00000002#2FFC0000BC002B00
(0946688489.775490) can0 00000103#0101010101010101
(0946688489.775839) can0 18FF1515#0000000100010000
(0946688489.784743) can0 00000001#EFFF0000FFFF0000
(0946688489.785018) can0 00000002#2EFC0000BC002B00
(0946688489.785498) can0 00000103#0101010101010101
(0946688489.794868) can0 00000001#EEFF0000FFFF0000
(0946688489.795124) can0 00000002#2FFC0000BC002B00
(0946688489.795508) can0 00000103#0101010101010101
(0946688489.800208) can0 19B50000#0004000000010060
(0946688489.800763) can0 19B50007#0000002700000000
(0946688489.801347) can0 19B50001#BEC4C1936B000000
(0946688489.801946) can0 19B50002#7879780000000000
(0946688489.802519) can0 19B50003#0000000000000000
(0946688489.803124) can0 19B50008#797B7A0000000000
(0946688489.804032) can0 19B50500#0000002500003A64
(0946688489.804944) can0 00000001#EFFF000000000000
(0946688489.805235) can0 00000002#2FFC0000BC002B00
(0946688489.805526) can0 00000103#0101010101010101
(0946688489.805805) can0 19B50600#FFFF007699990000
(0946688489.806376) can0 19B50009#BEC4C10000936B00
(0946688489.815030) can0 00000001#EEFF000001000000
(0946688489.815319) can0 00000002#2FFC0000BD002C00
(0946688489.815623) can0 00000103#0101010101010101
(0946688489.825136) can0 00000001#EEFF000001000000
(0946688489.825425) can0 00000002#2FFC0000BD002C00
(0946688489.825705) can0 00000103#0101010101010101
(0946688489.835284) can0 00000001#EEFF000003000000
(0946688489.835529) can0 00000002#2EFC0000BD002B00
(0946688489.835798) can0 00000103#0101010101010101
(0946688489.845327) can0 00000001#EEFF000003000000
(0946688489.845642) can0 00000002#2EFC0000BD002B00
(0946688489.845924) can0 00000103#0101010101010101
(0946688489.855420) can0 00000001#EEFF000003000000
(0946688489.855722) can0 00000002#2EFC0000BD002B00
(0946688489.856020) can0 00000103#0101010101010101
(0946688489.858723) can0 00000303#0000
(0946688489.865489) can0 00000103#0101010101010101
(0946688489.865772) can0 00000001#EEFF000003000000
(0946688489.866075) can0 00000002#2FFC0000BD002B00
(0946688489.875537) can0 00000103#0101010101010101
(0946688489.875787) can0 00000001#EEFF000002000000
(0946688489.876093) can0 00000002#2FFC0000BD002B00
(0946688489.876393) can0 18FF1515#0000000100010000
(0946688489.883714) can0 00000303#0000
(0946688489.885518) can0 00000103#0101010101010101
(0946688489.885779) can0 00000001#EEFF000002000000
(0946688489.886081) can0 00000002#2FFC0000BD002B00
(0946688489.895487) can0 00000103#0101010101010101
(0946688489.895837) can0 00000001#EFFF000002000000
(0946688489.896124) can0 00000002#2FFC0000BD002B00
(0946688489.905497) can0 00000103#0101010101010101
(0946688489.905927) can0 00000001#EFFF000001000000
(0946688489.906237) can0 00000002#2FFC0000BD002B00
(0946688489.913719) can0 00000007#D803810091A10000
(0946688489.915499) can0 00000103#0101010101010101
(0946688489.916016) can0 00000001#EFFF000000000000
(0946688489.916300) can0 00000002#2FFC0000BD002B00
(0946688489.925492) can0 00000103#0101010101010101
(0946688489.926139) can0 00000001#F0FF0000FFFF0000
(0946688489.926405) can0 00000002#2EFC0000BD002B00
(0946688489.935524) can0 00000103#0101010101010101
(0946688489.936516) can0 00000001#F0FF0000FFFF0000
(0946688489.936796) can0 00000002#2EFC0000BE002B00
(0946688489.945515) can0 00000103#0101010101010101
(0946688489.946620) can0 00000001#EFFF0000FFFF0000
(0946688489.946948) can0 00000002#2EFC0000BE002B00
(0946688489.955504) can0 00000103#0101010101010101
(0946688489.956733) can0 00000001#EFFF0000FFFF0000
(0946688489.957000) can0 00000002#2EFC0000BE002B00
(0946688489.965477) can0 00000103#0101010101010101
(0946688489.966789) can0 00000001#EFFF0000FFFF0000
(0946688489.967113) can0 00000002#2EFC0000BE002B00
(0946688489.975508) can0 00000103#0101010101010101
(0946688489.975779) can0 18FF1515#0000000100010000
(0946688489.976899) can0 00000001#EEFF0000FFFF0000
(0946688489.977201) can0 00000002#2EFC0000BE002B00
(0946688489.985484) can0 00000103#0101010101010101
(0946688489.985706) can0 00000303#0000
(0946688489.987004) can0 00000001#EEFF000000000000
(0946688489.987307) can0 00000002#2EFC0000BE002C00
(0946688489.993400) can0 19B50000#0004000000010060
(0946688489.994028) can0 19B50007#0000002700000000
(0946688489.994756) can0 19B50001#BEC4C1936B000000
(0946688489.995326) can0 19B50002#7879780000000000
(0946688489.995583) can0 00000103#0101010101010101
(0946688489.996085) can0 19B50003#0000000000000000
(0946688489.996642) can0 19B50008#797B7A0000000000
(0946688489.997121) can0 00000001#EEFF000000000000
(0946688489.997383) can0 00000002#2EFC0000BE002C00
(0946688489.997695) can0 19B50500#0000002500003A64
(0946688489.998644) can0 19B50600#FFFF007699990000
(0946688489.999222) can0 19B50009#BEC4C10000936B00
(0946688490.005483) can0 00000103#0101010101010101
(0946688490.007195) can0 00000001#EDFF000002000000
(0946688490.007505) can0 00000002#2FFC0000BE002C00
(0946688490.015497) can0 00000103#0101010101010101
(0946688490.016584) can0 00000303#0000
(0946688490.017290) can0 00000001#EDFF000001000000
(0946688490.017575) can0 00000002#2FFC0000BE002C00
(0946688490.023411) can0 00000008#D8FF
(0946688490.024118) can0 00000009#D800C2C1C1C1C1C1
(0946688490.025542) can0 00000103#0101010101010101
(0946688490.027401) can0 00000001#EDFF000001000000
(0946688490.027699) can0 00000002#2FFC0000BE002C00
(0946688490.027980) can0 00000008#D8FF
(0946688490.028452) can0 00000009#D806C1C1C1C1C1C1
(0946688490.032886) can0 00000008#D8FF
(0946688490.033315) can0 00000009#D80CC1C1C1C1
(0946688490.035518) can0 00000103#0101010101010101
(0946688490.037488) can0 00000001#EDFF000001000000
(0946688490.037774) can0 00000002#2FFC0000BE002C00
(0946688490.037970) can0 0000000C#D8FF
(0946688490.038461) can0 0000000D#D800C1C1C1C1C1C3
(0946688490.042792) can0 0000000C#D8FF
(0946688490.043310) can0 0000000D#D806C1C1C1C2C1C1
