(0946688473.192390) can0 00000103#0101010101010101
(0946688473.193643) can0 00000001#E3FF000005000000
(0946688473.193931) can0 00000002#3AFC000006000200
(0946688473.195524) can0 00000303#0000
(0946688473.202423) can0 00000103#0101010101010101
(0946688473.203713) can0 00000001#DCFF0000FFFF0000
(0946688473.204060) can0 00000002#26FC000006000200
(0946688473.205215) can0 18FF1515#0000000100010000
(0946688473.212397) can0 00000103#0101010101010101
(0946688473.213859) can0 00000001#E5FF000007000000
(0946688473.214140) can0 00000002#33FC000006000200
(0946688473.222405) can0 00000103#0101010101010101
(0946688473.223933) can0 00000001#E5FF000006000000
(0946688473.224225) can0 00000002#2BFC000006000200
(0946688473.226417) can0 00000303#0000
(0946688473.232439) can0 00000103#0101010101010101
(0946688473.234047) can0 00000001#E0FF000003000000
(0946688473.234353) can0 00000002#38FC000006000200
(0946688473.242663) can0 00000103#0101010101010101
(0946688473.243002) can0 00000007#D203810091A10000
(0946688473.244153) can0 00000001#E3FF000003000000
(0946688473.244479) can0 00000002#25FC000006000200
(0946688473.252401) can0 00000103#0101010101010101
(0946688473.254252) can0 00000001#E5FF000006000000
(0946688473.254542) can0 00000002#3AFC000006000100
(0946688473.262412) can0 00000103#0101010101010101
(0946688473.264344) can0 00000001#DFFF000000000000
(0946688473.264643) can0 00000002#25FC000006000100
(0946688473.272403) can0 00000103#0101010101010101
(0946688473.274460) can0 00000001#E6FF000008000000
(0946688473.274754) can0 00000002#35FC000006000100
(0946688473.282396) can0 00000103#0101010101010101
(0946688473.284558) can0 00000001#E7FF000005000000
(0946688473.284847) can0 00000002#2AFC000006000100
(0946688473.292397) can0 00000103#0101010101010101
(0946688473.294649) can0 00000001#E1FF000001000000
(0946688473.294972) can0 00000002#24FC000006000100
(0946688473.302425) can0 00000103#0101010101010101
(0946688473.304823) can0 00000001#DEFF0000FEFF0000
(0946688473.305099) can0 00000002#24FC000006000100
(0946688473.305432) can0 18FF1515#0000000100010000
(0946688473.312399) can0 00000103#0101010101010101
(0946688473.314135) can0 19B50000#0004000000010060
(0946688473.314757) can0 19B50007#0000002700000000
(0946688473.314998) can0 00000001#E6FF000006000000
(0946688473.315323) can0 00000002#33FC000006000100
(0946688473.315577) can0 19B50001#B4B8B58F39000000
(0946688473.315905) can0 19B50002#7678760000000000
(0946688473.316465) can0 19B50003#0000000000000000
(0946688473.317070) can0 19B50008#797B790000000000
(0946688473.318136) can0 19B50500#0000001800002164
(0946688473.319202) can0 19B50600#FFFF004999990000
(0946688473.319804) can0 19B50009#B4B8B500008F3900
(0946688473.322406) can0 00000103#0101010101010101
(0946688473.325066) can0 00000001#DDFF0000FEFF0000
(0946688473.325363) can0 00000002#2EFC000006000100
(0946688473.328327) can0 00000303#0000
(0946688473.332439) can0 00000103#0101010101010101
(0946688473.335541) can0 00000001#E4FF000005000000
(0946688473.335835) can0 00000002#29FC000006000100
(0946688473.341579) can0 0000000C#D2FF
(0946688473.342056) can0 0000000D#D200B5B6B5B6B6B7
(0946688473.342403) can0 00000103#0101010101010101
(0946688473.343517) can0 0000000C#D2FF
(0946688473.344009) can0 0000000D#D206B6B6B6B6B6B6
(0946688473.345614) can0 00000001#DFFF000001000000
(0946688473.345909) can0 00000002#37FC000006000100
(0946688473.348130) can0 0000000C#D2FF
(0946688473.348481) can0 0000000D#D20CB7B6B6B6
(0946688473.352391) can0 00000103#0101010101010101
(0946688473.353298) can0 00000303#0000
(0946688473.355734) can0 00000001#E4FF000005000000
(0946688473.355996) can0 00000002#3BFC000006000100
(0946688473.362383) can0 00000103#0101010101010101
(0946688473.365262) can0 00000010#D2FF
(0946688473.365741) can0 00000011#D200B6B6B6B6B6B6
(0946688473.366008) can0 00000001#DCFF0000FFFF0000
(0946688473.366334) can0 00000002#26FC000006000200
(0946688473.371557) can0 00000010#D2FF
(0946688473.372070) can0 00000011#D206B6B6B6B6B6B6
(0946688473.372380) can0 00000103#0101010101010101
(0946688473.375928) can0 00000001#DFFF000000000000
(0946688473.376210) can0 00000002#30FC000006000200
(0946688473.376653) can0 00000010#D2FF
(0946688473.377110) can0 00000011#D20CB6B6B6B5
(0946688473.382058) can0 00000014#D2FF
(0946688473.382405) can0 00000103#0101010101010101
(0946688473.382689) can0 00000015#D200B6B6B6B6B6B6
(0946688473.386034) can0 00000001#E2FF000004000000
(0946688473.386363) can0 00000002#2AFC000006000200
(0946688473.386924) can0 00000014#D2FF
(0946688473.387621) can0 00000015#D206B6B6B6B6B6B6
(0946688473.392143) can0 00000014#D2FF
(0946688473.392794) can0 00000015#D20CB6B6B6B5
(0946688473.396195) can0 00000103#0101010101010101
(0946688473.396405) can0 00000001#E3FF000003000000
(0946688473.396697) can0 00000002#37FC000006000200
(0946688473.396912) can0 00000018#D2FF
(0946688473.397359) can0 00000019#D200B4B5B6B6B6B6
(0946688473.402275) can0 00000018#D2FF
(0946688473.402551) can0 00000103#0101010101010101
(0946688473.402840) can0 00000019#D206B5B6B7B6B6B6
(0946688473.405212) can0 18FF1515#0000000100010000
(0946688473.406298) can0 00000001#E1FF000001000000
(0946688473.406552) can0 00000002#24FC000006000200
(0946688473.410795) can0 00000018#D2FF
(0946688473.411259) can0 00000019#D20CB5B6B6B5
(0946688473.412380) can0 00000103#0101010101010101
(0946688473.416388) can0 00000001#E5FF000005000000
(0946688473.416668) can0 00000002#38FC000006000200
(0946688473.422415) can0 00000103#0101010101010101
(0946688473.426465) can0 00000001#DBFF000000000000
(0946688473.426799) can0 00000002#27FC000006000200
(0946688473.428028) can0 0000001C#D2FF
(0946688473.428493) can0 0000001D#D200B6B6B6B6B6B6
(0946688473.432369) can0 00000103#0101010101010101
(0946688473.434572) can0 0000001C#D2FF
(0946688473.435083) can0 0000001D#D206B6B6B6B6B6B8
(0946688473.436564) can0 00000001#DFFF000000000000
(0946688473.436874) can0 00000002#31FC000006000200
(0946688473.440018) can0 0000001C#D2FF
(0946688473.440448) can0 0000001D#D20CB7B6B5B6
(0946688473.442376) can0 00000103#0101010101010101
(0946688473.446683) can0 00000001#E2FF000004000000
(0946688473.446965) can0 00000002#26FC000006000200
(0946688473.452389) can0 00000103#0101010101010101
(0946688473.456773) can0 00000001#E2FF000002000000
(0946688473.457064) can0 00000002#39FC000006000100
(0946688473.462164) can0 00000303#0000
(0946688473.462468) can0 00000103#0101010101010101
(0946688473.466898) can0 00000001#E0FF000001000000
(0946688473.467989) can0 00000002#24FC000006000200
(0946688473.472351) can0 00000103#0101010101010101
(0946688473.477000) can0 00000001#E5FF000005000000
(0946688473.477293) can0 00000002#37FC000006000200
(0946688473.482407) can0 00000103#0101010101010101
(0946688473.487171) can0 00000303#0000
(0946688473.487876) can0 00000001#E7FF000006000000
(0946688473.488163) can0 00000002#30FC000006000200
(0946688473.492395) can0 00000103#0101010101010101
(0946688473.497972) can0 00000001#DFFF0000FFFF0000
(0946688473.498266) can0 00000002#34FC000006000100
(0946688473.502360) can0 00000103#0101010101010101
(0946688473.505289) can0 18FF1515#0000000100010000
(0946688473.508084) can0 00000001#E1FF000004000000
(0946688473.508361) can0 00000002#26FC000006000200
(0946688473.511455) can0 19B50100#00
(0946688473.511968) can0 19B50100#B6B6B6B6B6B5B6B6
(0946688473.512402) can0 00000103#0101010101010101
(0946688473.518200) can0 00000001#E2FF000003000000
(0946688473.518471) can0 00000002#39FC000006000100
(0946688473.522125) can0 19B50000#0004000000010060
(0946688473.522412) can0 00000103#0101010101010101
(0946688473.522862) can0 19B50007#0000002700000000
(0946688473.523465) can0 19B50001#B4B8B58F39000000
(0946688473.524026) can0 19B50002#7678760000000000
(0946688473.524602) can0 19B50003#0000000000000000
(0946688473.525172) can0 19B50008#797B790000000000
(0946688473.526112) can0 19B50500#0000001800002164
(0946688473.527112) can0 19B50600#FFFF004999990000
(0946688473.527916) can0 19B50009#B4B8B500008F3900
(0946688473.528279) can0 00000001#E0FF000001000000
(0946688473.528562) can0 00000002#24FC000006000100
(0946688473.532406) can0 00000103#0101010101010101
(0946688473.538373) can0 00000001#E6FF000006000000
(0946688473.538663) can0 00000002#31FC000006000100
(0946688473.539886) can0 19B50101#B6B6B6B6B6B6B6B5
(0946688473.542388) can0 00000103#0101010101010101
(0946688473.548532) can0 00000001#DFFF0000FEFF0000
(0946688473.548834) can0 00000002#2FFC000006000200
(0946688473.552388) can0 00000103#0101010101010101
(0946688473.554872) can0 19B50102#B5B6B5B6B6B7B6B6
(0946688473.558646) can0 00000001#E2FF000004000000
(0946688473.558912) can0 00000002#27FC000005000200
(0946688473.562402) can0 00000103#0101010101010101
(0946688473.568781) can0 00000001#E3FF000003000000
(0946688473.569071) can0 00000002#38FC000006000200
(0946688473.570125) can0 19B50103#B6B6B6B6B7B6B6B6
(0946688473.572455) can0 00000103#0101010101010101
(0946688473.578903) can0 00000001#E5FF000007000000
(0946688473.579169) can0 00000002#35FC000005000100
(0946688473.582411) can0 00000103#0101010101010101
(0946688473.589010) can0 00000001#DCFF0000FFFF0000
(0946688473.589309) can0 00000002#29FC000006000200
(0946688473.592396) can0 00000103#0101010101010101
(0946688473.595058) can0 00000303#0000
(0946688473.596047) can0 19B50104#B6B6B6B6B6B6B6B6
(0946688473.599146) can0 00000001#E5FF000008000000
(0946688473.599403) can0 00000002#2EFC000006000100
(0946688473.602405) can0 00000103#0101010101010101
(0946688473.605201) can0 18FF1515#0000000100010000
(0946688473.609271) can0 00000001#DEFF000002000000
(0946688473.609541) can0 00000002#31FC000005000100
(0946688473.611667) can0 19B50105#B6B6B6B6B6B6B6B5
(0946688473.612384) can0 00000103#0101010101010101
(0946688473.619445) can0 00000001#E0FF000006000000
(0946688473.619740) can0 00000002#25FC000005000100
(0946688473.620069) can0 00000303#0000
(0946688473.622410) can0 00000103#0101010101010101
(0946688473.629631) can0 19B50106#B6B6B6B6B6B6B6B6
(0946688473.630364) can0 00000001#DEFF000004000000
(0946688473.630674) can0 00000002#23FC000006000100
(0946688473.632403) can0 00000103#0101010101010101
(0946688473.640449) can0 00000001#E5FF000007000000
(0946688473.640780) can0 00000002#3AFC000006000100
(0946688473.643249) can0 00000103#0101010101010101
(0946688473.644679) can0 19B50107#B6B6B6B6B6B6B6B5
(0946688473.650556) can0 00000001#DBFF000001000000
(0946688473.650834) can0 00000002#2AFC000006000100
(0946688473.652352) can0 00000103#0101010101010101
(0946688473.659234) can0 19B50108#B4B5B6B6B6B6B5B6
(0946688473.660659) can0 00000001#E6FF000005000000
(0946688473.660948) can0 00000002#33FC000005000100
(0946688473.662383) can0 00000103#0101010101010101
(0946688473.670728) can0 00000001#DFFF000000000000
(0946688473.671073) can0 00000002#32FC000006000100
(0946688473.672375) can0 00000103#0101010101010101
(0946688473.673864) can0 19B50109#B7B6B6B6B5B6B6B5
(0946688473.680800) can0 00000001#DFFF000001000000
(0946688473.681081) can0 00000002#29FC000005000100
(0946688473.682362) can0 00000103#0101010101010101
(0946688473.690900) can0 00000001#DCFF0000FDFF0000
(0946688473.691178) can0 00000002#25FC000006000100
(0946688473.692370) can0 00000103#0101010101010101
(0946688473.700406) can0 19B5010A#B6B6B6B6B6B6B6B6
(0946688473.701001) can0 00000001#E5FF000001000000
(0946688473.701272) can0 00000002#38FC000005000100
(0946688473.702353) can0 00000103#0101010101010101
(0946688473.705282) can0 18FF1515#0000000100010000
(0946688473.711064) can0 00000007#D303810091A10000
(0946688473.711332) can0 00000001#DBFF0000FBFF0000
(0946688473.711613) can0 00000002#2AFC000005000100
(0946688473.712396) can0 00000103#0101010101010101
(0946688473.717551) can0 19B50000#0004000000010060
(0946688473.718124) can0 19B50007#0000002700000000
(0946688473.718738) can0 19B50001#B4B8B58F39000000
(0946688473.719257) can0 19B50002#7678760000000000
(0946688473.719916) can0 19B50003#0000000000000000
(0946688473.720437) can0 19B50008#797B790000000000
(0946688473.721346) can0 19B50500#0000001800002164
(0946688473.722434) can0 19B50600#FFFF004999990000
(0946688473.723067) can0 00000001#E4FF000008000000
(0946688473.723332) can0 00000002#2EFC000005000100
(0946688473.723573) can0 00000103#0101010101010101
(0946688473.723866) can0 19B50009#B4B8B500008F3900
(0946688473.727941) can0 00000303#0000
(0946688473.732368) can0 00000103#0101010101010101
(0946688473.733112) can0 00000001#E1FF000005000000
(0946688473.733413) can0 00000002#27FC000005000100
(0946688473.742378) can0 00000103#0101010101010101
(0946688473.743251) can0 00000001#E4FF000008000000
(0946688473.743538) can0 00000002#3AFC000005000100
(0946688473.752362) can0 00000103#0101010101010101
(0946688473.752923) can0 00000303#0000
(0946688473.753361) can0 00000001#DCFF000002000000
(0946688473.753656) can0 00000002#26FC000005000100
(0946688473.762354) can0 00000103#0101010101010101
(0946688473.763523) can0 00000001#E5FF000008000000
(0946688473.763818) can0 00000002#36FC000005000100
(0946688473.772353) can0 00000103#0101010101010101
(0946688473.773658) can0 00000001#DEFF000001000000
(0946688473.773937) can0 00000002#2CFC000005000100
(0946688473.782416) can0 00000103#0101010101010101
(0946688473.783754) can0 00000001#DEFF000002000000
(0946688473.784079) can0 00000002#34FC000005000100
(0946688473.792384) can0 00000103#0101010101010101
(0946688473.793902) can0 00000001#E2FF000003000000
(0946688473.794211) can0 00000002#24FC000005000100
(0946688473.802398) can0 00000103#0101010101010101
(0946688473.804011) can0 00000001#E4FF000004000000
(0946688473.804323) can0 00000002#3BFC000005000100
(0946688473.805226) can0 18FF1515#0000000100010000
(0946688473.811626) can0 00000008#D3FF
(0946688473.812103) can0 00000009#D300B6B6B6B6B6B5
(0946688473.812394) can0 00000103#0101010101010101
(0946688473.813521) can0 00000008#D3FF
(0946688473.813990) can0 00000009#D306B6B6B6B6B6B6
(0946688473.814295) can0 00000001#DDFF000000000000
(0946688473.814553) can0 00000002#24FC000005000100
(0946688473.817913) can0 00000008#D3FF
(0946688473.818345) can0 00000009#D30CB6B6B6B5
(0946688473.822399) can0 00000103#0101010101010101
(0946688473.824213) can0 00000001#DCFF0000FEFF0000
(0946688473.824505) can0 00000002#2DFC000005000100
(0946688473.832381) can0 00000103#0101010101010101
(0946688473.834325) can0 00000001#E6FF000004000000
(0946688473.834681) can0 00000002#2DFC000005000100
(0946688473.835327) can0 0000000C#D3FF
(0946688473.836127) can0 0000000D#D300B5B6B5B6B6B7
(0946688473.842371) can0 00000103#0101010101010101
(0946688473.843773) can0 0000000C#D3FF
(0946688473.844226) can0 0000000D#D306B6B6B6B6B6B6
(0946688473.844531) can0 00000001#DFFF0000FFFF0000
(0946688473.845462) can0 00000002#36FC000005000100
(0946688473.849364) can0 0000000C#D3FF
(0946688473.849811) can0 0000000D#D30CB7B6B6B6
(0946688473.852395) can0 00000103#0101010101010101
(0946688473.854150) can0 00000010#D3FF
(0946688473.854558) can0 00000001#DFFF000000000100
(0946688473.854841) can0 00000002#25FC000005000100
(0946688473.860815) can0 00000303#0000
(0946688473.862360) can0 00000103#0101010101010101
(0946688473.865310) can0 00000001#DBFF0000FDFF0000
(0946688473.865559) can0 00000002#25FC000004000100
(0946688473.872394) can0 00000103#0101010101010101
(0946688473.875421) can0 00000001#E5FF000004000000
(0946688473.875729) can0 00000002#35FC000004000100
(0946688473.882382) can0 00000103#0101010101010101
(0946688473.885506) can0 00000001#DFFF0000FDFF0000
(0946688473.885801) can0 00000002#2CFC000003000100
(0946688473.886017) can0 00000303#0000
(0946688473.892360) can0 00000103#0101010101010101
(0946688473.895651) can0 00000001#E1FF000004000000
(0946688473.895925) can0 00000002#2AFC000003000100
(0946688473.902352) can0 00000103#0101010101010101
(0946688473.905196) can0 18FF1515#0000000100010000
(0946688473.905754) can0 00000001#E2FF000002000000
(0946688473.906015) can0 00000002#37FC000003000100
(0946688473.912400) can0 00000103#0101010101010101
(0946688473.913059) can0 19B50000#0004000000010060
(0946688473.913655) can0 19B50007#0000002700000000
(0946688473.914199) can0 19B50001#B4B8B58F39000000
(0946688473.914798) can0 19B50002#7678760000000000
(0946688473.915399) can0 19B50003#0000000000000000
(0946688473.915886) can0 00000001#E2FF000002000000
(0946688473.916167) can0 00000002#37FC000003000100
(0946688473.916483) can0 19B50008#797B790000000000
(0946688473.917365) can0 19B50500#0000001800002164
(0946688473.918479) can0 19B50600#FFFF004999990000
(0946688473.919049) can0 19B50009#B4B8B500008F3900
(0946688473.922396) can0 00000103#0101010101010101
(0946688473.925968) can0 00000001#DFFF000001000000
(0946688473.926285) can0 00000002#24FC000002000000
(0946688473.932372) can0 00000103#0101010101010101
(0946688473.936076) can0 00000001#DBFF0000FFFF0000
(0946688473.936370) can0 00000002#25FC000002000000
(0946688473.942366) can0 00000103#0101010101010101
(0946688473.946152) can0 00000001#E6FF000005000000
(0946688473.946447) can0 00000002#34FC000002000000
(0946688473.952365) can0 00000103#0101010101010101
(0946688473.956263) can0 00000001#DDFF0000FFFF0000
(0946688473.956559) can0 00000002#2FFC000002000000
(0946688473.962332) can0 00000103#0101010101010101
(0946688473.966400) can0 00000001#E2FF000004000000
(0946688473.966685) can0 00000002#2BFC000002000000
(0946688473.972396) can0 00000103#0101010101010101
(0946688473.976519) can0 00000001#E2FF000002000000
(0946688473.976812) can0 00000002#37FC000002000000
(0946688473.982387) can0 00000103#0101010101010101
(0946688473.986578) can0 00000001#DEFF000002000000
(0946688473.986902) can0 00000002#25FC000002000000
(0946688473.992362) can0 00000103#0101010101010101
(0946688473.994694) can0 00000303#0000
(0946688473.996687) can0 00000001#DCFF000000000000
(0946688473.996977) can0 00000002#27FC000002000000
(0946688474.002360) can0 00000103#0101010101010101
(0946688474.005196) can0 18FF1515#0000000100010000
(0946688474.006769) can0 00000001#E2FF000005000000
(0946688474.007073) can0 00000002#29FC000002000000
(0946688474.012358) can0 00000103#0101010101010101
(0946688474.016907) can0 00000001#E3FF000003000000
(0946688474.017773) can0 00000002#38FC000002000000
(0946688474.019695) can0 00000303#0000
(0946688474.022334) can0 00000103#0101010101010101
(0946688474.026988) can0 00000001#E5FF000005000000
(0946688474.027276) can0 00000002#39FC000002000000
(0946688474.032372) can0 00000103#0101010101010101
(0946688474.037068) can0 00000001#DCFF0000FFFF0000
(0946688474.037370) can0 00000002#25FC000002000000
(0946688474.042364) can0 00000103#0101010101010101
(0946688474.047188) can0 00000001#E7FF000006000000
(0946688474.047459) can0 00000002#33FC000002000000
(0946688474.052362) can0 00000103#0101010101010101
(0946688474.057562) can0 00000001#E0FF000000000000
(0946688474.057874) can0 00000002#2EFC000002000000
(0946688474.062326) can0 00000103#0101010101010101
(0946688474.067721) can0 00000001#E3FF000004000000
(0946688474.067981) can0 00000002#28FC000002000000
(0946688474.072330) can0 00000103#0101010101010101
(0946688474.077773) can0 00000001#DFFF000000000000
(0946688474.078068) can0 00000002#23FC000002000000
(0946688474.082375) can0 00000103#0101010101010101
(0946688474.087835) can0 00000001#E4FF000005000000
(0946688474.088153) can0 00000002#3AFC000002000000
(0946688474.092326) can0 00000103#0101010101010101
(0946688474.097961) can0 00000001#DCFF0000FEFF0000
(0946688474.098240) can0 00000002#26FC000002000000
(0946688474.102395) can0 00000103#0101010101010101
(0946688474.105194) can0 18FF1515#0000000100010000
(0946688474.108054) can0 00000001#E5FF000006000000
(0946688474.108349) can0 00000002#34FC000001000000
(0946688474.112359) can0 00000103#0101010101010101
(0946688474.115875) can0 19B50000#0004000000010060
(0946688474.116706) can0 19B50007#0000002700000000
(0946688474.117269) can0 19B50001#B4B8B58F39000000
(0946688474.117868) can0 19B50002#7678760000000000
(0946688474.118171) can0 00000001#DFFF0000FFFF0000
(0946688474.118451) can0 00000002#2FFC000002000000
(0946688474.118789) can0 19B50003#0000000000000000
(0946688474.119334) can0 19B50008#797B790000000000
(0946688474.120297) can0 19B50500#0000001800002164
(0946688474.121333) can0 19B50600#FFFF004999990000
(0946688474.121575) can0 00000303#0000
(0946688474.121939) can0 19B50009#B4B8B500008F3900
(0946688474.122431) can0 00000103#0101010101010101
(0946688474.128274) can0 00000001#E1FF000004000000
(0946688474.128570) can0 00000002#29FC000002000000
(0946688474.132378) can0 00000103#0101010101010101
(0946688474.138371) can0 00000001#E2FF000003000000
(0946688474.138654) can0 00000002#38FC000001000000
(0946688474.142362) can0 00000103#0101010101010101
(0946688474.148487) can0 00000001#E3FF000001000000
(0946688474.148792) can0 00000002#23FC000001000000
(0946688474.152370) can0 00000103#0101010101010101
(0946688474.158559) can0 00000001#E1FF000006000000
(0946688474.158874) can0 00000002#3AFC000001000000
(0946688474.162393) can0 00000103#0101010101010101
(0946688474.168689) can0 00000001#E6FF000008000000
(0946688474.168962) can0 00000002#36FC000001000000
(0946688474.172328) can0 00000103#0101010101010101
(0946688474.178773) can0 00000001#E4FF000005000000
(0946688474.179061) can0 00000002#2BFC000001000000
(0946688474.182382) can0 00000103#0101010101010101
(0946688474.188865) can0 00000001#DFFF000002000000
(0946688474.189160) can0 00000002#35FC000001000000
(0946688474.192380) can0 00000103#0101010101010101
(0946688474.198957) can0 00000001#E1FF000001000000
(0946688474.199249) can0 00000002#24FC000001000000
(0946688474.202363) can0 00000103#0101010101010101
(0946688474.205188) can0 18FF1515#0000000100010000
(0946688474.209110) can0 00000001#E2FF000006000000
(0946688474.209358) can0 00000002#3AFC000001000000
(0946688474.212393) can0 00000103#0101010101010101
(0946688474.219152) can0 00000001#DCFF0000FEFF0000
(0946688474.219476) can0 00000002#25FC000001000000
(0946688474.222385) can0 00000103#0101010101010101
(0946688474.229255) can0 00000001#E6FF000006000000
(0946688474.230208) can0 00000002#37FC000001000000
(0946688474.232344) can0 00000103#0101010101010101
(0946688474.239431) can0 00000001#E3FF000005000000
(0946688474.239709) can0 00000002#2CFC000001000000
(0946688474.242380) can0 00000103#0101010101010101
(0946688474.249445) can0 00000001#DDFF0000FEFF0000
(0946688474.249754) can0 00000002#30FC000001000000
(0946688474.252361) can0 00000103#0101010101010101
(0946688474.254496) can0 00000303#0000
(0946688474.259539) can0 00000001#E6FF000004000000
(0946688474.259825) can0 00000002#28FC000001000000
(0946688474.262356) can0 00000103#0101010101010101
(0946688474.269632) can0 00000001#E0FF000002000000
(0946688474.269939) can0 00000002#39FC000001000000
(0946688474.272348) can0 00000103#0101010101010101
(0946688474.280171) can0 00000001#E0FF000001000000
(0946688474.280455) can0 00000002#21FC000000000000
(0946688474.282330) can0 00000103#0101010101010101
(0946688474.285436) can0 00000303#0000
(0946688474.290271) can0 00000001#E4FF000005000000
(0946688474.290552) can0 00000002#3DFC000001000000
(0946688474.292379) can0 00000103#0101010101010101
(0946688474.300362) can0 00000001#E7FF000006000000
(0946688474.300640) can0 00000002#37FC000000000000
(0946688474.302360) can0 00000103#0101010101010101
(0946688474.305192) can0 18FF1515#0000000100010000
(0946688474.310486) can0 00000001#DBFF0000FEFF0000
(0946688474.310753) can0 00000002#30FC000000000000
(0946688474.312393) can0 00000103#0101010101010101
(0946688474.316435) can0 19B50000#0004000000010060
(0946688474.317010) can0 19B50007#0000002700000000
(0946688474.317556) can0 19B50001#B4B8B58F39000000
(0946688474.318148) can0 19B50002#7678760000000000
(0946688474.318780) can0 19B50003#0000000000000000
(0946688474.319332) can0 19B50008#797B790000000000
(0946688474.320190) can0 19B50500#0000001800002164
(0946688474.320578) can0 00000001#E6FF000004000000
(0946688474.320912) can0 00000002#29FC000000000000
(0946688474.321667) can0 19B50600#FFFF004999990000
(0946688474.322235) can0 19B50009#B4B8B500008F3900
(0946688474.322516) can0 00000103#0101010101010101
(0946688474.330686) can0 00000001#DEFF000001000000
(0946688474.330957) can0 00000002#3AFC000000000000
(0946688474.332324) can0 00000103#0101010101010101
(0946688474.340786) can0 00000001#E1FF000001000000
(0946688474.341067) can0 00000002#21FC000000000000
(0946688474.341345) can0 00000007#D403810091A10000
(0946688474.342336) can0 00000103#0101010101010101
(0946688474.350833) can0 00000001#E3FF000005000000
(0946688474.351131) can0 00000002#3DFC000000000000
(0946688474.352364) can0 00000103#0101010101010101
(0946688474.361032) can0 00000001#DDFF0000FEFF0000
(0946688474.361287) can0 00000002#2BFC000000000000
(0946688474.362469) can0 00000103#0101010101010101
(0946688474.371090) can0 00000001#DEFF000001000000
(0946688474.371393) can0 00000002#35FC00000000FFFF
(0946688474.372416) can0 00000103#0101010101010101
(0946688474.381198) can0 00000001#E3FF000002000000
(0946688474.381513) can0 00000002#24FC000000000000
(0946688474.382359) can0 00000103#0101010101010101
(0946688474.387314) can0 00000303#0000
(0946688474.391266) can0 00000001#E1FF000004000000
(0946688474.391564) can0 00000002#3BFC00000000FFFF
(0946688474.392372) can0 00000103#0101010101010101
(0946688474.401373) can0 00000001#E1FF000000000000
(0946688474.401680) can0 00000002#21FC00000000FFFF
(0946688474.402367) can0 00000103#0101010101010101
(0946688474.405197) can0 18FF1515#0000000100010000
(0946688474.411486) can0 00000001#E2FF000006000000
(0946688474.411759) can0 00000002#3BFC00000000FFFF
(0946688474.412392) can0 00000103#0101010101010101
(0946688474.412548) can0 00000303#0000
(0946688474.421553) can0 00000001#DCFF0000FEFF0000
(0946688474.421874) can0 00000002#27FC00000000FFFF
(0946688474.422379) can0 00000103#0101010101010101
(0946688474.431640) can0 00000001#E2FF0000FEFF0000
(0946688474.431944) can0 00000002#20FC00000000FFFF
(0946688474.432350) can0 00000103#0101010101010101
(0946688474.441783) can0 00000001#E5FF000006000000
(0946688474.442371) can0 00000103#0101010101010101
(0946688474.442674) can0 00000002#37FC00000000FFFF
(0946688474.451897) can0 00000001#E9FF000004000000
(0946688474.452173) can0 00000002#2EFC00000000FFFF
(0946688474.452379) can0 00000010#D4FF
(0946688474.452634) can0 00000103#0101010101010101
(0946688474.452913) can0 00000011#D400B6B6B6B6B6B6
(0946688474.457771) can0 00000010#D4FF
(0946688474.458232) can0 00000011#D406B6B6B6B6B6B6
(0946688474.461971) can0 00000001#DDFF000002000000
(0946688474.462230) can0 00000002#35FC00000000FFFF
(0946688474.462511) can0 00000103#0101010101010101
(0946688474.466679) can0 00000010#D4FF
(0946688474.467112) can0 00000011#D40CB6B6B6B5
(0946688474.472358) can0 00000103#0101010101010101
(0946688474.472652) can0 00000001#E5FF000001000000
(0946688474.472966) can0 00000002#24FC00000000FFFF
(0946688474.482351) can0 00000103#0101010101010101
(0946688474.482551) can0 00000014#D4FF
(0946688474.482866) can0 00000001#E0FF000006000000
(0946688474.483142) can0 00000002#3BFC00000000FFFF
(0946688474.492377) can0 00000103#0101010101010101
(0946688474.492812) can0 00000001#E1FF0000FDFF0000
(0946688474.493130) can0 00000002#23FC00000000FFFF
(0946688474.502366) can0 00000103#0101010101010101
(0946688474.502916) can0 00000001#DCFF0000FDFF0000
(0946688474.503257) can0 00000002#2BFC00000000FFFF
(0946688474.505206) can0 18FF1515#0000000100010000
(0946688474.512369) can0 00000103#0101010101010101
(0946688474.513013) can0 00000001#E6FF000007000000
(0946688474.513297) can0 00000002#2FFC00000000FFFF
(0946688474.513899) can0 19B50000#0004000000010060
(0946688474.514535) can0 19B50007#0000002700000000
(0946688474.515201) can0 19B50001#B4B8B58F39000000
(0946688474.515974) can0 19B50002#7678760000000000
(0946688474.516628) can0 19B50003#0000000000000000
(0946688474.517319) can0 19B50008#797B790000000000
(0946688474.518287) can0 19B50500#0000001800002164
(0946688474.519188) can0 00000303#0000
(0946688474.519553) can0 19B50600#FFFF004999990000
(0946688474.520180) can0 19B50009#B4B8B500008F3900
(0946688474.522395) can0 00000103#0101010101010101
(0946688474.523136) can0 00000001#DDFF0000FFFF0000
(0946688474.523401) can0 00000002#35FC00000000FFFF
(0946688474.532356) can0 00000103#0101010101010101
(0946688474.533218) can0 00000001#E4FF000000000000
(0946688474.533525) can0 00000002#20FC00000000FFFF
(0946688474.542346) can0 00000103#0101010101010101
(0946688474.543321) can0 00000001#DFFF000005000000
(0946688474.543598) can0 00000002#3EFC00000000FFFF
(0946688474.544183) can0 00000303#0000
(0946688474.552369) can0 00000103#0101010101010101
(0946688474.553459) can0 00000001#DFFF000005000000
(0946688474.553728) can0 00000002#3EFC00000000FFFF
(0946688474.562357) can0 00000103#0101010101010101
(0946688474.563530) can0 00000001#E4FF000006000000
(0946688474.563798) can0 00000002#36FC00000000FFFF
(0946688474.572349) can0 00000103#0101010101010101
(0946688474.573598) can0 00000001#DCFF0000FFFF0000
(0946688474.573912) can0 00000002#2EFC00000000FFFF
(0946688474.582347) can0 00000103#0101010101010101
(0946688474.583731) can0 00000001#E6FF000004000000
(0946688474.583995) can0 00000002#2AFC00000000FFFF
(0946688474.592349) can0 00000103#0101010101010101
(0946688474.593813) can0 00000001#DBFF000002000000
(0946688474.594111) can0 00000002#38FC00000000FFFF
(0946688474.602354) can0 00000103#0101010101010101
(0946688474.603916) can0 00000001#DEFF000005000000
(0946688474.604197) can0 00000002#3DFC00000000FFFF
(0946688474.605202) can0 18FF1515#0000000100010000
(0946688474.612364) can0 00000103#0101010101010101
(0946688474.614026) can0 00000001#E0FF000005000000
(0946688474.614318) can0 00000002#3DFC00000000FFFF
(0946688474.622355) can0 00000103#0101010101010101
(0946688474.624138) can0 00000001#E4FF0000FEFF0000
(0946688474.624424) can0 00000002#22FC00000000FFFF
(0946688474.632336) can0 00000103#0101010101010101
(0946688474.634228) can0 00000001#E2FF000007000000
(0946688474.634526) can0 00000002#3CFC0000FFFFFFFF
(0946688474.642346) can0 00000103#0101010101010101
(0946688474.645160) can0 00000001#E0FF0000FDFF0000
(0946688474.645425) can0 00000002#26FC0000FFFFFFFF
(0946688474.652347) can0 00000103#0101010101010101
(0946688474.653035) can0 00000303#0000
(0946688474.655201) can0 00000001#DDFF0000FDFF0000
(0946688474.655502) can0 00000002#2DFC0000FFFFFFFF
(0946688474.662337) can0 00000103#0101010101010101
(0946688474.665318) can0 00000001#E6FF000003000000
(0946688474.665584) can0 00000002#2DFC0000FFFFFFFF
(0946688474.672334) can0 00000103#0101010101010101
(0946688474.675484) can0 00000001#DCFF000002000000
(0946688474.675767) can0 00000002#36FC0000FFFFFFFF
(0946688474.678055) can0 00000303#0000
(0946688474.682347) can0 00000103#0101010101010101
(0946688474.685646) can0 00000001#E8FF0000FFFF0000
(0946688474.685949) can0 00000002#24FC0000FFFFFFFF
(0946688474.692400) can0 00000103#0101010101010101
(0946688474.695694) can0 00000001#DDFF000005000000
(0946688474.695990) can0 00000002#3AFC0000FFFFFFFF
(0946688474.702371) can0 00000103#0101010101010101
(0946688474.705207) can0 18FF1515#0000000100010000
(0946688474.705784) can0 00000001#E1FF0000FBFF0000
(0946688474.706125) can0 00000002#23FC0000FFFFFFFF
(0946688474.712368) can0 00000103#0101010101010101
(0946688474.712670) can0 19B50000#0004000000010060
(0946688474.713374) can0 19B50007#0000002700000000
(0946688474.713930) can0 19B50001#B4B8B58F39000000
(0946688474.714544) can0 19B50002#7678760000000000
(0946688474.715110) can0 19B50003#0000000000000000
(0946688474.715853) can0 19B50008#797B790000000000
(0946688474.716152) can0 00000001#E3FF000007000000
(0946688474.716468) can0 00000002#38FC0000FFFFFFFF
(0946688474.717104) can0 19B50500#0000001800002164
(0946688474.718163) can0 19B50600#FFFF004999990000
(0946688474.718757) can0 19B50009#B4B8B500008F3900
(0946688474.722393) can0 00000103#0101010101010101
(0946688474.726014) can0 00000001#E6FF000007000000
(0946688474.726311) can0 00000002#32FC0000FFFFFFFF
(0946688474.732400) can0 00000103#0101010101010101
(0946688474.736089) can0 00000001#D8FF0000FDFF0000
(0946688474.736393) can0 00000002#32FC0000FFFFFFFF
(0946688474.742399) can0 00000103#0101010101010101
(0946688474.746173) can0 00000001#E9FF000003000000
(0946688474.746473) can0 00000002#25FC0000FFFFFFFF
(0946688474.752370) can0 00000103#0101010101010101
(0946688474.756281) can0 00000001#DAFF000002000000
(0946688474.756545) can0 00000002#3AFC0000FFFFFFFF
(0946688474.762359) can0 00000103#0101010101010101
(0946688474.766429) can0 00000001#E5FF0000FFFF0000
(0946688474.766679) can0 00000002#21FC0000FFFFFFFF
(0946688474.772352) can0 00000103#0101010101010101
(0946688474.776491) can0 00000001#E0FF000007000000
(0946688474.776760) can0 00000002#3EFC0000FFFFFFFF
(0946688474.780966) can0 00000303#0000
(0946688474.782356) can0 00000103#0101010101010101
(0946688474.786542) can0 00000001#E4FF0000FFFF0000
(0946688474.786865) can0 00000002#22FC0000FFFFFFFF
(0946688474.792352) can0 00000103#0101010101010101
(0946688474.796655) can0 00000001#E4FF000008000000
(0946688474.796947) can0 00000002#3CFC0000FFFFFFFF
(0946688474.802354) can0 00000103#0101010101010101
(0946688474.805206) can0 18FF1515#0000000100010000
(0946688474.806742) can0 00000001#DDFF0000FCFF0000
(0946688474.807041) can0 00000002#24FC0000FFFFFFFF
(0946688474.811925) can0 00000303#0000
(0946688474.812370) can0 00000103#0101010101010101
(0946688474.816857) can0 00000001#DCFF0000FDFF0000
(0946688474.817150) can0 00000002#2DFC0000FFFFFFFF
(0946688474.822388) can0 00000103#0101010101010101
(0946688474.827718) can0 00000001#E7FF000005000000
(0946688474.828009) can0 00000002#2BFC0000FFFFFFFF
(0946688474.832401) can0 00000103#0101010101010101
(0946688474.837848) can0 00000001#DBFF000000000000
(0946688474.838188) can0 00000002#35FC0000FFFFFFFF
(0946688474.842354) can0 00000103#0101010101010101
(0946688474.847943) can0 00000001#E5FF000002000000
(0946688474.848264) can0 00000002#25FC0000FFFFFFFF
(0946688474.852379) can0 00000103#0101010101010101
(0946688474.858049) can0 00000001#E2FF0000FEFF0000
(0946688474.858355) can0 00000002#23FC0000FFFFFFFF
(0946688474.862368) can0 00000103#0101010101010101
(0946688474.868141) can0 00000001#DEFF000007000000
(0946688474.868446) can0 00000002#37FC0000FFFFFFFF
(0946688474.872372) can0 00000103#0101010101010101
(0946688474.878207) can0 00000001#E3FF0000FCFF0000
(0946688474.878502) can0 00000002#28FC0000FFFFFFFF
(0946688474.882394) can0 00000103#0101010101010101
(0946688474.888332) can0 00000001#E2FF000008000000
(0946688474.888613) can0 00000002#32FC0000FFFFFFFF
(0946688474.892400) can0 00000103#0101010101010101
(0946688474.898415) can0 00000001#DBFF0000FDFF0000
(0946688474.898733) can0 00000002#2FFC0000FFFFFFFF
(0946688474.902421) can0 00000103#0101010101010101
(0946688474.905221) can0 18FF1515#0000000100010000
(0946688474.907810) can0 00000303#0000
(0946688474.908527) can0 00000001#E8FF000007000000
(0946688474.908850) can0 00000002#2BFC0000FFFFFFFF
(0946688474.912400) can0 00000103#0101010101010101
(0946688474.913345) can0 19B50000#0004000000010060
(0946688474.913913) can0 19B50007#0000002700000000
(0946688474.914524) can0 19B50001#B4B8B58F39000000
(0946688474.915257) can0 19B50002#7678760000000000
(0946688474.915875) can0 19B50003#0000000000000000
(0946688474.916480) can0 19B50008#797B790000000000
(0946688474.917368) can0 19B50500#0000001800002164
(0946688474.918466) can0 19B50600#FFFF004999990000
(0946688474.918742) can0 00000001#D8FF0000FFFF0000
(0946688474.919038) can0 00000002#36FC0000FFFFFFFF
(0946688474.919366) can0 19B50009#B4B8B500008F3900
(0946688474.922379) can0 00000103#0101010101010101
(0946688474.928765) can0 00000001#DBFF000004000000
(0946688474.929081) can0 00000002#3DFC0000FFFFFFFF
(0946688474.932396) can0 00000103#0101010101010101
(0946688474.938866) can0 00000001#E5FF000000000000
(0946688474.939148) can0 00000002#21FC0000FFFFFFFF
(0946688474.939434) can0 00000007#D503810091A10000
(0946688474.942402) can0 00000103#0101010101010101
(0946688474.948947) can0 00000001#DFFF000007000000
(0946688474.949250) can0 00000002#3EFC0000FFFFFFFF
(0946688474.952392) can0 00000103#0101010101010101
(0946688474.959027) can0 00000001#E0FF0000FEFF0000
(0946688474.959344) can0 00000002#23FC0000FFFFFFFF
(0946688474.962345) can0 00000103#0101010101010101
(0946688474.969174) can0 00000001#E7FF000001000000
(0946688474.969449) can0 00000002#25FC0000FFFFFFFF
(0946688474.972365) can0 00000103#0101010101010101
(0946688474.979231) can0 00000001#DAFF000007000000
(0946688474.979522) can0 00000002#39FC0000FFFFFFFF
(0946688474.982357) can0 00000103#0101010101010101
(0946688474.989309) can0 00000001#E4FF0000FDFF0000
(0946688474.989603) can0 00000002#26FC0000FFFFFFFF
(0946688474.992354) can0 00000103#0101010101010101
(0946688475.000122) can0 00000001#E2FF00000A000000
(0946688475.000391) can0 00000002#37FC0000FFFFFFFF
(0946688475.002357) can0 00000103#0101010101010101
(0946688475.005183) can0 18FF1515#0000000100010000
(0946688475.010201) can0 00000001#DEFF0000FCFF0000
(0946688475.010500) can0 00000002#2AFC0000FFFFFFFF
(0946688475.012380) can0 00000103#0101010101010101
(0946688475.020286) can0 00000001#DCFF0000FCFF0000
(0946688475.020571) can0 00000002#2FFC0000FFFFFFFF
(0946688475.022358) can0 00000103#0101010101010101
(0946688475.030398) can0 00000001#E9FF000007000000
(0946688475.030689) can0 00000002#2DFC0000FFFFFFFF
(0946688475.032361) can0 00000103#0101010101010101
(0946688475.035665) can0 00000303#0000
(0946688475.038845) can0 00000014#D5FF
(0946688475.039288) can0 00000015#D500B6B6B6B6B6B6
(0946688475.040458) can0 00000001#D8FF000000000000
(0946688475.040788) can0 00000002#34FC0000FFFFFFFF
(0946688475.042223) can0 00000014#D5FF
(0946688475.042478) can0 00000103#0101010101010101
(0946688475.042790) can0 00000015#D506B6B6B6B6B6B6
(0946688475.047748) can0 00000014#D5FF
(0946688475.048221) can0 00000015#D50CB6B6B6B5
(0946688475.050555) can0 00000001#EBFF000003000000
(0946688475.050873) can0 00000002#27FC0000FFFFFFFF
(0946688475.052173) can0 00000018#D5FF
(0946688475.052454) can0 00000103#0101010101010101
(0946688475.052737) can0 00000019#D500B4B5B6B6B6B6
(0946688475.057791) can0 00000018#D5FF
(0946688475.058264) can0 00000019#D506B5B6B7B6B6B6
(0946688475.060654) can0 00000001#DAFF000004000000
(0946688475.060949) can0 00000002#39FC0000FFFFFFFF
(0946688475.062246) can0 00000018#D5FF
(0946688475.062500) can0 00000103#0101010101010101
(0946688475.062767) can0 00000019#D50CB5B6B6B5
(0946688475.066670) can0 00000303#0000
(0946688475.070765) can0 00000001#DEFF000007000000
(0946688475.071078) can0 00000002#39FC0000FFFFFFFF
(0946688475.072404) can0 00000103#0101010101010101
(0946688475.080891) can0 00000001#E2FF0000FCFF0000
(0946688475.081200) can0 00000002#26FC0000FFFFFFFF
(0946688475.082395) can0 00000103#0101010101010101
(0946688475.090970) can0 00000001#E3FF000008000000
(0946688475.091266) can0 00000002#36FC0000FFFFFFFF
(0946688475.092357) can0 00000103#0101010101010101
(0946688475.101048) can0 00000001#DDFF0000FCFF0000
(0946688475.101346) can0 00000002#29FC0000FEFFFFFF
(0946688475.102399) can0 00000103#0101010101010101
(0946688475.105179) can0 18FF1515#0000000100010000
(0946688475.111153) can0 00000001#D9FF0000FDFF0000
(0946688475.111469) can0 00000002#30FC0000FFFFFFFF
(0946688475.112375) can0 00000103#0101010101010101
(0946688475.112735) can0 19B50000#0004000000010060
(0946688475.113300) can0 19B50007#0000002700000000
(0946688475.113901) can0 19B50001#B4B8B58F39000000
(0946688475.114476) can0 19B50002#7678760000000000
(0946688475.115245) can0 19B50003#0000000000000000
(0946688475.115874) can0 19B50008#797B790000000000
(0946688475.116731) can0 19B50500#0000001800002164
(0946688475.117819) can0 19B50600#FFFF004999990000
(0946688475.118419) can0 19B50009#B4B8B500008F3900
(0946688475.121277) can0 00000001#E8FF000005000000
(0946688475.121545) can0 00000002#29FC0000FEFFFFFF
(0946688475.122342) can0 00000103#0101010101010101
(0946688475.131396) can0 00000001#DAFF000000000000
(0946688475.131685) can0 00000002#36FC0000FEFFFFFF
(0946688475.132351) can0 00000103#0101010101010101
(0946688475.141447) can0 00000001#E0FF000008000000
(0946688475.141744) can0 00000002#39FC0000FEFFFFFF
(0946688475.142387) can0 00000103#0101010101010101
(0946688475.151519) can0 00000001#E4FF0000FCFF0000
(0946688475.151811) can0 00000002#25FC0000FEFFFFFF
(0946688475.152395) can0 00000103#0101010101010101
(0946688475.161614) can0 00000001#E3FF000009000000
(0946688475.161908) can0 00000002#36FC0000FEFFFFFF
(0946688475.162374) can0 00000103#0101010101010101
(0946688475.163550) can0 00000303#0000
(0946688475.171699) can0 00000001#E0FF0000FBFF0000
(0946688475.172018) can0 00000002#28FC0000FEFFFFFF
(0946688475.172375) can0 00000103#0101010101010101
(0946688475.181791) can0 00000001#DBFF0000FCFF0000
(0946688475.182100) can0 00000002#2DFC0000FEFFFFFF
(0946688475.182372) can0 00000103#0101010101010101
(0946688475.191881) can0 00000001#E8FF000007000000
(0946688475.192180) can0 00000002#2EFC0000FEFFFFFF
(0946688475.192454) can0 00000103#0101010101010101
(0946688475.194530) can0 00000303#0000
(0946688475.202391) can0 00000103#0101010101010101
(0946688475.202688) can0 00000001#DAFF0000FDFF0000
(0946688475.202967) can0 00000002#32FC0000FEFFFFFF
(0946688475.205180) can0 18FF1515#0000000100010000
(0946688475.212379) can0 00000103#0101010101010101
(0946688475.212776) can0 00000001#E7FF000003000000
(0946688475.213080) can0 00000002#2BFC0000FEFFFFFF
(0946688475.222372) can0 00000103#0101010101010101
(0946688475.222893) can0 00000001#D7FF000000000000
(0946688475.223219) can0 00000002#34FC0000FEFFFFFF
(0946688475.232361) can0 00000103#0101010101010101
(0946688475.232980) can0 00000001#D6FF000004000000
(0946688475.233283) can0 00000002#37FC0000FEFFFFFF
(0946688475.242356) can0 00000103#0101010101010101
(0946688475.243074) can0 00000001#E5FF0000FBFF0000
(0946688475.243366) can0 00000002#26FC0000FEFFFFFF
(0946688475.252476) can0 00000103#0101010101010101
(0946688475.253192) can0 00000001#E1FF0000FAFF0000
(0946688475.253483) can0 00000002#27FC0000FEFFFFFF
(0946688475.262425) can0 00000103#0101010101010101
(0946688475.263336) can0 00000001#DCFF0000FAFF0000
(0946688475.263599) can0 00000002#29FC0000FEFFFFFF
(0946688475.272451) can0 00000103#0101010101010101
(0946688475.273409) can0 00000001#E7FF00000A000000
(0946688475.273693) can0 00000002#33FC0000FEFFFFFF
(0946688475.282369) can0 00000103#0101010101010101
(0946688475.283494) can0 00000001#DAFF0000FBFF0000
(0946688475.283787) can0 00000002#2DFC0000FEFFFFFF
(0946688475.292356) can0 00000103#0101010101010101
(0946688475.293576) can0 00000001#ECFF000008000000
(0946688475.293882) can0 00000002#2FFC0000FEFFFFFF
(0946688475.296445) can0 00000303#0000
(0946688475.302362) can0 00000103#0101010101010101
(0946688475.303731) can0 00000001#DAFF0000FEFF0000
(0946688475.303995) can0 00000002#31FC0000FEFFFFFF
(0946688475.305192) can0 18FF1515#0000000100010000
(0946688475.312392) can0 00000103#0101010101010101
(0946688475.313781) can0 00000001#E9FF000006000000
(0946688475.314112) can0 00000002#2CFC0000FEFFFFFF
(0946688475.315763) can0 19B50000#0004000000010060
(0946688475.316342) can0 19B50007#0000002700000000
(0946688475.316904) can0 19B50001#B4B8B58F39000000
(0946688475.317532) can0 19B50002#7678760000000000
(0946688475.318148) can0 19B50003#0000000000000000
(0946688475.318678) can0 19B50008#797B790000000000
(0946688475.319564) can0 19B50500#0000001800002164
(0946688475.320675) can0 19B50600#FFFF004999990000
(0946688475.321246) can0 19B50009#B4B8B500008F3900
(0946688475.321417) can0 00000303#0000
(0946688475.322380) can0 00000103#0101010101010101
(0946688475.323899) can0 00000001#DDFF000004000000
(0946688475.324207) can0 00000002#33FC0000FEFFFEFF
(0946688475.332375) can0 00000103#0101010101010101
(0946688475.333959) can0 00000001#E4FF0000FDFF0000
(0946688475.334277) can0 00000002#27FC0000FEFFFFFF
(0946688475.342357) can0 00000103#0101010101010101
(0946688475.344090) can0 00000001#E2FF000007000000
(0946688475.344368) can0 00000002#37FC0000FEFFFEFF
(0946688475.352355) can0 00000103#0101010101010101
(0946688475.354166) can0 00000001#E0FF0000FAFF0000
(0946688475.354459) can0 00000002#26FC0000FEFFFFFF
(0946688475.362391) can0 00000103#0101010101010101
(0946688475.364319) can0 00000001#E3FF00000B000000
(0946688475.365136) can0 00000002#32FC0000FEFFFEFF
(0946688475.372372) can0 00000103#0101010101010101
(0946688475.375103) can0 00000001#E6FF00000B000000
(0946688475.375381) can0 00000002#2DFC0000FEFFFEFF
(0946688475.382341) can0 00000103#0101010101010101
(0946688475.385187) can0 00000001#DBFF0000F9FF0000
(0946688475.385482) can0 00000002#31FC0000FEFFFEFF
(0946688475.392352) can0 00000103#0101010101010101
(0946688475.395303) can0 00000001#E7FF00000A000000
(0946688475.395617) can0 00000002#2BFC0000FEFFFEFF
(0946688475.402388) can0 00000103#0101010101010101
(0946688475.405179) can0 18FF1515#0000000100010000
(0946688475.405472) can0 00000001#DAFF0000FCFF0000
(0946688475.405773) can0 00000002#33FC0000FEFFFFFF
(0946688475.412362) can0 00000103#0101010101010101
(0946688475.415508) can0 00000001#EBFF000006000000
(0946688475.415786) can0 00000002#28FC0000FEFFFEFF
(0946688475.422371) can0 00000103#0101010101010101
(0946688475.423289) can0 00000303#0000
(0946688475.425604) can0 00000001#E7FF000000000000
(0946688475.425934) can0 00000002#26FC0000FEFFFEFF
(0946688475.432403) can0 00000103#0101010101010101
(0946688475.435711) can0 00000001#DDFF000005000000
(0946688475.435997) can0 00000002#3AFC0000FEFFFEFF
(0946688475.442357) can0 00000103#0101010101010101
(0946688475.445917) can0 00000001#E5FF0000FCFF0000
(0946688475.446208) can0 00000002#23FC0000FEFFFFFF
(0946688475.452354) can0 00000103#0101010101010101
(0946688475.454265) can0 00000303#0000
(0946688475.456003) can0 00000001#DFFF000009000000
(0946688475.456298) can0 00000002#3BFC0000FEFFFFFF
(0946688475.462358) can0 00000103#0101010101010101
(0946688475.466082) can0 00000001#E2FF00000A000000
(0946688475.466380) can0 00000002#39FC0000FDFFFEFF
(0946688475.472344) can0 00000103#0101010101010101
(0946688475.476196) can0 00000001#DEFF0000F8FF0000
(0946688475.476508) can0 00000002#26FC0000FEFFFFFF
(0946688475.482362) can0 00000103#0101010101010101
(0946688475.486271) can0 00000001#E5FF00000B000000
(0946688475.486549) can0 00000002#35FC0000FDFFFEFF
(0946688475.492353) can0 00000103#0101010101010101
(0946688475.496360) can0 00000001#E7FF00000B000000
(0946688475.496646) can0 00000002#31FC0000FEFFFEFF
(0946688475.502356) can0 00000103#0101010101010101
(0946688475.505178) can0 18FF1515#0000000100010000
(0946688475.506476) can0 00000001#DBFF0000FBFF0000
(0946688475.506782) can0 00000002#2CFC0000FDFFFEFF
(0946688475.512362) can0 00000103#0101010101010101
(0946688475.513628) can0 19B50000#0004000000010060
(0946688475.514418) can0 19B50007#0000002700000000
(0946688475.514986) can0 19B50001#B4B8B58F39000000
(0946688475.515543) can0 19B50002#7678760000000000
(0946688475.516137) can0 19B50003#0000000000000000
(0946688475.516605) can0 00000001#EBFF000007000000
(0946688475.516876) can0 00000002#31FC0000FDFFFEFF
(0946688475.517178) can0 19B50008#797B790000000000
(0946688475.518021) can0 19B50500#0000001800002164
(0946688475.519121) can0 19B50600#FFFF004999990000
(0946688475.519689) can0 19B50009#B4B8B500008F3900
(0946688475.522355) can0 00000103#0101010101010101
(0946688475.526680) can0 00000001#D8FF0000FEFF0000
(0946688475.526977) can0 00000002#2EFC0000FDFFFEFF
(0946688475.532363) can0 00000103#0101010101010101
(0946688475.536753) can0 00000001#DEFF000004000000
(0946688475.537059) can0 00000002#34FC0000FDFFFEFF
(0946688475.538692) can0 00000007#D603810091A10000
(0946688475.542358) can0 00000103#0101010101010101
(0946688475.546840) can0 00000001#E6FF0000FDFF0000
(0946688475.547150) can0 00000002#28FC0000FDFFFEFF
(0946688475.550192) can0 00000303#0000
(0946688475.552333) can0 00000103#0101010101010101
(0946688475.556934) can0 00000001#DDFF000008000000
(0946688475.557270) can0 00000002#36FC0000FDFFFEFF
(0946688475.562325) can0 00000103#0101010101010101
(0946688475.567732) can0 00000001#E3FF0000FAFF0000
(0946688475.568027) can0 00000002#29FC0000FDFFFEFF
(0946688475.572338) can0 00000103#0101010101010101
(0946688475.577851) can0 00000001#E1FF0000F9FF0000
(0946688475.578115) can0 00000002#28FC0000FDFFFEFF
(0946688475.581130) can0 00000303#0000
(0946688475.582372) can0 00000103#0101010101010101
(0946688475.587932) can0 00000001#E4FF00000D000000
(0946688475.588225) can0 00000002#36FC0000FDFFFEFF
(0946688475.592361) can0 00000103#0101010101010101
(0946688475.598018) can0 00000001#DDFF0000F6FF0000
(0946688475.598352) can0 00000002#2DFC0000FDFFFEFF
(0946688475.602326) can0 00000103#0101010101010101
(0946688475.605175) can0 18FF1515#0000000100010000
(0946688475.608136) can0 00000001#E5FF00000D000000
(0946688475.608427) can0 00000002#30FC0000FDFFFEFF
(0946688475.612352) can0 00000103#0101010101010101
(0946688475.618251) can0 00000001#DCFF0000F7FF0000
(0946688475.618519) can0 00000002#2FFC0000FDFFFEFF
(0946688475.622374) can0 00000103#0101010101010101
(0946688475.628330) can0 00000001#E7FF00000B000000
(0946688475.628650) can0 00000002#2DFC0000FDFFFEFF
(0946688475.632365) can0 00000103#0101010101010101
(0946688475.638405) can0 00000001#D9FF0000FAFF0000
(0946688475.638685) can0 00000002#31FC0000FDFFFEFF
(0946688475.642357) can0 00000103#0101010101010101
(0946688475.647676) can0 00000018#D6FF
(0946688475.648104) can0 00000019#D600B4B5B6B6B6B6
(0946688475.648494) can0 00000001#D6FF0000FDFF0000
(0946688475.648788) can0 00000002#33FC0000FDFFFEFF
(0946688475.651917) can0 00000018#D6FF
(0946688475.652333) can0 00000103#0101010101010101
(0946688475.652629) can0 00000019#D606B5B6B7B6B6B6
(0946688475.657480) can0 00000018#D6FF
(0946688475.657923) can0 00000019#D60CB5B6B6B5
(0946688475.658577) can0 00000001#EAFF000003000000
(0946688475.658908) can0 00000002#26FC0000FDFFFEFF
(0946688475.662001) can0 0000001C#D6FF
(0946688475.662324) can0 00000103#0101010101010101
(0946688475.662619) can0 0000001D#D600B6B6B6B6B6B6
(0946688475.667552) can0 0000001C#D6FF
(0946688475.668038) can0 0000001D#D606B6B6B6B6B6B8
(0946688475.668687) can0 00000001#D9FF000003000000
(0946688475.668987) can0 00000002#3AFC0000FDFFFEFF
(0946688475.672123) can0 0000001C#D6FF
(0946688475.672392) can0 00000103#0101010101010101
(0946688475.672634) can0 0000001D#D60CB7B6B6B6
(0946688475.678806) can0 00000001#E9FF000008000000
(0946688475.679095) can0 00000002#2BFC0000FDFFFEFF
(0946688475.682338) can0 00000103#0101010101010101
(0946688475.684025) can0 00000303#0000
(0946688475.688900) can0 00000001#EBFF000002000000
(0946688475.689186) can0 00000002#25FC0000FCFFFEFF
(0946688475.692362) can0 00000103#0101010101010101
(0946688475.698956) can0 00000001#DAFF000002000000
(0946688475.699270) can0 00000002#3AFC0000FCFFFEFF
(0946688475.702350) can0 00000103#0101010101010101
(0946688475.705173) can0 18FF1515#0000000100010000
(0946688475.709095) can0 00000001#E8FF0000FFFF0000
(0946688475.709371) can0 00000002#22FC0000FCFFFEFF
(0946688475.709936) can0 19B50000#0004000000010060
(0946688475.710529) can0 19B50007#0000002700000000
(0946688475.711070) can0 19B50001#B4B8B58F3A000000
(0946688475.711699) can0 19B50002#7678760000000000
(0946688475.712307) can0 19B50003#0000000000000000
(0946688475.712542) can0 00000103#0101010101010101
(0946688475.712871) can0 19B50008#797B790000000000
(0946688475.713958) can0 19B50500#0000001800002164
(0946688475.714947) can0 19B50600#FFFF004899990000
(0946688475.715578) can0 19B50009#B4B8B500008F3A00
(0946688475.719170) can0 00000001#DDFF000005000000
(0946688475.719468) can0 00000002#3CFC0000FCFFFEFF
(0946688475.722392) can0 00000103#0101010101010101
(0946688475.729254) can0 00000001#E4FF0000FCFF0000
(0946688475.729536) can0 00000002#20FC0000FCFFFEFF
(0946688475.732371) can0 00000103#0101010101010101
(0946688475.737329) can0 19B5010B#B6B6B6B8B7B6B5B6
(0946688475.739417) can0 00000001#DFFF000008000000
(0946688475.739682) can0 00000002#3DFC0000FCFFFEFF
(0946688475.742346) can0 00000103#0101010101010101
(0946688475.749450) can0 00000001#DFFF000008000000
(0946688475.749763) can0 00000002#3DFC0000FCFFFEFF
(0946688475.752348) can0 00000103#0101010101010101
(0946688475.759563) can0 00000001#E1FF0000F9FF0000
(0946688475.759873) can0 00000002#21FC0000FCFFFEFF
(0946688475.762403) can0 00000103#0101010101010101
(0946688475.770422) can0 00000001#E3FF00000A000000
(0946688475.770732) can0 00000002#3AFC0000FCFFFEFF
(0946688475.772437) can0 00000103#0101010101010101
(0946688475.780541) can0 00000001#E7FF000001000000
(0946688475.780831) can0 00000002#26FC0000FCFFFEFF
(0946688475.782411) can0 00000103#0101010101010101
(0946688475.790623) can0 00000001#DAFF000006000000
(0946688475.790924) can0 00000002#3AFC0000FCFFFEFF
(0946688475.792368) can0 00000103#0101010101010101
(0946688475.800740) can0 00000001#E8FF0000FFFF0000
(0946688475.801050) can0 00000002#22FC0000FCFFFEFF
(0946688475.802397) can0 00000103#0101010101010101
(0946688475.805202) can0 18FF1515#0000000100010000
(0946688475.810807) can0 00000001#DFFF000008000000
(0946688475.811111) can0 00000002#3EFC0000FCFFFEFF
(0946688475.812362) can0 00000103#0101010101010101
(0946688475.820901) can0 00000001#E1FF0000FCFF0000
(0946688475.821181) can0 00000002#1FFC0000FCFFFEFF
(0946688475.822396) can0 00000103#0101010101010101
(0946688475.830985) can0 00000001#E4FF00000B000000
(0946688475.831298) can0 00000002#3FFC0000FCFFFEFF
(0946688475.832372) can0 00000103#0101010101010101
(0946688475.841103) can0 00000001#DEFF0000F9FF0100
(0946688475.841432) can0 00000002#20FC0000FCFFFEFF
(0946688475.841931) can0 00000303#0000
(0946688475.842364) can0 00000103#0101010101010101
(0946688475.851197) can0 00000001#DEFF0000FAFF0000
(0946688475.851470) can0 00000002#21FC0000FCFFFEFF
(0946688475.852397) can0 00000103#0101010101010101
(0946688475.861303) can0 00000001#E8FF00000B000000
(0946688475.861562) can0 00000002#3BFC0000FCFFFEFF
(0946688475.862359) can0 00000103#0101010101010101
(0946688475.871407) can0 00000001#D9FF0000FAFF0000
(0946688475.871733) can0 00000002#26FC0000FCFFFEFF
(0946688475.872393) can0 00000103#0101010101010101
(0946688475.881456) can0 00000001#E8FF00000A000000
(0946688475.881781) can0 00000002#34FC0000FCFFFEFF
(0946688475.882373) can0 00000103#0101010101010101
(0946688475.891546) can0 00000001#DAFF0000FBFF0000
(0946688475.891853) can0 00000002#2CFC0000FCFFFEFF
(0946688475.892361) can0 00000103#0101010101010101
(0946688475.901649) can0 00000001#E9FF000007000000
(0946688475.901929) can0 00000002#2EFC0000FCFFFEFF
(0946688475.902402) can0 00000103#0101010101010101
(0946688475.905189) can0 18FF1515#0000000100010000
(0946688475.911754) can0 00000001#E8FF000004000000
(0946688475.912045) can0 00000002#29FC0000FCFFFEFF
(0946688475.912355) can0 00000103#0101010101010101
(0946688475.918657) can0 19B50000#0004000000010060
(0946688475.919209) can0 19B50007#0000002700000000
(0946688475.919791) can0 19B50001#B4B8B58F3A000000
(0946688475.920384) can0 19B50002#7678760000000000
(0946688475.921044) can0 19B50003#0000000000000000
(0946688475.921604) can0 19B50008#797B790000000000
(0946688475.921907) can0 00000001#DBFF000002000000
(0946688475.922403) can0 00000103#0101010101010101
(0946688475.922696) can0 19B50500#0000001800002164
(0946688475.922958) can0 00000002#39FC0000FCFFFEFF
(0946688475.924231) can0 19B50600#FFFF004899990000
(0946688475.924824) can0 19B50009#B4B8B500008F3A00
(0946688475.929169) can0 00000007#D703840094A40000
(0946688475.932378) can0 00000103#0101010101010101
(0946688475.932794) can0 00000001#E4FF0000FFFF0000
(0946688475.933114) can0 00000002#21FC0000FCFFFEFF
(0946688475.941801) can0 00000303#0000
(0946688475.942371) can0 00000103#0101010101010101
(0946688475.942888) can0 00000001#E0FF000007000000
(0946688475.943191) can0 00000002#3CFC0000FCFFFEFF
(0946688475.952355) can0 00000103#0101010101010101
(0946688475.952986) can0 00000001#DCFF0000FBFF0000
(0946688475.953268) can0 00000002#27FC0000FCFFFEFF
(0946688475.962360) can0 00000103#0101010101010101
(0946688475.963072) can0 00000001#E9FF00000A000000
(0946688475.963362) can0 00000002#35FC0000FCFFFEFF
(0946688475.966791) can0 00000303#0000
(0946688475.972364) can0 00000103#0101010101010101
(0946688475.973170) can0 00000001#D9FF0000FCFF0000
(0946688475.973468) can0 00000002#2BFC0000FBFFFEFF
(0946688475.982375) can0 00000103#0101010101010101
(0946688475.983256) can0 00000001#D7FF0000FEFF0000
(0946688475.983533) can0 00000002#30FC0000FBFFFEFF
(0946688475.992370) can0 00000103#0101010101010101
(0946688475.993365) can0 00000001#E9FF000005000000
(0946688475.993646) can0 00000002#2AFC0000FBFFFEFF
(0946688476.002364) can0 00000103#0101010101010101
(0946688476.003444) can0 00000001#DBFF000001000000
(0946688476.003767) can0 00000002#36FC0000FBFFFEFF
(0946688476.005200) can0 18FF1515#0000000100010000
(0946688476.012360) can0 00000103#0101010101010101
(0946688476.013536) can0 00000001#E6FF000001000000
(0946688476.013834) can0 00000002#24FC0000FBFFFEFF
(0946688476.022355) can0 00000103#0101010101010101
(0946688476.023686) can0 00000001#DDFF000005000000
(0946688476.024009) can0 00000002#3DFC0000FBFFFEFF
(0946688476.027473) can0 00000008#D7FF
(0946688476.027954) can0 00000009#D700767676767676
(0946688476.032344) can0 00000103#0101010101010101
(0946688476.033732) can0 00000001#E3FF000001000000
(0946688476.033995) can0 00000002#20FC0000FBFFFDFF
(0946688476.042342) can0 00000103#0101010101010101
(0946688476.043372) can0 00000008#D7FF
(0946688476.043780) can0 00000001#DFFF000005000000
(0946688476.044140) can0 00000002#3DFC0000FBFFFEFF
(0946688476.052362) can0 00000103#0101010101010101
(0946688476.053892) can0 00000001#E0FF00000A000000
(0946688476.054185) can0 00000002#3BFC0000FBFFFDFF
(0946688476.062333) can0 00000103#0101010101010101
(0946688476.063982) can0 00000001#DFFF0000FCFF0000
(0946688476.064279) can0 00000002#24FC0000FBFFFDFF
(0946688476.068672) can0 00000303#0000
(0946688476.072334) can0 00000103#0101010101010101
(0946688476.074092) can0 00000001#E6FF00000A000000
(0946688476.074387) can0 00000002#38FC0000FBFFFDFF
(0946688476.082358) can0 00000103#0101010101010101
(0946688476.084168) can0 00000001#DAFF0000FBFF0000
(0946688476.084449) can0 00000002#29FC0000FBFFFDFF
(0946688476.092340) can0 00000103#0101010101010101
(0946688476.094281) can0 00000001#E8FF00000A000000
(0946688476.095061) can0 00000002#30FC0000FBFFFDFF
(0946688476.099667) can0 00000303#0000
(0946688476.102361) can0 00000103#0101010101010101
(0946688476.105192) can0 18FF1515#0000000100010000
(0946688476.105452) can0 00000001#E9FF000008000000
(0946688476.105759) can0 00000002#2AFC0000FBFFFDFF
(0946688476.109245) can0 19B50000#0004000000010060
(0946688476.109895) can0 19B50007#0000002700000000
(0946688476.110494) can0 19B50001#B4B8B58F3A000000
(0946688476.111069) can0 19B50002#7678760000000000
(0946688476.111666) can0 19B50003#0000000000000000
(0946688476.112224) can0 19B50008#797B790000000000
(0946688476.112494) can0 00000103#0101010101010101
(0946688476.113457) can0 19B50500#0000001800002164
(0946688476.114556) can0 19B50600#FFFF004899990000
(0946688476.115131) can0 19B50009#B4B8B500008F3A00
(0946688476.115404) can0 00000001#DAFF0000FEFF0000
(0946688476.115685) can0 00000002#37FC0000FBFFFDFF
(0946688476.122349) can0 00000103#0101010101010101
(0946688476.125433) can0 00000001#E7FF000004000000
(0946688476.125728) can0 00000002#25FC0000FBFFFDFF
(0946688476.132332) can0 00000103#0101010101010101
(0946688476.135526) can0 00000001#E1FF000009000000
(0946688476.135827) can0 00000002#3EFC0000FBFFFDFF
(0946688476.142342) can0 00000103#0101010101010101
(0946688476.145630) can0 00000001#E2FF0000FAFF0000
(0946688476.145914) can0 00000002#1FFC0000FBFFFDFF
(0946688476.152361) can0 00000103#0101010101010101
(0946688476.155714) can0 00000001#E5FF00000C000000
(0946688476.155994) can0 00000002#3BFC0000FBFFFDFF
(0946688476.162353) can0 00000103#0101010101010101
(0946688476.165795) can0 00000001#DBFF0000FAFF0000
(0946688476.166092) can0 00000002#25FC0000FBFFFDFF
(0946688476.172327) can0 00000103#0101010101010101
(0946688476.175905) can0 00000001#D8FF0000FBFF0000
(0946688476.176219) can0 00000002#2DFC0000FBFFFDFF
(0946688476.182326) can0 00000103#0101010101010101
(0946688476.185989) can0 00000001#EAFF000009000000
(0946688476.186286) can0 00000002#2AFC0000FBFFFDFF
(0946688476.192342) can0 00000103#0101010101010101
(0946688476.196067) can0 00000001#DBFF0000FDFF0000
(0946688476.196350) can0 00000002#37FC0000FBFFFDFF
(0946688476.201546) can0 00000303#0000
(0946688476.202361) can0 00000103#0101010101010101
(0946688476.205165) can0 18FF1515#0000000100010000
(0946688476.206199) can0 00000001#DAFF0000FCFF0000
(0946688476.206459) can0 00000002#31FC0000FBFFFDFF
(0946688476.212354) can0 00000103#0101010101010101
(0946688476.216287) can0 00000001#EAFF000005000000
(0946688476.216565) can0 00000002#2AFC0000FAFFFDFF
(0946688476.222388) can0 00000103#0101010101010101
(0946688476.226358) can0 00000001#DAFF0000FFFF0000
(0946688476.226648) can0 00000002#36FC0000FAFFFDFF
(0946688476.232334) can0 00000103#0101010101010101
(0946688476.236455) can0 00000001#E6FF000002000000
(0946688476.236772) can0 00000002#22FC0000FAFFFDFF
(0946688476.242371) can0 00000103#0101010101010101
(0946688476.246551) can0 00000001#DFFF000003000000
(0946688476.246852) can0 00000002#3DFC0000FAFFFDFF
(0946688476.252367) can0 00000103#0101010101010101
(0946688476.256650) can0 00000001#E0FF000006000000
(0946688476.256932) can0 00000002#3DFC0000FAFFFDFF
(0946688476.262353) can0 00000103#0101010101010101
(0946688476.266744) can0 00000001#E0FF0000FBFF0000
(0946688476.267077) can0 00000002#21FC0000FAFFFDFF
(0946688476.272353) can0 00000103#0101010101010101
(0946688476.277571) can0 00000001#E4FF00000A000000
(0946688476.277874) can0 00000002#3BFC0000FAFFFDFF
(0946688476.282332) can0 00000103#0101010101010101
(0946688476.287682) can0 00000001#DDFF0000F9FF0000
(0946688476.287959) can0 00000002#24FC0000FAFFFDFF
(0946688476.292342) can0 00000103#0101010101010101
(0946688476.297779) can0 00000001#DAFF0000FAFF0000
(0946688476.298053) can0 00000002#2BFC0000FAFFFDFF
(0946688476.302364) can0 00000103#0101010101010101
(0946688476.305167) can0 18FF1515#0000000100010000
(0946688476.307883) can0 00000001#DAFF000000000000
(0946688476.308146) can0 00000002#3AFC0000FAFFFDFF
(0946688476.309334) can0 19B50000#0004000000010060
(0946688476.310036) can0 19B50007#0000002700000000
(0946688476.310496) can0 19B50001#B4B8B58F3A000000
(0946688476.311082) can0 19B50002#7678760000000000
(0946688476.311673) can0 19B50003#0000000000000000
(0946688476.312248) can0 19B50008#797B790000000000
(0946688476.312551) can0 00000103#0101010101010101
(0946688476.313493) can0 19B50500#0000001800002164
(0946688476.314532) can0 19B50600#FFFF004899990000
(0946688476.315139) can0 19B50009#B4B8B500008F3A00
(0946688476.317953) can0 00000001#E8FF000005000000
(0946688476.318262) can0 00000002#20FC0000FAFFFDFF
(0946688476.322333) can0 00000103#0101010101010101
(0946688476.328034) can0 00000001#DBFF000004000000
(0946688476.328329) can0 00000002#3FFC0000FAFFFDFF
(0946688476.329438) can0 00000303#0000
(0946688476.332333) can0 00000103#0101010101010101
(0946688476.338123) can0 00000001#E2FF000009000000
(0946688476.338419) can0 00000002#41FC0000FAFFFDFF
(0946688476.342340) can0 00000103#0101010101010101
(0946688476.348209) can0 00000001#DFFF0000FCFF0000
(0946688476.348512) can0 00000002#21FC0000FAFFFDFF
(0946688476.352368) can0 00000103#0101010101010101
(0946688476.358315) can0 00000001#DFFF0000FCFF0000
(0946688476.358581) can0 00000002#21FC0000FAFFFDFF
(0946688476.360422) can0 00000303#0000
(0946688476.362361) can0 00000103#0101010101010101
(0946688476.368404) can0 00000001#E4FF00000B000000
(0946688476.368718) can0 00000002#3BFC0000FAFFFDFF
(0946688476.372347) can0 00000103#0101010101010101
(0946688476.378518) can0 00000001#E5FF00000B000000
(0946688476.378780) can0 00000002#35FC0000FAFFFDFF
(0946688476.382342) can0 00000103#0101010101010101
(0946688476.388572) can0 00000001#DBFF0000FBFF0000
(0946688476.388897) can0 00000002#24FC0000FAFFFDFF
(0946688476.392340) can0 00000103#0101010101010101
(0946688476.398674) can0 00000001#EAFF00000A000000
(0946688476.398975) can0 00000002#35FC0000FAFFFDFF
(0946688476.402369) can0 00000103#0101010101010101
(0946688476.405206) can0 18FF1515#0000000100010000
(0946688476.408796) can0 00000001#EAFF000009000000
(0946688476.409078) can0 00000002#2BFC0000F9FFFDFF
(0946688476.412341) can0 00000103#0101010101010101
(0946688476.418872) can0 00000001#DAFF0000FEFF0000
(0946688476.419197) can0 00000002#37FC0000FAFFFDFF
(0946688476.422336) can0 00000103#0101010101010101
(0946688476.428956) can0 00000001#E8FF000006000000
(0946688476.429260) can0 00000002#23FC0000F9FFFDFF
(0946688476.432349) can0 00000103#0101010101010101
(0946688476.439054) can0 00000001#DCFF000002000000
(0946688476.439350) can0 00000002#3DFC0000F9FFFDFF
(0946688476.442348) can0 00000103#0101010101010101
(0946688476.449163) can0 00000001#E7FF000001000000
(0946688476.449450) can0 00000002#21FC0000F9FFFDFF
(0946688476.452344) can0 00000103#0101010101010101
(0946688476.456331) can0 00000303#0000
(0946688476.459277) can0 00000001#DDFF000006000000
(0946688476.460118) can0 00000002#3EFC0000F9FFFDFF
(0946688476.462431) can0 00000103#0101010101010101
(0946688476.470033) can0 00000001#E5FF00000A000000
(0946688476.470354) can0 00000002#3EFC0000F9FFFCFF
(0946688476.472350) can0 00000103#0101010101010101
(0946688476.480131) can0 00000001#DEFF0000FAFF0000
(0946688476.480433) can0 00000002#23FC0000F9FFFDFF
(0946688476.482331) can0 00000103#0101010101010101
(0946688476.487306) can0 00000303#0000
(0946688476.490199) can0 00000001#E9FF00000B000000
(0946688476.490508) can0 00000002#31FC0000F9FFFCFF
(0946688476.492329) can0 00000103#0101010101010101
(0946688476.500341) can0 00000001#D9FF0000FAFF0000
(0946688476.500586) can0 00000002#2EFC0000F9FFFDFF
(0946688476.502342) can0 00000103#0101010101010101
(0946688476.505163) can0 18FF1515#0000000100010000
(0946688476.509112) can0 00000007#D803840094A40000
(0946688476.510444) can0 00000001#EAFF000009000000
(0946688476.510754) can0 00000002#2DFC0000F9FFFDFF
(0946688476.512365) can0 00000103#0101010101010101
(0946688476.518948) can0 19B50000#0004000000010060
(0946688476.519544) can0 19B50007#0000002700000000
(0946688476.520097) can0 19B50001#B4B8B58F3A000000
(0946688476.520523) can0 00000001#D7FF0000FBFF0000
(0946688476.520819) can0 00000002#36FC0000F9FFFDFF
(0946688476.521116) can0 19B50002#7678760000000000
(0946688476.521671) can0 19B50003#0000000000000000
(0946688476.522228) can0 19B50008#797B790000000000
(0946688476.522527) can0 00000103#0101010101010101
(0946688476.523493) can0 19B50500#0000001800002164
(0946688476.524493) can0 19B50600#FFFF004899990000
(0946688476.525159) can0 19B50009#B4B8B500008F3A00
(0946688476.530613) can0 00000001#EAFF000005000000
(0946688476.530911) can0 00000002#23FC0000F9FFFDFF
(0946688476.532347) can0 00000103#0101010101010101
(0946688476.540693) can0 00000001#DBFF000000000000
(0946688476.540988) can0 00000002#3EFC0000F9FFFDFF
(0946688476.542332) can0 00000103#0101010101010101
(0946688476.550786) can0 00000001#DEFF000004000000
(0946688476.551090) can0 00000002#43FC0000F9FFFCFF
(0946688476.552340) can0 00000103#0101010101010101
(0946688476.560902) can0 00000001#DEFF000004000000
(0946688476.561196) can0 00000002#43FC0000F9FFFDFF
(0946688476.562364) can0 00000103#0101010101010101
(0946688476.570944) can0 00000001#DEFF0000F9FF0000
(0946688476.571267) can0 00000002#20FC0000F9FFFCFF
(0946688476.572355) can0 00000103#0101010101010101
(0946688476.581076) can0 00000001#E7FF00000A000000
(0946688476.581354) can0 00000002#3BFC0000F9FFFCFF
(0946688476.582351) can0 00000103#0101010101010101
(0946688476.591167) can0 00000001#D9FF0000F7FF0000
(0946688476.591483) can0 00000002#26FC0000F9FFFCFF
(0946688476.592322) can0 00000103#0101010101010101
(0946688476.601246) can0 00000001#E9FF00000B000000
(0946688476.601538) can0 00000002#2FFC0000F9FFFCFF
(0946688476.602341) can0 00000103#0101010101010101
(0946688476.605161) can0 18FF1515#0000000100010000
(0946688476.606833) can0 00000008#D8FF
(0946688476.607330) can0 00000009#D800767676767676
(0946688476.609986) can0 00000008#D8FF
(0946688476.610474) can0 00000009#D806767676767676
(0946688476.611411) can0 00000001#D8FF0000FBFF0000
(0946688476.611683) can0 00000002#30FC0000F9FFFCFF
(0946688476.612155) can0 00000303#0000
(0946688476.612420) can0 00000103#0101010101010101
(0946688476.615371) can0 00000008#D8FF
(0946688476.615860) can0 00000009#D80C76767676
(0946688476.620197) can0 0000000C#D8FF
(0946688476.620757) can0 0000000D#D800777777777777
(0946688476.621447) can0 00000001#EAFF00000A000000
(0946688476.621728) can0 00000002#27FC0000F9FFFCFF
(0946688476.622358) can0 00000103#0101010101010101
(0946688476.625408) can0 0000000C#D8FF
(0946688476.625888) can0 0000000D#D806777777777777
(0946688476.631519) can0 00000001#E6FF000006000000
(0946688476.631823) can0 00000002#21FC0000F9FFFCFF
(0946688476.632348) can0 00000103#0101010101010101
(0946688476.641601) can0 00000001#DEFF000000000000
(0946688476.641885) can0 00000002#3EFC0000F9FFFCFF
(0946688476.642086) can0 0000000C#D8FF
(0946688476.642361) can0 00000103#0101010101010101
(0946688476.642615) can0 0000000D#D80C77777777
(0946688476.648659) can0 00000010#D8FF
(0946688476.649157) can0 00000011#D800777777777777
(0946688476.651704) can0 00000001#E5FF000001000000
(0946688476.652026) can0 00000002#1DFC0000F9FFFCFF
(0946688476.652332) can0 00000103#0101010101010101
(0946688476.653037) can0 00000010#D8FF
(0946688476.653521) can0 00000011#D806777777777777
(0946688476.658606) can0 00000010#D8FF
(0946688476.659072) can0 00000011#D80C77777777
(0946688476.661807) can0 00000001#DFFF000007000000
(0946688476.662369) can0 00000103#0101010101010101
(0946688476.662646) can0 00000002#3FFC0000F8FFFCFF
(0946688476.662836) can0 00000014#D8FF
(0946688476.663328) can0 00000015#D800787878787878
(0946688476.670721) can0 00000014#D8FF
(0946688476.671196) can0 00000015#D806787878787878
(0946688476.671881) can0 00000001#DCFF0000F8FF0000
(0946688476.672163) can0 00000002#23FC0000F9FFFCFF
(0946688476.672486) can0 00000103#0101010101010101
(0946688476.676035) can0 00000014#D8FF
(0946688476.676499) can0 00000015#D80C78787878
(0946688476.680824) can0 00000018#D8FF
(0946688476.681317) can0 00000019#D800767676767676
(0946688476.682346) can0 00000103#0101010101010101
(0946688476.682646) can0 00000001#E8FF00000D000000
(0946688476.682958) can0 00000002#3AFC0000F8FFFCFF
(0946688476.686132) can0 00000018#D8FF
(0946688476.686618) can0 00000019#D806767676767676
(0946688476.692354) can0 00000103#0101010101010101
(0946688476.692709) can0 00000001#E9FF00000C000000
(0946688476.693013) can0 00000002#32FC0000F8FFFCFF
(0946688476.702345) can0 00000103#0101010101010101
(0946688476.702807) can0 00000001#D8FF0000FAFF0000
(0946688476.703083) can0 00000002#34FC0000F8FFFCFF
(0946688476.703614) can0 00000018#D8FF
(0946688476.704036) can0 00000019#D80C76767676
(0946688476.705158) can0 18FF1515#0000000100010000
(0946688476.709084) can0 00000303#0000
(0946688476.709818) can0 19B50000#0004000000010060
(0946688476.710394) can0 19B50007#0000002700000000
(0946688476.710974) can0 19B50001#B4B8B58F3A000000
(0946688476.711614) can0 19B50002#7678760000000000
(0946688476.712323) can0 19B50003#0000000000000000
(0946688476.712641) can0 00000103#0101010101010101
(0946688476.712898) can0 19B50008#797B790000000000
(0946688476.713217) can0 00000001#EAFF000008000000
(0946688476.713459) can0 00000002#27FC0000F8FFFCFF
(0946688476.713810) can0 19B50500#0000001800002164
(0946688476.714894) can0 19B50600#FFFF004899990000
(0946688476.715469) can0 19B50009#B4B8B500008F3A00
(0946688476.721801) can0 0000001C#D8FF
(0946688476.722329) can0 0000001D#D800777777777777
(0946688476.722545) can0 00000103#0101010101010101
(0946688476.723091) can0 00000001#DBFF0000FEFF0000
(0946688476.723318) can0 00000002#39FC0000F8FFFCFF
(0946688476.728414) can0 0000001C#D8FF
(0946688476.728899) can0 0000001D#D806777777777777
(0946688476.732347) can0 00000103#0101010101010101
(0946688476.733083) can0 00000001#E7FF000004000000
(0946688476.733396) can0 00000002#22FC0000F8FFFCFF
(0946688476.733564) can0 0000001C#D8FF
(0946688476.734020) can0 0000001D#D80C77777777
(0946688476.740034) can0 00000303#0000
(0946688476.742348) can0 00000103#0101010101010101
(0946688476.743180) can0 00000001#E1FF000004000000
(0946688476.743498) can0 00000002#40FC0000F8FFFCFF
(0946688476.752342) can0 00000103#0101010101010101
(0946688476.753286) can0 00000001#E1FF0000FFFF0000
(0946688476.753558) can0 00000002#1FFC0000F8FFFCFF
(0946688476.762368) can0 00000103#0101010101010101
(0946688476.763460) can0 00000001#E0FF000008000000
(0946688476.763739) can0 00000002#3DFC0000F8FFFCFF
(0946688476.772357) can0 00000103#0101010101010101
(0946688476.773448) can0 00000001#E0FF0000FCFF0000
(0946688476.773761) can0 00000002#23FC0000F8FFFCFF
(0946688476.782347) can0 00000103#0101010101010101
(0946688476.783548) can0 00000001#DAFF0000FCFF0000
(0946688476.783873) can0 00000002#26FC0000F8FFFCFF
(0946688476.792333) can0 00000103#0101010101010101
(0946688476.793684) can0 00000001#E5FF000009000000
(0946688476.793958) can0 00000002#35FC0000F8FFFCFF
(0946688476.802343) can0 00000103#0101010101010101
(0946688476.802546) can0 19B50200#00
(0946688476.803056) can0 19B50200#7676767676767676
(0946688476.803785) can0 00000001#DAFF0000FDFF0000
(0946688476.804092) can0 00000002#2BFC0000F8FFFCFF
(0946688476.805178) can0 18FF1515#0000000100010000
(0946688476.812371) can0 00000103#0101010101010101
(0946688476.813859) can0 00000001#E5FF000008000000
(0946688476.814167) can0 00000002#2EFC0000F8FFFCFF
(0946688476.817944) can0 19B50201#7676767676767676
(0946688476.822361) can0 00000103#0101010101010101
(0946688476.823968) can0 00000001#DAFF000000000000
(0946688476.824238) can0 00000002#31FC0000F8FFFCFF
(0946688476.832353) can0 00000103#0101010101010101
(0946688476.832623) can0 19B50202#7777777777777777
(0946688476.834009) can0 00000001#E8FF000002000000
(0946688476.834303) can0 00000002#27FC0000F8FFFCFF
(0946688476.839882) can0 00000303#0000
(0946688476.842344) can0 00000103#0101010101010101
(0946688476.844132) can0 00000001#E5FF0000FEFF0000
(0946688476.844412) can0 00000002#1EFC0000F8FFFCFF
(0946688476.852347) can0 00000103#0101010101010101
(0946688476.854214) can0 00000001#DFFF0000FCFF0000
(0946688476.854533) can0 00000002#1EFC0000F8FFFCFF
(0946688476.859081) can0 19B50203#7777777777777777
(0946688476.862348) can0 00000103#0101010101010101
(0946688476.864321) can0 00000001#E0FF0000FAFF0000
(0946688476.864580) can0 00000002#20FC0000F8FFFCFF
(0946688476.864899) can0 00000303#0000
(0946688476.872372) can0 00000103#0101010101010101
(0946688476.874401) can0 00000001#E5FF000009000000
(0946688476.874720) can0 00000002#3BFC0000F8FFFCFF
(0946688476.875538) can0 19B50204#7777777777777777
(0946688476.882353) can0 00000103#0101010101010101
(0946688476.884483) can0 00000001#DDFF0000F9FF0000
(0946688476.884783) can0 00000002#26FC0000F8FFFCFF
(0946688476.892329) can0 00000103#0101010101010101
(0946688476.893053) can0 19B50205#7777777777777777
(0946688476.895125) can0 00000001#EBFF00000A000000
(0946688476.895404) can0 00000002#33FC0000F8FFFCFF
(0946688476.902322) can0 00000103#0101010101010101
(0946688476.905173) can0 18FF1515#0000000100010000
(0946688476.905452) can0 00000001#DAFF0000FBFF0000
(0946688476.905734) can0 00000002#30FC0000F7FFFCFF
(0946688476.908400) can0 19B50206#7878787878787878
(0946688476.912372) can0 00000103#0101010101010101
(0946688476.915375) can0 00000001#EAFF000006000000
(0946688476.915682) can0 00000002#28FC0000F7FFFCFF
(0946688476.918771) can0 19B50000#0004000000010060
(0946688476.919330) can0 19B50007#0000002700000000
(0946688476.919923) can0 19B50001#B4B8B58F3A000000
(0946688476.920554) can0 19B50002#7678760000000000
(0946688476.921181) can0 19B50003#0000000000000000
(0946688476.921716) can0 19B50008#797B790000000000
(0946688476.922364) can0 00000103#0101010101010101
(0946688476.922927) can0 19B50500#0000001800002164
(0946688476.923989) can0 19B50600#FFFF004899990000
(0946688476.924533) can0 19B50009#B4B8B500008F3A00
(0946688476.925426) can0 00000001#E2FF000006000000
(0946688476.925764) can0 00000002#39FC0000F7FFFBFF
(0946688476.932353) can0 00000103#0101010101010101
(0946688476.935320) can0 19B50207#7878787878787878
(0946688476.935570) can0 00000001#DFFF0000FFFF0000
(0946688476.935880) can0 00000002#26FC0000F7FFFCFF
(0946688476.942351) can0 00000103#0101010101010101
(0946688476.945607) can0 00000001#E1FF000007000000
(0946688476.945886) can0 00000002#38FC0000F7FFFBFF
(0946688476.952350) can0 00000103#0101010101010101
(0946688476.955727) can0 00000001#DDFF0000FEFF0000
(0946688476.955997) can0 00000002#27FC0000F7FFFCFF
(0946688476.962341) can0 00000103#0101010101010101
(0946688476.963385) can0 19B50208#7676767676767676
(0946688476.965808) can0 00000001#E9FF000006000000
(0946688476.966099) can0 00000002#36FC0000F7FFFBFF
(0946688476.972363) can0 00000103#0101010101010101
(0946688476.972795) can0 00000303#0000
(0946688476.975892) can0 00000001#D9FF0000FCFF0000
(0946688476.976183) can0 00000002#2CFC0000F7FFFCFF
(0946688476.978907) can0 19B50209#7676767676767676
(0946688476.982353) can0 00000103#0101010101010101
(0946688476.985974) can0 00000001#D9FF0000FEFF0000
(0946688476.986274) can0 00000002#2EFC0000F7FFFCFF
(0946688476.992329) can0 00000103#0101010101010101
(0946688476.994138) can0 19B5020A#7777777777777777
(0946688476.996060) can0 00000001#E8FF000002000000
(0946688476.996353) can0 00000002#28FC0000F7FFFCFF
(0946688476.997756) can0 00000303#0000
(0946688477.002326) can0 00000103#0101010101010101
(0946688477.005171) can0 18FF1515#0000000100010000
(0946688477.006170) can0 00000001#DAFF000001000000
(0946688477.006460) can0 00000002#33FC0000F7FFFCFF
(0946688477.006783) can0 00000007#D903840094A40000
(0946688477.012395) can0 00000103#0101010101010101
(0946688477.016285) can0 00000001#E3FF000000000000
(0946688477.016555) can0 00000002#26FC0000F7FFFCFF
(0946688477.022364) can0 00000103#0101010101010101
(0946688477.026375) can0 00000001#E3FF000007000000
(0946688477.026648) can0 00000002#39FC0000F7FFFCFF
(0946688477.032335) can0 00000103#0101010101010101
(0946688477.036462) can0 00000001#DEFF0000FCFF0000
(0946688477.036790) can0 00000002#24FC0000F7FFFCFF
(0946688477.042347) can0 00000103#0101010101010101
(0946688477.046553) can0 00000001#E6FF000009000000
(0946688477.046828) can0 00000002#39FC0000F7FFFCFF
(0946688477.052400) can0 00000103#0101010101010101
(0946688477.056645) can0 00000001#DCFF0000FCFF0000
(0946688477.056927) can0 00000002#28FC0000F7FFFCFF
(0946688477.062379) can0 00000103#0101010101010101
(0946688477.066703) can0 00000001#DAFF0000FEFF0000
(0946688477.067042) can0 00000002#2EFC0000F7FFFCFF
(0946688477.072332) can0 00000103#0101010101010101
(0946688477.076834) can0 00000001#E8FF000004000000
(0946688477.077107) can0 00000002#2BFC0000F7FFFCFF
(0946688477.082375) can0 00000103#0101010101010101
(0946688477.086917) can0 00000001#DBFF000002000000
(0946688477.087225) can0 00000002#35FC0000F7FFFBFF
(0946688477.092349) can0 00000103#0101010101010101
(0946688477.097013) can0 00000001#E3FF000001000000
(0946688477.097286) can0 00000002#24FC0000F7FFFCFF
(0946688477.100698) can0 00000303#0000
(0946688477.102332) can0 00000103#0101010101010101
(0946688477.105171) can0 18FF1515#0000000100010000
(0946688477.107116) can0 00000001#E0FF000004000000
(0946688477.107403) can0 00000002#38FC0000F6FFFBFF
(0946688477.112374) can0 00000103#0101010101010101
(0946688477.112653) can0 19B50000#0004000000010060
(0946688477.113297) can0 19B50007#0000002700000000
(0946688477.113924) can0 19B50001#B4B8B58F3A000000
(0946688477.114424) can0 19B50002#7678760000000000
(0946688477.115045) can0 19B50003#0000000000000000
(0946688477.115615) can0 19B50008#797B790000000000
(0946688477.116533) can0 19B50500#0000001800002164
(0946688477.117605) can0 19B50600#FFFF004899990000
(0946688477.117889) can0 00000001#E3FF0000FDFF0000
(0946688477.118174) can0 00000002#24FC0000F6FFFBFF
(0946688477.118463) can0 19B50009#B4B8B500008F3A00
(0946688477.121507) can0 00000008#D9FF
(0946688477.121991) can0 00000009#D900767676767676
(0946688477.122414) can0 00000103#0101010101010101
(0946688477.126704) can0 00000008#D9FF
(0946688477.127195) can0 00000009#D906767676767676
(0946688477.127833) can0 00000001#E2FF000007000000
(0946688477.128122) can0 00000002#36FC0000F6FFFBFF
(0946688477.130805) can0 00000008#D9FF
(0946688477.131279) can0 00000009#D90C76767676
(0946688477.131678) can0 00000303#0000
(0946688477.132347) can0 00000103#0101010101010101
(0946688477.136630) can0 0000000C#D9FF
(0946688477.137083) can0 0000000D#D900777777777777
(0946688477.137963) can0 00000001#DDFF0000FDFF0000
(0946688477.138238) can0 00000002#27FC0000F6FFFBFF
(0946688477.140933) can0 0000000C#D9FF
(0946688477.141412) can0 0000000D#D906777777777777
(0946688477.142427) can0 00000103#0101010101010101
(0946688477.146668) can0 0000000C#D9FF
(0946688477.147100) can0 0000000D#D90C77777777
(0946688477.148044) can0 00000001#E8FF000008000000
(0946688477.148394) can0 00000002#33FC0000F6FFFBFF
(0946688477.150823) can0 00000010#D9FF
(0946688477.151304) can0 00000011#D900777777777777
(0946688477.152364) can0 00000103#0101010101010101
(0946688477.156526) can0 00000010#D9FF
(0946688477.157093) can0 00000011#D906777777777777
(0946688477.158162) can0 00000001#DCFF0000FDFF0000
(0946688477.158439) can0 00000002#2CFC0000F6FFFBFF
(0946688477.160744) can0 00000010#D9FF
(0946688477.161188) can0 00000011#D90C77777777
(0946688477.162347) can0 00000103#0101010101010101
(0946688477.168248) can0 00000001#E7FF000007000000
(0946688477.168538) can0 00000002#2CFC0000F6FFFBFF
(0946688477.172368) can0 00000103#0101010101010101
(0946688477.177982) can0 00000014#D9FF
(0946688477.178364) can0 00000001#E7FF000004000000
(0946688477.178648) can0 00000002#27FC0000F6FFFBFF
(0946688477.182363) can0 00000103#0101010101010101
(0946688477.188484) can0 00000001#DBFF000002000000
(0946688477.188790) can0 00000002#37FC0000F6FFFBFF
(0946688477.192392) can0 00000103#0101010101010101
(0946688477.198566) can0 00000001#E9FF000001000000
(0946688477.198867) can0 00000002#23FC0000F6FFFBFF
(0946688477.202350) can0 00000103#0101010101010101
(0946688477.205180) can0 18FF1515#0000000100010000
(0946688477.208695) can0 00000001#E6FF000008000000
(0946688477.209000) can0 00000002#3DFC0000F6FFFBFF
(0946688477.212360) can0 00000103#0101010101010101
(0946688477.218806) can0 00000001#EAFF000005000000
(0946688477.219088) can0 00000002#3AFC0000F6FFFBFF
(0946688477.222371) can0 00000103#0101010101010101
(0946688477.228888) can0 00000001#DAFF0000FEFF0000
(0946688477.229188) can0 00000002#27FC0000F6FFFBFF
(0946688477.232373) can0 00000103#0101010101010101
(0946688477.233554) can0 00000303#0000
(0946688477.238972) can0 00000001#E5FF000006000000
(0946688477.239250) can0 00000002#31FC0000F6FFFBFF
(0946688477.242361) can0 00000103#0101010101010101
(0946688477.249070) can0 00000001#D8FF0000FFFF0000
(0946688477.249410) can0 00000002#30FC0000F6FFFBFF
(0946688477.252363) can0 00000103#0101010101010101
(0946688477.258530) can0 00000303#0000
(0946688477.259175) can0 00000001#EAFF000006000000
(0946688477.259478) can0 00000002#29FC0000F6FFFBFF
(0946688477.262326) can0 00000103#0101010101010101
(0946688477.269290) can0 00000001#D7FF0000FEFF0000
(0946688477.269564) can0 00000002#39FC0000F6FFFBFF
(0946688477.272375) can0 00000103#0101010101010101
(0946688477.279409) can0 00000001#DCFF000004000000
(0946688477.279719) can0 00000002#37FC0000F6FFFBFF
(0946688477.282410) can0 00000103#0101010101010101
(0946688477.290551) can0 00000001#E1FF000006000000
(0946688477.290821) can0 00000002#39FC0000F5FFFBFF
(0946688477.292378) can0 00000103#0101010101010101
(0946688477.300701) can0 00000001#DFFF0000FDFF0000
(0946688477.301003) can0 00000002#24FC0000F5FFFBFF
(0946688477.305186) can0 18FF1515#0000000100010000
(0946688477.307073) can0 00000103#0101010101010101
(0946688477.309182) can0 19B50000#0004000000010060
(0946688477.309737) can0 19B50007#0000002700000000
(0946688477.310349) can0 19B50001#B4B8B58F3A000000
(0946688477.310915) can0 19B50002#7678760000000000
(0946688477.311472) can0 00000001#E3FF000007000000
(0946688477.311772) can0 00000002#38FC0000F5FFFBFF
(0946688477.312082) can0 19B50003#0000000000000000
(0946688477.312570) can0 19B50008#797B790000000000
(0946688477.312865) can0 00000103#0101010101010101
(0946688477.313662) can0 19B50500#0000001800002164
(0946688477.314730) can0 19B50600#FFFF004899990000
(0946688477.315312) can0 19B50009#B4B8B500008F3A00
(0946688477.321791) can0 00000001#DDFF0000FCFF0100
(0946688477.322093) can0 00000002#26FC0000F5FFFBFF
(0946688477.322908) can0 00000103#0101010101010101
(0946688477.331929) can0 00000001#E7FF000008000000
(0946688477.332185) can0 00000002#34FC0000F5FFFBFF
(0946688477.332895) can0 00000103#0101010101010101
(0946688477.342057) can0 00000001#D9FF0000FDFF0000
(0946688477.342529) can0 00000103#0101010101010101
(0946688477.343312) can0 00000002#2DFC0000F5FFFBFF
(0946688477.352399) can0 00000103#0101010101010101
(0946688477.353373) can0 00000001#E9FF000006000000
(0946688477.353636) can0 00000002#2EFC0000F5FFFBFF
(0946688477.361433) can0 00000303#0000
(0946688477.362649) can0 00000103#0101010101010101
(0946688477.363564) can0 00000001#E8FF000004000000
(0946688477.363865) can0 00000002#2BFC0000F5FFFBFF
(0946688477.372945) can0 00000103#0101010101010101
(0946688477.373647) can0 00000001#DBFF000003000000
(0946688477.373949) can0 00000002#36FC0000F5FFFBFF
(0946688477.382413) can0 00000103#0101010101010101
(0946688477.384656) can0 00000001#E4FF0000FEFF0000
(0946688477.384928) can0 00000002#22FC0000F5FFFBFF
(0946688477.392419) can0 00000303#0000
(0946688477.392710) can0 00000103#0101010101010101
(0946688477.395864) can0 00000001#DEFF0000FCFF0000
(0946688477.396187) can0 00000002#24FC0000F5FFFBFF
(0946688477.402411) can0 00000103#0101010101010101
(0946688477.405192) can0 18FF1515#0000000100010000
(0946688477.406022) can0 00000001#E7FF000009000000
(0946688477.406321) can0 00000002#38FC0000F5FFFBFF
(0946688477.412413) can0 00000103#0101010101010101
(0946688477.416134) can0 00000001#DBFF0000FDFF0000
(0946688477.416421) can0 00000002#29FC0000F5FFFBFF
(0946688477.422814) can0 00000103#0101010101010101
(0946688477.426262) can0 00000001#E8FF000007000000
(0946688477.426537) can0 00000002#32FC0000F5FFFBFF
(0946688477.432411) can0 00000103#0101010101010101
(0946688477.436362) can0 00000001#DAFF0000FFFF0000
(0946688477.436648) can0 00000002#2FFC0000F5FFFBFF
(0946688477.442568) can0 00000103#0101010101010101
(0946688477.446489) can0 00000001#E9FF000005000000
(0946688477.446790) can0 00000002#2CFC0000F5FFFAFF
(0946688477.452411) can0 00000103#0101010101010101
(0946688477.456572) can0 00000001#DCFF000003000000
(0946688477.456874) can0 00000002#33FC0000F5FFFBFF
(0946688477.462444) can0 00000103#0101010101010101
(0946688477.466734) can0 00000001#E5FF0000FFFF0000
(0946688477.467040) can0 00000002#27FC0000F5FFFAFF
(0946688477.472393) can0 00000103#0101010101010101
(0946688477.476854) can0 00000001#DFFF000006000000
(0946688477.477153) can0 00000002#38FC0000F5FFFBFF
(0946688477.482375) can0 00000103#0101010101010101
(0946688477.486983) can0 00000001#E3FF000008000000
(0946688477.487258) can0 00000002#37FC0000F4FFFAFF
(0946688477.492377) can0 00000103#0101010101010101
(0946688477.495284) can0 00000303#0000
(0946688477.497155) can0 00000001#DEFF0000FCFF0000
(0946688477.497413) can0 00000002#27FC0000F5FFFBFF
(0946688477.502395) can0 00000103#0101010101010101
(0946688477.505154) can0 18FF1515#0000000100010000
(0946688477.508782) can0 00000001#E5FF000008000000
(0946688477.509044) can0 00000002#36FC0000F5FFFAFF
(0946688477.509792) can0 19B50000#0004000000010060
(0946688477.510351) can0 19B50007#0000002700000000
(0946688477.511155) can0 19B50001#B4B8B58F3A000000
(0946688477.511747) can0 19B50002#7678760000000000
(0946688477.512352) can0 19B50003#0000000000000000
(0946688477.512603) can0 00000103#0101010101010101
(0946688477.512944) can0 19B50008#797B790000000000
(0946688477.513834) can0 19B50500#0000001800002164
(0946688477.514917) can0 19B50600#FFFF004899990000
(0946688477.515491) can0 19B50009#B4B8B500008F3A00
(0946688477.518867) can0 00000001#DBFF0000FCFF0000
(0946688477.519137) can0 00000002#2AFC0000F4FFFAFF
(0946688477.520254) can0 00000303#0000
(0946688477.522402) can0 00000103#0101010101010101
(0946688477.528978) can0 00000001#D9FF0000FFFF0000
(0946688477.529286) can0 00000002#31FC0000F4FFFAFF
(0946688477.532858) can0 00000103#0101010101010101
(0946688477.539157) can0 00000001#E8FF000005000000
(0946688477.539386) can0 00000002#2BFC0000F4FFFAFF
(0946688477.542474) can0 00000103#0101010101010101
(0946688477.549269) can0 00000001#E8FF000005000000
(0946688477.549536) can0 00000002#2BFC0000F4FFFAFF
(0946688477.552396) can0 00000103#0101010101010101
(0946688477.559431) can0 00000001#DEFF000006000000
(0946688477.559740) can0 00000002#39FC0000F4FFFAFF
(0946688477.562960) can0 00000103#0101010101010101
(0946688477.570646) can0 00000001#DEFF0000FDFF0000
(0946688477.570963) can0 00000002#23FC0000F4FFFAFF
(0946688477.572572) can0 00000103#0101010101010101
(0946688477.580763) can0 00000001#E6FF000008000000
(0946688477.581028) can0 00000002#39FC0000F4FFFAFF
(0946688477.582380) can0 00000103#0101010101010101
(0946688477.590854) can0 00000001#DCFF0000FCFF0000
(0946688477.591145) can0 00000002#25FC0000F4FFFAFF
(0946688477.592505) can0 00000103#0101010101010101
(0946688477.601016) can0 00000001#DDFF0000FCFF0000
(0946688477.601270) can0 00000002#2CFC0000F4FFFAFF
(0946688477.602445) can0 00000103#0101010101010101
(0946688477.605155) can0 18FF1515#0000000100010000
(0946688477.611139) can0 00000001#E7FF000009000000
(0946688477.611398) can0 00000002#2EFC0000F4FFFAFF
(0946688477.612402) can0 00000103#0101010101010101
(0946688477.621224) can0 00000001#DBFF0000FDFF0000
(0946688477.621507) can0 00000002#32FC0000F4FFFAFF
(0946688477.622393) can0 00000103#0101010101010101
(0946688477.629124) can0 00000303#0000
(0946688477.631303) can0 00000001#EFFF000003000000
(0946688477.631579) can0 00000002#28FC0000F4FFFAFF
(0946688477.632413) can0 00000103#0101010101010101
(0946688477.641454) can0 00000001#D9FF000003000000
(0946688477.641715) can0 00000002#38FC0000F4FFFAFF
(0946688477.642372) can0 00000103#0101010101010101
(0946688477.649228) can0 00000007#DA03840094A40000
(0946688477.651529) can0 00000001#E5FF000001000000
(0946688477.651833) can0 00000002#24FC0000F4FFFAFF
(0946688477.652394) can0 00000103#0101010101010101
(0946688477.654113) can0 00000303#0000
(0946688477.661666) can0 00000001#E0FF000004000000
(0946688477.661929) can0 00000002#3AFC0000F4FFFAFF
(0946688477.662393) can0 00000103#0101010101010101
(0946688477.671833) can0 00000001#E4FF000004000000
(0946688477.672121) can0 00000002#3AFC0000F3FFFAFF
(0946688477.672382) can0 00000103#0101010101010101
(0946688477.681831) can0 00000001#DEFF0000FFFF0000
(0946688477.682155) can0 00000002#27FC0000F4FFFAFF
(0946688477.682419) can0 00000103#0101010101010101
(0946688477.691974) can0 00000001#E5FF000004000000
(0946688477.692254) can0 00000002#33FC0000F3FFFAFF
(0946688477.692528) can0 00000103#0101010101010101
(0946688477.702400) can0 00000103#0101010101010101
(0946688477.702676) can0 00000001#DEFF000000000000
(0946688477.702969) can0 00000002#30FC0000F3FFFAFF
(0946688477.705154) can0 18FF1515#0000000100010000
(0946688477.712394) can0 00000103#0101010101010101
(0946688477.713040) can0 00000001#DAFF000003000000
(0946688477.713348) can0 00000002#36FC0000F3FFFAFF
(0946688477.715530) can0 19B50000#0004000000010060
(0946688477.716107) can0 19B50007#0000002700000000
(0946688477.716700) can0 19B50001#B4B8B58F3A000000
(0946688477.717293) can0 19B50002#7678760000000000
(0946688477.717873) can0 19B50003#0000000000000000
(0946688477.718491) can0 19B50008#797B790000000000
(0946688477.719348) can0 19B50500#0000001800002164
(0946688477.720607) can0 19B50600#FFFF004899990000
(0946688477.721265) can0 19B50009#B4B8B500008F3A00
(0946688477.722405) can0 00000103#0101010101010101
(0946688477.723164) can0 00000001#E2FF0000FEFF0000
(0946688477.723429) can0 00000002#26FC0000F3FFFAFF
(0946688477.732417) can0 00000103#0101010101010101
(0946688477.733373) can0 00000001#E1FF00000A000000
(0946688477.733650) can0 00000002#33FC0000F3FFFAFF
(0946688477.742412) can0 00000103#0101010101010101
(0946688477.743494) can0 00000001#E1FF00000A000000
(0946688477.743750) can0 00000002#33FC0000F3FFFAFF
(0946688477.743944) can0 00000014#DAFF
(0946688477.744459) can0 00000015#DA00787878787878
(0946688477.747545) can0 00000014#DAFF
(0946688477.748020) can0 00000015#DA06787878787878
(0946688477.751366) can0 00000014#DAFF
(0946688477.751807) can0 00000015#DA0C78787878
(0946688477.752369) can0 00000103#0101010101010101
(0946688477.753616) can0 00000001#E1FF00000A000000
(0946688477.753891) can0 00000002#33FC0000F3FFFAFF
(0946688477.756741) can0 00000018#DAFF
(0946688477.757048) can0 00000303#0000
(0946688477.757311) can0 00000019#DA00767676767676
(0946688477.761574) can0 00000018#DAFF
(0946688477.762095) can0 00000019#DA06767676767676
(0946688477.762402) can0 00000103#0101010101010101
(0946688477.763781) can0 00000001#E1FF0000F8FF0000
(0946688477.764047) can0 00000002#29FC0000F3FFFAFF
(0946688477.772401) can0 00000103#0101010101010101
(0946688477.773904) can0 00000001#E1FF0000F8FF0000
(0946688477.774170) can0 00000002#29FC0000F3FFFAFF
(0946688477.778561) can0 00000018#DAFF
(0946688477.779071) can0 00000019#DA0C76767676
(0946688477.782376) can0 00000103#0101010101010101
(0946688477.783941) can0 00000001#E5FF00000D000000
(0946688477.784219) can0 00000002#30FC0000F3FFFAFF
(0946688477.785684) can0 0000001C#DAFF
(0946688477.786163) can0 0000001D#DA00777777777777
(0946688477.788021) can0 00000303#0000
(0946688477.790202) can0 0000001C#DAFF
(0946688477.790679) can0 0000001D#DA06777777777777
(0946688477.792384) can0 00000103#0101010101010101
(0946688477.794157) can0 00000001#E7FF00000B000000
(0946688477.794420) can0 00000002#2AFC0000F3FFFAFF
(0946688477.796009) can0 0000001C#DAFF
(0946688477.796457) can0 0000001D#DA0C77777777
(0946688477.802364) can0 00000103#0101010101010101
(0946688477.804237) can0 00000001#DCFF0000FBFF0000
(0946688477.804529) can0 00000002#37FC0000F3FFFAFF
(0946688477.805159) can0 18FF1515#0000000100010000
(0946688477.812396) can0 00000103#0101010101010101
(0946688477.814375) can0 00000001#E0FF0000FBFF0000
(0946688477.814676) can0 00000002#24FC0000F3FFF9FF
(0946688477.822401) can0 00000103#0101010101010101
(0946688477.824470) can0 00000001#DAFF0000FBFF0000
(0946688477.824732) can0 00000002#21FC0000F3FFFAFF
(0946688477.832389) can0 00000103#0101010101010101
(0946688477.834542) can0 00000001#E5FF00000A000000
(0946688477.834816) can0 00000002#3AFC0000F3FFF9FF
(0946688477.842380) can0 00000103#0101010101010101
(0946688477.844646) can0 00000001#D7FF0000F9FF0000
(0946688477.844914) can0 00000002#23FC0000F3FFFAFF
(0946688477.852355) can0 00000103#0101010101010101
(0946688477.855407) can0 00000001#E8FF000008000000
(0946688477.855724) can0 00000002#34FC0000F3FFFAFF
(0946688477.860806) can0 19B5020B#7777777777777777
(0946688477.862395) can0 00000103#0101010101010101
(0946688477.865476) can0 00000001#E8FF000006000000
(0946688477.865791) can0 00000002#2EFC0000F3FFFAFF
(0946688477.872386) can0 00000103#0101010101010101
(0946688477.875700) can0 00000001#DBFF0000FFFF0000
(0946688477.876015) can0 00000002#31FC0000F3FFFAFF
(0946688477.882390) can0 00000103#0101010101010101
(0946688477.883879) can0 00000303#0000
(0946688477.885778) can0 00000001#E9FF000003000000
(0946688477.886067) can0 00000002#2DFC0000F3FFFAFF
(0946688477.892384) can0 00000103#0101010101010101
(0946688477.895891) can0 00000001#DCFF000004000000
(0946688477.896213) can0 00000002#33FC0000F3FFF9FF
(0946688477.902407) can0 00000103#0101010101010101
(0946688477.905194) can0 18FF1515#0000000100010000
(0946688477.906013) can0 00000001#E7FF0000FFFF0000
(0946688477.906313) can0 00000002#2DFC0000F3FFF9FF
(0946688477.912406) can0 00000103#0101010101010101
(0946688477.914364) can0 19B50000#0004000000010060
(0946688477.914847) can0 00000303#0000
(0946688477.915103) can0 19B50007#0000002700000000
(0946688477.915696) can0 19B50001#B4B8B58F3A000000
(0946688477.916071) can0 00000001#E4FF0000FAFF0000
(0946688477.916394) can0 00000002#30FC0000F2FFF9FF
(0946688477.916672) can0 19B50002#7678760000000000
(0946688477.917176) can0 19B50003#0000000000000000
(0946688477.917751) can0 19B50008#797B790000000000
(0946688477.918687) can0 19B50500#0000001800002164
(0946688477.919791) can0 19B50600#FFFF004899990000
(0946688477.920546) can0 19B50009#B4B8B500008F3A00
(0946688477.922408) can0 00000103#0101010101010101
(0946688477.926220) can0 00000001#E5FF00000C000000
(0946688477.926536) can0 00000002#31FC0000F2FFF9FF
(0946688477.932397) can0 00000103#0101010101010101
(0946688477.936353) can0 00000001#E8FF00000C000000
(0946688477.936638) can0 00000002#2DFC0000F2FFF9FF
(0946688477.942413) can0 00000103#0101010101010101
(0946688477.946423) can0 00000001#DBFF0000FCFF0000
(0946688477.946715) can0 00000002#37FC0000F2FFF9FF
(0946688477.952416) can0 00000103#0101010101010101
(0946688477.956645) can0 00000001#DBFF0000FCFF0000
(0946688477.956922) can0 00000002#37FC0000F2FFF9FF
(0946688477.962359) can0 00000103#0101010101010101
(0946688477.966714) can0 00000001#E9FF00000A000000
(0946688477.966970) can0 00000002#27FC0000F2FFF9FF
(0946688477.972404) can0 00000103#0101010101010101
(0946688477.976773) can0 00000001#DAFF0000FEFF0000
(0946688477.977047) can0 00000002#39FC0000F2FFF9FF
(0946688477.982354) can0 00000103#0101010101010101
(0946688477.986857) can0 00000001#E6FF0000FEFF0000
(0946688477.987142) can0 00000002#22FC0000F2FFF9FF
(0946688477.992513) can0 00000103#0101010101010101
(0946688477.996932) can0 00000001#DEFF000005000000
(0946688477.997236) can0 00000002#40FC0000F2FFF9FF
(0946688478.002437) can0 00000103#0101010101010101
(0946688478.005195) can0 18FF1515#0000000100010000
(0946688478.007090) can0 00000001#E2FF0000FAFF0000
(0946688478.007402) can0 00000002#1FFC0000F2FFF9FF
(0946688478.009745) can0 00000303#0000
(0946688478.012396) can0 00000103#0101010101010101
(0946688478.017959) can0 00000001#E2FF00000B000000
(0946688478.018262) can0 00000002#3DFC0000F2FFF9FF
(0946688478.022389) can0 00000103#0101010101010101
(0946688478.028046) can0 00000001#E4FF00000A000000
(0946688478.028321) can0 00000002#38FC0000F2FFF9FF
(0946688478.032359) can0 00000103#0101010101010101
(0946688478.038160) can0 00000001#E0FF0000FCFF0000
(0946688478.038439) can0 00000002#28FC0000F2FFF9FF
(0946688478.040782) can0 00000303#0000
(0946688478.042385) can0 00000103#0101010101010101
(0946688478.048277) can0 00000001#EAFF000008000000
(0946688478.048537) can0 00000002#34FC0000F1FFF9FF
(0946688478.052363) can0 00000103#0101010101010101
(0946688478.055190) can0 00000007#DB03830093A30000
(0946688478.058370) can0 00000001#DAFF000001000000
(0946688478.058669) can0 00000002#2AFC0000F2FFF9FF
(0946688478.062460) can0 00000103#0101010101010101
(0946688478.068450) can0 00000001#EAFF000006000000
(0946688478.068759) can0 00000002#30FC0000F1FFF9FF
(0946688478.072361) can0 00000103#0101010101010101
(0946688478.078565) can0 00000001#D8FF000003000000
(0946688478.078866) can0 00000002#33FC0000F2FFF9FF
(0946688478.082389) can0 00000103#0101010101010101
(0946688478.088644) can0 00000001#DCFF0000FFFF0000
(0946688478.088919) can0 00000002#21FC0000F2FFF9FF
(0946688478.092377) can0 00000103#0101010101010101
(0946688478.098739) can0 00000001#DEFF00000B000000
(0946688478.099038) can0 00000002#37FC0000F2FFF9FF
(0946688478.102362) can0 00000103#0101010101010101
(0946688478.105157) can0 18FF1515#0000000100010000
(0946688478.108852) can0 00000001#DDFF0000FBFF0100
(0946688478.109139) can0 00000002#25FC0000F2FFF9FF
(0946688478.110143) can0 19B50000#0004000000010060
(0946688478.110723) can0 19B50007#0000002700000000
(0946688478.111291) can0 19B50001#B4B8B58F3A000000
(0946688478.111884) can0 19B50002#7678760000000000
(0946688478.112403) can0 00000103#0101010101010101
(0946688478.112679) can0 19B50003#0000000000000000
(0946688478.113279) can0 19B50008#797B790000000000
(0946688478.114196) can0 19B50500#0000001800002164
(0946688478.115270) can0 19B50600#FFFF004899990000
(0946688478.115814) can0 19B50009#B4B8B500008F3A00
(0946688478.118972) can0 00000001#E2FF00000A000000
(0946688478.119269) can0 00000002#34FC0000F2FFF9FF
(0946688478.122334) can0 00000103#0101010101010101
