(0946688474.763660) can0 00000001#EDFF0000FFFF0000
(0946688474.763965) can0 00000002#2EFC00007600D4FF
(0946688474.768058) can0 00000103#0101010101010101
(0946688474.773727) can0 00000001#ECFF0000FFFF0000
(0946688474.773998) can0 00000002#2EFC00007600D4FF
(0946688474.778048) can0 00000103#0101010101010101
(0946688474.783794) can0 00000001#ECFF0000FFFF0000
(0946688474.784080) can0 00000002#2EFC00007600D4FF
(0946688474.788038) can0 00000103#0101010101010101
(0946688474.793910) can0 00000001#EDFF000000000000
(0946688474.794202) can0 00000002#2EFC00007600D4FF
(0946688474.798021) can0 00000103#0101010101010101
(0946688474.804018) can0 00000001#EDFF000000000000
(0946688474.804298) can0 00000002#2FFC00007600D4FF
(0946688474.808085) can0 00000103#0101010101010101
(0946688474.814143) can0 00000001#EDFF000000000000
(0946688474.814385) can0 00000002#2EFC00007600D4FF
(0946688474.818057) can0 00000103#0101010101010101
(0946688474.824215) can0 00000001#EDFF0000FFFF0000
(0946688474.824489) can0 00000002#2EFC00007600D4FF
(0946688474.828083) can0 00000103#0101010101010101
(0946688474.834277) can0 00000001#EDFF0000FFFF0000
(0946688474.834611) can0 00000002#2EFC00007600D4FF
(0946688474.838086) can0 00000103#0101010101010101
(0946688474.844417) can0 00000001#EDFF0000FFFF0000
(0946688474.844690) can0 00000002#2EFC00007600D4FF
(0946688474.847995) can0 18FF1515#0000000100010000
(0946688474.848243) can0 00000103#0101010101010101
(0946688474.854504) can0 00000001#EDFF0000FFFF0000
(0946688474.854797) can0 00000002#2EFC00007600D4FF
(0946688474.858057) can0 00000103#0101010101010101
(0946688474.864619) can0 00000001#EDFF0000FFFF0000
(0946688474.864886) can0 00000002#2EFC00007600D4FF
(0946688474.868046) can0 00000103#0101010101010101
(0946688474.874696) can0 00000001#EDFF0000FFFF0000
(0946688474.874981) can0 00000002#2EFC00007600D4FF
(0946688474.878038) can0 00000103#0101010101010101
(0946688474.880714) can0 00000303#0000
(0946688474.884799) can0 00000001#EDFF0000FFFF0000
(0946688474.885086) can0 00000002#2EFC00007600D4FF
(0946688474.888022) can0 00000103#0101010101010101
(0946688474.894882) can0 00000001#ECFF0000FFFF0000
(0946688474.895202) can0 00000002#2EFC00007600D4FF
(0946688474.898012) can0 00000103#0101010101010101
(0946688474.905005) can0 00000001#ECFF0000FFFF0000
(0946688474.905281) can0 00000002#2EFC00007600D4FF
(0946688474.908027) can0 00000103#0101010101010101
(0946688474.911671) can0 00000303#0000
(0946688474.915084) can0 00000001#EDFF0000FFFF0000
(0946688474.915380) can0 00000002#2EFC00007600D4FF
(0946688474.918051) can0 00000103#0101010101010101
(0946688474.925403) can0 19B50000#0004000000010060
(0946688474.925914) can0 00000001#EDFF000000000000
(0946688474.926182) can0 00000002#2EFC00007600D4FF
(0946688474.926503) can0 19B50007#0000002700000000
(0946688474.926923) can0 19B50001#BFC4C1938E000000
(0946688474.927490) can0 19B50002#7879780000000000
(0946688474.928041) can0 00000103#0101010101010101
(0946688474.928323) can0 19B50003#0000000000000000
(0946688474.928838) can0 19B50008#797B7A0000000000
(0946688474.929679) can0 19B50500#0000002500003A64
(0946688474.930751) can0 19B50600#FFFF007799990000
(0946688474.931355) can0 19B50009#BFC4C10000938E00
(0946688474.936001) can0 00000001#EDFF000000000000
(0946688474.936295) can0 00000002#2EFC00007600D4FF
(0946688474.938013) can0 00000103#0101010101010101
(0946688474.946116) can0 00000001#EDFF000000000000
(0946688474.946404) can0 00000002#2EFC00007600D4FF
(0946688474.947999) can0 18FF1515#0000000100010000
(0946688474.948289) can0 00000103#0101010101010101
(0946688474.956229) can0 00000001#EDFF000000000000
(0946688474.956500) can0 00000002#2EFC00007600D4FF
(0946688474.958075) can0 00000103#0101010101010101
(0946688474.966325) can0 00000001#EDFF000000000000
(0946688474.966620) can0 00000002#2EFC00007600D4FF
(0946688474.968108) can0 00000103#0101010101010101
(0946688474.976368) can0 00000001#EDFF0000FFFF0000
(0946688474.976669) can0 00000002#2EFC00007600D4FF
(0946688474.978039) can0 00000103#0101010101010101
(0946688474.986481) can0 00000001#EDFF0000FFFF0000
(0946688474.986759) can0 00000002#2EFC00007600D4FF
(0946688474.988081) can0 00000103#0101010101010101
(0946688474.996577) can0 00000001#EDFF0000FFFF0000
(0946688474.996865) can0 00000002#2EFC00007600D4FF
(0946688474.998035) can0 00000103#0101010101010101
(0946688475.006671) can0 00000001#EDFF0000FFFF0000
(0946688475.006948) can0 00000002#2EFC00007600D4FF
(0946688475.008031) can0 00000103#0101010101010101
(0946688475.012494) can0 00000303#0000
(0946688475.016735) can0 00000001#EDFF0000FFFF0000
(0946688475.017065) can0 00000002#2EFC00007600D4FF
(0946688475.018050) can0 00000103#0101010101010101
(0946688475.026839) can0 00000001#EDFF0000FFFF0000
(0946688475.027126) can0 00000002#2EFC00007600D4FF
(0946688475.028046) can0 00000103#0101010101010101
(0946688475.036959) can0 00000001#EDFF0000FFFF0000
(0946688475.037222) can0 00000002#2EFC00007600D4FF
(0946688475.037499) can0 00000303#0000
(0946688475.038038) can0 00000103#0101010101010101
(0946688475.047040) can0 00000001#EDFF0000FFFF0000
(0946688475.047340) can0 00000002#2EFC00007600D4FF
(0946688475.047996) can0 18FF1515#0000000100010000
(0946688475.048243) can0 00000103#0101010101010101
(0946688475.057154) can0 00000001#EDFF0000FFFF0000
(0946688475.057429) can0 00000002#2EFC00007600D4FF
(0946688475.058074) can0 00000103#0101010101010101
(0946688475.067277) can0 00000001#EDFF0000FFFF0000
(0946688475.067537) can0 00000002#2EFC00007600D4FF
(0946688475.068053) can0 00000103#0101010101010101
(0946688475.077348) can0 00000001#EDFF0000FFFF0000
(0946688475.077593) can0 00000002#2EFC00007600D4FF
(0946688475.078044) can0 00000103#0101010101010101
(0946688475.087448) can0 00000001#EDFF000000000000
(0946688475.087727) can0 00000002#2EFC00007600D4FF
(0946688475.088037) can0 00000103#0101010101010101
(0946688475.097554) can0 00000001#EDFF000000000000
(0946688475.097833) can0 00000002#2FFC00007600D4FF
(0946688475.098146) can0 00000103#0101010101010101
(0946688475.107694) can0 00000001#EDFF000000000000
(0946688475.107975) can0 00000002#2EFC00007600D4FF
(0946688475.108279) can0 00000103#0101010101010101
(0946688475.117786) can0 00000001#EDFF000000000000
(0946688475.118096) can0 00000002#2FFC00007600D4FF
(0946688475.118366) can0 00000103#0101010101010101
(0946688475.128060) can0 00000103#0101010101010101
(0946688475.128482) can0 00000001#EDFF000000000000
(0946688475.128741) can0 00000002#2EFC00007600D4FF
(0946688475.134301) can0 19B50000#0004000000010060
(0946688475.135079) can0 19B50007#0000002700000000
(0946688475.135644) can0 19B50001#BFC4C1938E000000
(0946688475.136235) can0 19B50002#7879780000000000
(0946688475.136794) can0 19B50003#0000000000000000
(0946688475.137380) can0 19B50008#797B7A0000000000
(0946688475.138065) can0 00000103#0101010101010101
(0946688475.138380) can0 19B50500#0000002500003A64
(0946688475.138629) can0 00000001#EDFF0000FFFF0000
(0946688475.138897) can0 00000002#2EFC00007600D4FF
(0946688475.139403) can0 00000303#0000
(0946688475.140009) can0 19B50600#FFFF007799990000
(0946688475.140604) can0 19B50009#BFC4C10000938E00
(0946688475.142927) can0 00000007#1608C200CD
(0946688475.147965) can0 18FF1515#0000000100010000
(0946688475.148242) can0 00000103#0101010101010101
(0946688475.148679) can0 00000001#EDFF0000FFFF0000
(0946688475.148985) can0 00000002#2EFC00007600D4FF
(0946688475.158084) can0 00000103#0101010101010101
(0946688475.158803) can0 00000001#EDFF000000000000
(0946688475.159050) can0 00000002#2EFC00007600D4FF
(0946688475.168061) can0 00000103#0101010101010101
(0946688475.168870) can0 00000001#EDFF0000FFFF0000
(0946688475.169197) can0 00000002#2EFC00007600D4FF
(0946688475.170362) can0 00000303#0000
(0946688475.178046) can0 00000103#0101010101010101
(0946688475.178962) can0 00000001#EDFF0000FFFF0000
(0946688475.179302) can0 00000002#2EFC00007600D4FF
(0946688475.188036) can0 00000103#0101010101010101
(0946688475.189083) can0 00000001#EDFF000000000000
(0946688475.189352) can0 00000002#2EFC00007600D4FF
(0946688475.198036) can0 00000103#0101010101010101
(0946688475.199201) can0 00000001#EDFF000000000000
(0946688475.199446) can0 00000002#2EFC00007600D4FF
(0946688475.208042) can0 00000103#0101010101010101
(0946688475.209289) can0 00000001#EDFF000000000000
(0946688475.209555) can0 00000002#2EFC00007600D4FF
(0946688475.218076) can0 00000103#0101010101010101
(0946688475.219360) can0 00000001#EDFF000000000000
(0946688475.219663) can0 00000002#2EFC00007600D4FF
(0946688475.228050) can0 00000103#0101010101010101
(0946688475.229449) can0 00000001#EDFF000000000000
(0946688475.229740) can0 00000002#2EFC00007600D4FF
(0946688475.238083) can0 00000103#0101010101010101
(0946688475.238270) can0 00000014#16FF
(0946688475.238615) can0 00000015#16
(0946688475.239607) can0 00000001#EDFF000000000000
(0946688475.239874) can0 00000002#2EFC00007600D4FF
(0946688475.247969) can0 18FF1515#0000000100010000
(0946688475.248228) can0 00000103#0101010101010101
(0946688475.249649) can0 00000001#EDFF000000000000
(0946688475.249959) can0 00000002#2EFC00007600D4FF
(0946688475.254483) can0 00000018#16FF
(0946688475.254859) can0 00000019#16
(0946688475.258085) can0 00000103#0101010101010101
(0946688475.259753) can0 00000001#EDFF000000000000
(0946688475.260048) can0 00000002#2EFC00007600D4FF
(0946688475.261259) can0 0000001C#16FF
(0946688475.261601) can0 0000001D#16
(0946688475.264203) can0 00000303#0000
(0946688475.268104) can0 00000103#0101010101010101
(0946688475.269904) can0 00000001#EDFF000000000000
(0946688475.270204) can0 00000002#2EFC00007600D4FF
(0946688475.278049) can0 00000103#0101010101010101
(0946688475.279972) can0 00000001#EDFF0000FFFF0000
(0946688475.280253) can0 00000002#2FFC00007600D4FF
(0946688475.288103) can0 00000103#0101010101010101
(0946688475.290874) can0 00000001#EDFF0000FFFF0000
(0946688475.291172) can0 00000002#2FFC00007600D4FF
(0946688475.295176) can0 00000303#0000
(0946688475.298080) can0 00000103#0101010101010101
(0946688475.300990) can0 00000001#EDFF0000FFFF0000
(0946688475.301273) can0 00000002#2EFC00007600D4FF
(0946688475.308084) can0 00000103#0101010101010101
(0946688475.311049) can0 00000001#EDFF0000FFFF0000
(0946688475.311340) can0 00000002#2FFC00007600D4FF
(0946688475.318055) can0 00000103#0101010101010101
(0946688475.321141) can0 00000001#EDFF0000FFFF0000
(0946688475.321446) can0 00000002#2FFC00007600D4FF
(0946688475.325808) can0 19B50000#0004000000010060
(0946688475.326460) can0 19B50007#0000002700000000
(0946688475.326982) can0 19B50001#BFC4C1938E000000
(0946688475.327590) can0 19B50002#7879780000000000
(0946688475.328055) can0 00000103#0101010101010101
(0946688475.328369) can0 19B50003#0000000000000000
(0946688475.328889) can0 19B50008#797B7A0000000000
(0946688475.329792) can0 19B50500#0000002500003A64
(0946688475.330871) can0 19B50600#FFFF007799990000
(0946688475.331273) can0 00000001#ECFF0000FFFF0000
(0946688475.331534) can0 00000002#2EFC00007600D4FF
(0946688475.331876) can0 19B50009#BFC4C10000938E00
(0946688475.333912) can0 00000007#1708C30000
(0946688475.338085) can0 00000103#0101010101010101
(0946688475.341347) can0 00000001#ECFF0000FFFF0000
(0946688475.341654) can0 00000002#2EFC00007600D4FF
(0946688475.347962) can0 18FF1515#0000000100010000
(0946688475.348256) can0 00000103#0101010101010101
(0946688475.351431) can0 00000001#ECFF0000FFFF0000
(0946688475.351712) can0 00000002#2EFC00007600D4FF
(0946688475.358049) can0 00000103#0101010101010101
(0946688475.361547) can0 00000001#ECFF0000FFFF0000
(0946688475.361829) can0 00000002#2EFC00007600D4FF
(0946688475.368094) can0 00000103#0101010101010101
(0946688475.371668) can0 00000001#ECFF0000FFFF0000
(0946688475.371928) can0 00000002#2EFC00007600D4FF
(0946688475.378064) can0 00000103#0101010101010101
(0946688475.381687) can0 00000001#ECFF0000FFFF0000
(0946688475.382005) can0 00000002#2EFC00007600D4FF
(0946688475.388052) can0 00000103#0101010101010101
(0946688475.391048) can0 00000303#0000
(0946688475.391829) can0 00000001#ECFF0000FFFF0000
(0946688475.392089) can0 00000002#2EFC00007600D4FF
(0946688475.398080) can0 00000103#0101010101010101
(0946688475.401891) can0 00000001#EDFF000000000000
(0946688475.402207) can0 00000002#2EFC00007600D4FF
(0946688475.408084) can0 00000103#0101010101010101
(0946688475.411992) can0 00000001#EDFF000000000000
(0946688475.412281) can0 00000002#2EFC00007600D4FF
(0946688475.418079) can0 00000103#0101010101010101
(0946688475.422103) can0 00000001#EDFF000000000000
(0946688475.422409) can0 00000002#2EFC00007600D4FF
(0946688475.428143) can0 00000103#0101010101010101
(0946688475.428802) can0 00000008#17FF
(0946688475.429180) can0 00000009#17
(0946688475.432229) can0 00000001#EDFF000000000000
(0946688475.432481) can0 00000002#2EFC00007600D4FF
(0946688475.438055) can0 00000103#0101010101010101
(0946688475.442275) can0 00000001#EDFF000000000000
(0946688475.442585) can0 00000002#2EFC00007600D3FF
(0946688475.447969) can0 18FF1515#0000000100010000
(0946688475.448296) can0 00000103#0101010101010101
(0946688475.452382) can0 00000001#EDFF000000000000
(0946688475.452656) can0 00000002#2EFC00007600D3FF
(0946688475.458087) can0 00000103#0101010101010101
(0946688475.462505) can0 00000001#EDFF000000000000
(0946688475.462761) can0 00000002#2EFC00007600D3FF
(0946688475.468070) can0 00000103#0101010101010101
(0946688475.469753) can0 0000000C#17FF
(0946688475.470141) can0 0000000D#17
(0946688475.472580) can0 00000001#EDFF000000000000
(0946688475.472867) can0 00000002#2EFC00007600D3FF
(0946688475.477712) can0 00000010#17FF
(0946688475.478059) can0 00000103#0101010101010101
(0946688475.478247) can0 00000011#17
(0946688475.482418) can0 00000014#17FF
(0946688475.482704) can0 00000001#EDFF0000FFFF0000
(0946688475.483005) can0 00000002#2EFC00007600D3FF
(0946688475.488054) can0 00000103#0101010101010101
(0946688475.493308) can0 00000001#EDFF0000FFFF0000
(0946688475.493587) can0 00000002#2EFC00007600D3FF
(0946688475.498083) can0 00000103#0101010101010101
(0946688475.503430) can0 00000001#EDFF0000FFFF0000
(0946688475.503697) can0 00000002#2EFC00007600D3FF
(0946688475.508086) can0 00000103#0101010101010101
(0946688475.513507) can0 00000001#EDFF0000FFFF0000
(0946688475.513770) can0 00000002#2EFC00007600D4FF
(0946688475.517879) can0 00000303#0000
(0946688475.518154) can0 00000103#0101010101010101
(0946688475.523275) can0 19B50000#0004000000010060
(0946688475.523587) can0 00000001#EDFF0000FFFF0000
(0946688475.523881) can0 00000002#2EFC00007600D4FF
(0946688475.524170) can0 19B50007#0000002700000000
(0946688475.524892) can0 19B50001#BFC4C1938E000000
(0946688475.525498) can0 19B50002#7879780000000000
(0946688475.526044) can0 19B50003#0000000000000000
(0946688475.526720) can0 19B50008#797B7A0000000000
(0946688475.527537) can0 19B50500#0000002500003A64
(0946688475.528056) can0 00000103#0101010101010101
(0946688475.528806) can0 19B50600#FFFF007799990000
(0946688475.529380) can0 19B50009#BFC4C10000938E00
(0946688475.533705) can0 00000001#ECFF0000FFFF0000
(0946688475.533972) can0 00000002#2EFC00007600D4FF
(0946688475.538090) can0 00000103#0101010101010101
(0946688475.543764) can0 00000001#EDFF000000000000
(0946688475.544072) can0 00000002#2EFC00007600D4FF
(0946688475.547966) can0 18FF1515#0000000100010000
(0946688475.548254) can0 00000103#0101010101010101
(0946688475.548847) can0 00000303#0000
(0946688475.553899) can0 00000001#EDFF000000000000
(0946688475.554149) can0 00000002#2EFC00007600D4FF
(0946688475.558071) can0 00000103#0101010101010101
(0946688475.563983) can0 00000001#EDFF000000000000
(0946688475.564286) can0 00000002#2EFC00007600D4FF
(0946688475.568068) can0 00000103#0101010101010101
(0946688475.574096) can0 00000001#EDFF0000FFFF0000
(0946688475.574348) can0 00000002#2EFC00007600D3FF
(0946688475.578060) can0 00000103#0101010101010101
(0946688475.584180) can0 00000001#EDFF000000000000
(0946688475.584447) can0 00000002#2FFC00007600D3FF
(0946688475.588092) can0 00000103#0101010101010101
(0946688475.594268) can0 00000001#EDFF000000000000
(0946688475.594534) can0 00000002#2EFC00007600D3FF
(0946688475.598082) can0 00000103#0101010101010101
(0946688475.604380) can0 00000001#EDFF000000000000
(0946688475.604653) can0 00000002#2FFC00007600D3FF
(0946688475.608096) can0 00000103#0101010101010101
(0946688475.614461) can0 00000001#EDFF000000000000
(0946688475.614722) can0 00000002#2EFC00007600D3FF
(0946688475.618042) can0 00000103#0101010101010101
(0946688475.624542) can0 00000001#EDFF000000000000
(0946688475.624838) can0 00000002#2EFC00007600D3FF
(0946688475.628057) can0 00000103#0101010101010101
(0946688475.634627) can0 00000001#EDFF000000000000
(0946688475.634939) can0 00000002#2EFC00007600D3FF
(0946688475.638095) can0 00000103#0101010101010101
(0946688475.644740) can0 00000001#EDFF0000FFFF0000
(0946688475.645005) can0 00000002#2EFC00007600D3FF
(0946688475.648010) can0 18FF1515#0000000100010000
(0946688475.648269) can0 00000103#0101010101010101
(0946688475.648668) can0 00000303#0000
(0946688475.654841) can0 00000001#EDFF0000FFFF0000
(0946688475.655126) can0 00000002#2FFC00007600D3FF
(0946688475.658082) can0 00000103#0101010101010101
(0946688475.664962) can0 00000001#EDFF0000FFFF0000
(0946688475.665763) can0 00000002#2EFC00007600D3FF
(0946688475.668042) can0 00000103#0101010101010101
(0946688475.673685) can0 00000303#0000
(0946688475.675008) can0 00000001#EDFF0000FFFF0000
(0946688475.675335) can0 00000002#2EFC00007600D3FF
(0946688475.678102) can0 00000103#0101010101010101
(0946688475.685733) can0 00000001#EDFF000000000000
(0946688475.686053) can0 00000002#2FFC00007600D3FF
(0946688475.688065) can0 00000103#0101010101010101
(0946688475.695828) can0 00000001#EDFF0000FFFF0000
(0946688475.696131) can0 00000002#2EFC00007600D3FF
(0946688475.698045) can0 00000103#0101010101010101
(0946688475.705924) can0 00000001#EDFF0000FFFF0000
(0946688475.706213) can0 00000002#2EFC00007600D3FF
(0946688475.708043) can0 00000103#0101010101010101
(0946688475.716017) can0 00000001#EDFF0000FFFF0000
(0946688475.716332) can0 00000002#2EFC00007600D3FF
(0946688475.718042) can0 00000103#0101010101010101
(0946688475.721548) can0 19B50000#0004000000010060
(0946688475.722130) can0 19B50007#0000002700000000
(0946688475.722724) can0 19B50001#BFC4C1938E000000
(0946688475.723321) can0 19B50002#7879780000000000
(0946688475.724116) can0 19B50003#0000000000000000
(0946688475.724674) can0 19B50008#797B7A0000000000
(0946688475.725595) can0 19B50500#0000002500003A64
(0946688475.726132) can0 00000001#EDFF0000FFFF0000
(0946688475.726455) can0 00000002#2EFC00007600D3FF
(0946688475.726864) can0 19B50600#FFFF007799990000
(0946688475.727435) can0 19B50009#BFC4C10000938E00
(0946688475.728062) can0 00000103#0101010101010101
(0946688475.736204) can0 00000001#EDFF0000FFFF0000
(0946688475.736509) can0 00000002#2EFC00007600D3FF
(0946688475.738066) can0 00000103#0101010101010101
(0946688475.746309) can0 00000001#EDFF0000FFFF0000
(0946688475.746587) can0 00000002#2FFC00007600D3FF
(0946688475.747968) can0 18FF1515#0000000100010000
(0946688475.748232) can0 00000103#0101010101010101
(0946688475.756442) can0 00000001#ECFF0000FFFF0000
(0946688475.756710) can0 00000002#2FFC00007600D3FF
(0946688475.758081) can0 00000103#0101010101010101
(0946688475.766502) can0 00000001#EDFF0000FFFF0000
(0946688475.766797) can0 00000002#2EFC00007600D3FF
(0946688475.768016) can0 00000103#0101010101010101
(0946688475.773585) can0 00000303#0000
(0946688475.776594) can0 00000001#EDFF0000FFFF0000
(0946688475.776886) can0 00000002#2EFC00007600D3FF
(0946688475.778019) can0 00000103#0101010101010101
(0946688475.786706) can0 00000001#EDFF0000FFFF0000
(0946688475.786976) can0 00000002#2EFC00007600D3FF
(0946688475.788022) can0 00000103#0101010101010101
(0946688475.796784) can0 00000001#EDFF0000FFFF0000
(0946688475.797114) can0 00000002#2EFC00007600D3FF
(0946688475.798018) can0 00000103#0101010101010101
(0946688475.804477) can0 00000303#0000
(0946688475.806878) can0 00000001#EDFF0000FFFF0000
(0946688475.807168) can0 00000002#2EFC00007600D3FF
(0946688475.808039) can0 00000103#0101010101010101
(0946688475.816986) can0 00000001#EDFF0000FFFF0000
(0946688475.817288) can0 00000002#2EFC00007600D3FF
(0946688475.818039) can0 00000103#0101010101010101
(0946688475.827079) can0 00000001#EDFF0000FFFF0000
(0946688475.827375) can0 00000002#2FFC00007600D3FF
(0946688475.828043) can0 00000103#0101010101010101
(0946688475.837198) can0 00000001#EDFF000000000000
(0946688475.837470) can0 00000002#2EFC00007600D3FF
(0946688475.838030) can0 00000103#0101010101010101
(0946688475.847268) can0 00000001#EDFF000000000000
(0946688475.847545) can0 00000002#2EFC00007600D3FF
(0946688475.847968) can0 18FF1515#0000000100010000
(0946688475.848267) can0 00000103#0101010101010101
(0946688475.857347) can0 00000001#EDFF0000FFFF0000
(0946688475.857642) can0 00000002#2FFC00007600D3FF
(0946688475.858082) can0 00000103#0101010101010101
(0946688475.867463) can0 00000001#EDFF0000FFFF0000
(0946688475.867735) can0 00000002#2FFC00007600D3FF
(0946688475.868097) can0 00000103#0101010101010101
(0946688475.877548) can0 00000001#EDFF0000FFFF0000
(0946688475.877852) can0 00000002#2EFC00007600D3FF
(0946688475.878110) can0 00000103#0101010101010101
(0946688475.888069) can0 00000103#0101010101010101
(0946688475.888392) can0 00000001#EDFF0000FFFF0000
(0946688475.888707) can0 00000002#2EFC00007600D3FF
(0946688475.898051) can0 00000103#0101010101010101
(0946688475.898514) can0 00000001#EDFF0000FFFF0000
(0946688475.898797) can0 00000002#2EFC00007600D3FF
(0946688475.904354) can0 00000303#0000
(0946688475.908039) can0 00000103#0101010101010101
(0946688475.908638) can0 00000001#EDFF0000FFFF0000
(0946688475.908911) can0 00000002#2EFC00007600D3FF
(0946688475.918022) can0 00000103#0101010101010101
(0946688475.918706) can0 00000001#EDFF0000FFFF0000
(0946688475.918973) can0 00000002#2EFC00007600D3FF
(0946688475.927765) can0 19B50000#0004000000010060
(0946688475.928032) can0 00000103#0101010101010101
(0946688475.928335) can0 19B50007#0000002700000000
(0946688475.928834) can0 00000001#EDFF000000000000
(0946688475.929108) can0 00000002#2EFC00007600D3FF
(0946688475.929421) can0 19B50001#BFC4C1938E000000
(0946688475.929688) can0 19B50002#7879780000000000
(0946688475.930116) can0 19B50003#0000000000000000
(0946688475.930714) can0 19B50008#797B7A0000000000
(0946688475.931596) can0 19B50500#0000002500003A64
(0946688475.932676) can0 19B50600#FFFF007799990000
(0946688475.933259) can0 19B50009#BFC4C10000938E00
(0946688475.935329) can0 00000303#0000
(0946688475.938073) can0 00000103#0101010101010101
(0946688475.938923) can0 00000001#EDFF0000FFFF0000
(0946688475.939201) can0 00000002#2EFC00007600D3FF
(0946688475.947977) can0 18FF1515#0000000100010000
(0946688475.948232) can0 00000103#0101010101010101
(0946688475.949003) can0 00000001#EDFF000000000000
(0946688475.949326) can0 00000002#2EFC00007600D3FF
(0946688475.950801) can0 00000007#1808C30000
(0946688475.958049) can0 00000103#0101010101010101
(0946688475.959129) can0 00000001#EDFF000000000000
(0946688475.959396) can0 00000002#2EFC00007600D3FF
(0946688475.968014) can0 00000103#0101010101010101
(0946688475.969188) can0 00000001#EDFF0000FFFF0000
(0946688475.969485) can0 00000002#2EFC00007600D3FF
(0946688475.978026) can0 00000103#0101010101010101
(0946688475.979346) can0 00000001#EDFF0000FFFF0000
(0946688475.979593) can0 00000002#2EFC00007600D3FF
(0946688475.988111) can0 00000103#0101010101010101
(0946688475.989407) can0 00000001#ECFF0000FFFF0000
(0946688475.989690) can0 00000002#2EFC00007600D3FF
(0946688475.998046) can0 00000103#0101010101010101
(0946688475.999486) can0 00000001#ECFF0000FFFF0000
(0946688475.999749) can0 00000002#2EFC00007600D3FF
(0946688476.008040) can0 00000103#0101010101010101
(0946688476.009575) can0 00000001#ECFF0000FFFF0000
(0946688476.009840) can0 00000002#2EFC00007600D3FF
(0946688476.018012) can0 00000103#0101010101010101
(0946688476.019686) can0 00000001#ECFF0000FFFF0000
(0946688476.019954) can0 00000002#2EFC00007600D3FF
(0946688476.028022) can0 00000103#0101010101010101
(0946688476.029757) can0 00000001#ECFF0000FFFF0000
(0946688476.030088) can0 00000002#2FFC00007600D3FF
(0946688476.035232) can0 00000303#0000
(0946688476.038022) can0 00000103#0101010101010101
(0946688476.039870) can0 00000001#EDFF000000000000
(0946688476.040189) can0 00000002#2EFC00007600D3FF
(0946688476.047975) can0 18FF1515#0000000100010000
(0946688476.048231) can0 00000103#0101010101010101
(0946688476.049965) can0 00000001#EDFF000000000000
(0946688476.050254) can0 00000002#2EFC00007600D3FF
(0946688476.057741) can0 00000014#18FF
(0946688476.058047) can0 00000103#0101010101010101
(0946688476.058243) can0 00000015#18
(0946688476.060090) can0 00000001#EDFF0000FFFF0000
(0946688476.061210) can0 00000002#2FFC00007600D3FF
(0946688476.062182) can0 00000018#18FF
(0946688476.062532) can0 00000019#18
(0946688476.066193) can0 00000303#0000
(0946688476.067390) can0 0000001C#18FF
(0946688476.067731) can0 0000001D#18
(0946688476.068082) can0 00000103#0101010101010101
(0946688476.070160) can0 00000001#EDFF0000FFFF0000
(0946688476.070466) can0 00000002#2EFC00007600D3FF
(0946688476.078048) can0 00000103#0101010101010101
(0946688476.080874) can0 00000001#EDFF0000FFFF0000
(0946688476.081196) can0 00000002#2FFC00007600D3FF
(0946688476.088010) can0 00000103#0101010101010101
(0946688476.090972) can0 00000001#EDFF0000FFFF0000
(0946688476.091315) can0 00000002#2EFC00007600D3FF
(0946688476.098020) can0 00000103#0101010101010101
(0946688476.101057) can0 00000001#EDFF0000FFFF0000
(0946688476.101364) can0 00000002#2FFC00007600D3FF
(0946688476.108046) can0 00000103#0101010101010101
(0946688476.111172) can0 00000001#EDFF0000FFFF0000
(0946688476.111451) can0 00000002#2FFC00007600D3FF
(0946688476.118037) can0 00000103#0101010101010101
(0946688476.121253) can0 00000001#EDFF0000FFFF0000
(0946688476.121565) can0 00000002#2EFC00007600D3FF
(0946688476.121840) can0 19B50000#0004000000010060
(0946688476.122306) can0 19B50007#0000002700000000
(0946688476.122920) can0 19B50001#BFC4C1938E000000
(0946688476.123645) can0 19B50002#7879780000000000
(0946688476.124251) can0 19B50003#0000000000000000
(0946688476.124867) can0 19B50008#797B7A0000000000
(0946688476.125726) can0 19B50500#0000002500003A64
(0946688476.126861) can0 19B50600#FFFF007799990000
(0946688476.127432) can0 19B50009#BFC4C10000938E00
(0946688476.128041) can0 00000103#0101010101010101
(0946688476.131375) can0 00000001#EDFF0000FFFF0000
(0946688476.131643) can0 00000002#2EFC00007600D3FF
(0946688476.132644) can0 00000007#1908C5009B
(0946688476.138030) can0 00000103#0101010101010101
(0946688476.141451) can0 00000001#EDFF0000FFFF0000
(0946688476.141746) can0 00000002#2EFC00007600D3FF
(0946688476.147975) can0 18FF1515#0000000100010000
(0946688476.148231) can0 00000103#0101010101010101
(0946688476.151571) can0 00000001#EDFF0000FFFF0000
(0946688476.151842) can0 00000002#2EFC00007600D3FF
(0946688476.158045) can0 00000103#0101010101010101
(0946688476.161656) can0 00000001#EDFF0000FFFF0000
(0946688476.161966) can0 00000002#2EFC00007600D3FF
(0946688476.162140) can0 00000303#0000
(0946688476.168048) can0 00000103#0101010101010101
(0946688476.171720) can0 00000001#EDFF0000FFFF0000
(0946688476.172034) can0 00000002#2EFC00007600D3FF
(0946688476.178045) can0 00000103#0101010101010101
(0946688476.181820) can0 00000001#EDFF0000FFFF0000
(0946688476.182117) can0 00000002#2EFC00007600D3FF
(0946688476.188011) can0 00000103#0101010101010101
(0946688476.191931) can0 00000001#EDFF0000FFFF0000
(0946688476.192208) can0 00000002#2EFC00007600D3FF
(0946688476.193106) can0 00000303#0000
(0946688476.198055) can0 00000103#0101010101010101
(0946688476.201995) can0 00000001#EDFF000000000000
(0946688476.202328) can0 00000002#2EFC00007600D3FF
(0946688476.208018) can0 00000103#0101010101010101
(0946688476.212095) can0 00000001#EDFF000000000000
(0946688476.212373) can0 00000002#2EFC00007600D3FF
(0946688476.218041) can0 00000103#0101010101010101
(0946688476.222209) can0 00000001#EDFF000000000000
(0946688476.222476) can0 00000002#2EFC00007600D3FF
(0946688476.226953) can0 00000008#19FF
(0946688476.227298) can0 00000009#19
(0946688476.228025) can0 00000103#0101010101010101
(0946688476.232289) can0 00000001#EDFF000000000000
(0946688476.232589) can0 00000002#2FFC00007600D3FF
(0946688476.238032) can0 00000103#0101010101010101
(0946688476.241546) can0 0000000C#19FF
(0946688476.241913) can0 0000000D#19
(0946688476.242413) can0 00000001#EDFF000000000000
(0946688476.242712) can0 00000002#2FFC00007600D3FF
(0946688476.247723) can0 00000010#19FF
(0946688476.247992) can0 18FF1515#0000000100010000
(0946688476.248129) can0 00000011#19
(0946688476.248422) can0 00000103#0101010101010101
(0946688476.252180) can0 00000014#19FF
(0946688476.252488) can0 00000001#EDFF0000FFFF0000
(0946688476.252767) can0 00000002#2EFC00007600D3FF
(0946688476.258052) can0 00000103#0101010101010101
(0946688476.263328) can0 00000001#EDFF0000FFFF0000
(0946688476.263628) can0 00000002#2EFC00007600D3FF
(0946688476.268048) can0 00000103#0101010101010101
(0946688476.273429) can0 00000001#EDFF0000FFFF0000
(0946688476.273724) can0 00000002#2EFC00007600D3FF
(0946688476.278044) can0 00000103#0101010101010101
(0946688476.283545) can0 00000001#EDFF0000FFFF0000
(0946688476.283831) can0 00000002#2EFC00007600D3FF
(0946688476.288039) can0 00000103#0101010101010101
(0946688476.288910) can0 00000303#0000
(0946688476.293628) can0 00000001#EDFF0000FFFF0000
(0946688476.293945) can0 00000002#2EFC00007600D3FF
(0946688476.298060) can0 00000103#0101010101010101
(0946688476.303720) can0 00000001#EDFF0000FFFF0000
(0946688476.304014) can0 00000002#2EFC00007600D3FF
(0946688476.308047) can0 00000103#0101010101010101
(0946688476.313831) can0 00000001#ECFF0000FFFF0000
(0946688476.314100) can0 00000002#2EFC00007600D3FF
(0946688476.318084) can0 00000103#0101010101010101
(0946688476.319850) can0 00000303#0000
(0946688476.321658) can0 19B50000#0004000000010060
(0946688476.322231) can0 19B50007#0000002700000000
(0946688476.322822) can0 19B50001#BFC4C1938E000000
(0946688476.323573) can0 19B50002#7879780000000000
(0946688476.323957) can0 00000001#EDFF000000000000
(0946688476.324219) can0 00000002#2EFC00007600D3FF
(0946688476.324524) can0 19B50003#0000000000000000
(0946688476.325166) can0 19B50008#797B7A0000000000
(0946688476.325998) can0 19B50500#0000002500003A64
(0946688476.327090) can0 19B50600#FFFF007799990000
(0946688476.327661) can0 19B50009#BFC4C10000938E00
(0946688476.328090) can0 00000103#0101010101010101
(0946688476.334021) can0 00000001#EDFF0000FFFF0000
(0946688476.334330) can0 00000002#2FFC00007600D3FF
(0946688476.338044) can0 00000103#0101010101010101
(0946688476.344108) can0 00000001#EDFF0000FFFF0000
(0946688476.344388) can0 00000002#2FFC00007600D3FF
(0946688476.347951) can0 18FF1515#0000000100010000
(0946688476.348229) can0 00000103#0101010101010101
(0946688476.354228) can0 00000001#EDFF0000FFFF0000
(0946688476.354518) can0 00000002#2EFC00007600D3FF
(0946688476.358041) can0 00000103#0101010101010101
(0946688476.364324) can0 00000001#EDFF0000FFFF0000
(0946688476.364588) can0 00000002#2EFC00007600D3FF
(0946688476.368044) can0 00000103#0101010101010101
(0946688476.374402) can0 00000001#EDFF000000000000
(0946688476.374691) can0 00000002#2EFC00007600D3FF
(0946688476.378043) can0 00000103#0101010101010101
(0946688476.384490) can0 00000001#EDFF0000FFFF0000
(0946688476.384770) can0 00000002#2FFC00007600D3FF
(0946688476.388036) can0 00000103#0101010101010101
(0946688476.394568) can0 00000001#EDFF000000000000
(0946688476.394871) can0 00000002#2FFC00007600D3FF
(0946688476.398075) can0 00000103#0101010101010101
(0946688476.404670) can0 00000001#EDFF000000000000
(0946688476.404966) can0 00000002#2FFC00007600D3FF
(0946688476.408065) can0 00000103#0101010101010101
(0946688476.414751) can0 00000001#EDFF000000000000
(0946688476.415052) can0 00000002#2EFC00007600D3FF
(0946688476.415721) can0 00000303#0000
(0946688476.418025) can0 00000103#0101010101010101
(0946688476.424865) can0 00000001#ECFF000000000000
(0946688476.425143) can0 00000002#2EFC00007600D3FF
(0946688476.428036) can0 00000103#0101010101010101
(0946688476.434984) can0 00000001#EDFF000000000000
(0946688476.435287) can0 00000002#2EFC00007600D3FF
(0946688476.438034) can0 00000103#0101010101010101
(0946688476.445034) can0 00000001#EDFF0000FFFF0000
(0946688476.445326) can0 00000002#2EFC00007600D3FF
(0946688476.446685) can0 00000303#0000
(0946688476.447989) can0 18FF1515#0000000100010000
(0946688476.448228) can0 00000103#0101010101010101
(0946688476.455966) can0 00000001#EDFF000000000000
(0946688476.456225) can0 00000002#2EFC00007600D3FF
(0946688476.458051) can0 00000103#0101010101010101
(0946688476.466017) can0 00000001#EDFF0000FFFF0000
(0946688476.466303) can0 00000002#2EFC00007600D3FF
(0946688476.468056) can0 00000103#0101010101010101
(0946688476.476123) can0 00000001#EDFF0000FFFF0000
(0946688476.476393) can0 00000002#2EFC00007600D3FF
(0946688476.478081) can0 00000103#0101010101010101
(0946688476.486204) can0 00000001#EDFF000000000000
(0946688476.486495) can0 00000002#2EFC00007600D3FF
(0946688476.488020) can0 00000103#0101010101010101
(0946688476.496353) can0 00000001#EDFF0000FFFF0000
(0946688476.496630) can0 00000002#2EFC00007600D3FF
(0946688476.498043) can0 00000103#0101010101010101
(0946688476.506406) can0 00000001#EDFF0000FFFF0000
(0946688476.506708) can0 00000002#2FFC00007600D3FF
(0946688476.508068) can0 00000103#0101010101010101
(0946688476.516499) can0 00000001#EDFF0000FFFF0000
(0946688476.516764) can0 00000002#2FFC00007600D3FF
(0946688476.518024) can0 00000103#0101010101010101
(0946688476.526572) can0 00000001#EDFF0000FFFF0000
(0946688476.526860) can0 00000002#2EFC00007600D3FF
(0946688476.528049) can0 00000103#0101010101010101
(0946688476.528348) can0 19B50000#0004000000010060
(0946688476.528969) can0 19B50007#0000002700000000
(0946688476.529569) can0 19B50001#BFC4C1938E000000
(0946688476.530134) can0 19B50002#7879780000000000
(0946688476.530726) can0 19B50003#0000000000000000
(0946688476.531305) can0 19B50008#797B7A0000000000
(0946688476.532214) can0 19B50500#0000002500003A64
(0946688476.533494) can0 19B50600#FFFF007799990000
(0946688476.534069) can0 19B50009#BFC4C10000938E00
(0946688476.536681) can0 00000001#EDFF0000FFFF0000
(0946688476.537004) can0 00000002#2FFC00007600D3FF
(0946688476.538048) can0 00000103#0101010101010101
(0946688476.546753) can0 00000001#EDFF0000FFFF0000
(0946688476.547083) can0 00000002#2EFC00007600D3FF
(0946688476.547955) can0 18FF1515#0000000100010000
(0946688476.548221) can0 00000103#0101010101010101
(0946688476.548509) can0 00000303#0000
(0946688476.556878) can0 00000001#EDFF0000FFFF0000
(0946688476.557151) can0 00000002#2EFC00007600D3FF
(0946688476.558058) can0 00000103#0101010101010101
(0946688476.566964) can0 00000001#EDFF0000FFFF0000
(0946688476.567276) can0 00000002#2EFC00007600D3FF
(0946688476.568058) can0 00000103#0101010101010101
(0946688476.573532) can0 00000303#0000
(0946688476.577041) can0 00000001#ECFF0000FFFF0000
(0946688476.577343) can0 00000002#2EFC00007600D3FF
(0946688476.578040) can0 00000103#0101010101010101
(0946688476.587131) can0 00000001#ECFF0000FFFF0000
(0946688476.587433) can0 00000002#2EFC00007600D3FF
(0946688476.588053) can0 00000103#0101010101010101
(0946688476.597242) can0 00000001#EDFF000000000000
(0946688476.597512) can0 00000002#2EFC00007600D3FF
(0946688476.598083) can0 00000103#0101010101010101
(0946688476.607407) can0 00000001#EDFF000000000000
(0946688476.607740) can0 00000002#2EFC00007600D3FF
(0946688476.608064) can0 00000103#0101010101010101
(0946688476.617461) can0 00000001#EDFF0000FFFF0000
(0946688476.617748) can0 00000002#2EFC00007600D3FF
(0946688476.618047) can0 00000103#0101010101010101
(0946688476.628074) can0 00000103#0101010101010101
(0946688476.628353) can0 00000001#EDFF000000000000
(0946688476.628632) can0 00000002#2EFC00007600D3FF
(0946688476.638050) can0 00000103#0101010101010101
(0946688476.638433) can0 00000001#EDFF000000000000
(0946688476.638738) can0 00000002#2EFC00007600D3FF
(0946688476.647968) can0 18FF1515#0000000100010000
(0946688476.648240) can0 00000103#0101010101010101
(0946688476.648547) can0 00000001#EDFF000000000000
(0946688476.648867) can0 00000002#2EFC00007600D3FF
(0946688476.658057) can0 00000103#0101010101010101
(0946688476.658764) can0 00000001#EDFF000000000000
(0946688476.659032) can0 00000002#2EFC00007600D3FF
(0946688476.668051) can0 00000103#0101010101010101
(0946688476.668830) can0 00000001#EDFF0000FFFF0000
(0946688476.669120) can0 00000002#2EFC00007600D3FF
(0946688476.673368) can0 00000303#0000
(0946688476.678047) can0 00000103#0101010101010101
(0946688476.678926) can0 00000001#EDFF000000000000
(0946688476.679219) can0 00000002#2EFC00007600D3FF
(0946688476.688040) can0 00000103#0101010101010101
(0946688476.689036) can0 00000001#EDFF000000000000
(0946688476.689297) can0 00000002#2EFC00007600D3FF
(0946688476.698056) can0 00000103#0101010101010101
(0946688476.699119) can0 00000001#EDFF000000000000
(0946688476.699431) can0 00000002#2FFC00007600D3FF
(0946688476.704358) can0 00000303#0000
(0946688476.708058) can0 00000103#0101010101010101
(0946688476.709233) can0 00000001#EDFF0000FFFF0000
(0946688476.709495) can0 00000002#2FFC00007600D3FF
(0946688476.712856) can0 00000007#1A08C5009B
(0946688476.718049) can0 00000103#0101010101010101
(0946688476.719332) can0 00000001#EDFF0000FFFF0000
(0946688476.719615) can0 00000002#2FFC00007600D3FF
(0946688476.721510) can0 19B50000#0004000000010060
(0946688476.722069) can0 19B50007#0000002700000000
(0946688476.722885) can0 19B50001#BFC4C1938E000000
(0946688476.723510) can0 19B50002#7879780000000000
(0946688476.724055) can0 19B50003#0000000000000000
(0946688476.724627) can0 19B50008#797B7A0000000000
(0946688476.725500) can0 19B50500#0000002500003A64
(0946688476.726592) can0 19B50600#FFFF007799990000
(0946688476.727184) can0 19B50009#BFC4C10000938E00
(0946688476.728044) can0 00000103#0101010101010101
(0946688476.729437) can0 00000001#EDFF0000FFFF0000
(0946688476.729703) can0 00000002#2FFC00007600D3FF
(0946688476.738082) can0 00000103#0101010101010101
(0946688476.739513) can0 00000001#EDFF0000FFFF0000
(0946688476.739771) can0 00000002#2EFC00007600D3FF
(0946688476.747958) can0 18FF1515#0000000100010000
(0946688476.748258) can0 00000103#0101010101010101
(0946688476.749586) can0 00000001#EDFF0000FFFF0000
(0946688476.749864) can0 00000002#2EFC00007600D3FF
(0946688476.758081) can0 00000103#0101010101010101
(0946688476.759678) can0 00000001#EDFF000000000000
(0946688476.759971) can0 00000002#2EFC00007600D3FF
(0946688476.768057) can0 00000103#0101010101010101
(0946688476.769765) can0 00000001#EDFF000000000000
(0946688476.770092) can0 00000002#2EFC00007600D3FF
(0946688476.778044) can0 00000103#0101010101010101
(0946688476.779863) can0 00000001#EDFF000000000000
(0946688476.780169) can0 00000002#2EFC00007600D3FF
(0946688476.788035) can0 00000103#0101010101010101
(0946688476.789980) can0 00000001#EDFF000000000000
(0946688476.790296) can0 00000002#2EFC00007600D3FF
(0946688476.798036) can0 00000103#0101010101010101
(0946688476.799214) can0 00000303#0000
(0946688476.800082) can0 00000001#EDFF000000000000
(0946688476.800367) can0 00000002#2EFC00007600D3FF
(0946688476.808100) can0 00000103#0101010101010101
(0946688476.810158) can0 00000001#EDFF000000000000
(0946688476.810448) can0 00000002#2EFC00007600D3FF
(0946688476.816408) can0 00000014#1AFF
(0946688476.816744) can0 00000015#1A
(0946688476.818064) can0 00000103#0101010101010101
(0946688476.820387) can0 00000018#1AFF
(0946688476.820764) can0 00000001#EDFF000000000000
(0946688476.821066) can0 00000002#2EFC00007600D3FF
(0946688476.828025) can0 00000103#0101010101010101
(0946688476.830137) can0 00000303#0000
(0946688476.830879) can0 00000001#EDFF000000000000
(0946688476.831171) can0 00000002#2FFC00007600D3FF
(0946688476.838045) can0 00000103#0101010101010101
(0946688476.840960) can0 00000001#EDFF000000000000
(0946688476.841251) can0 00000002#2EFC00007600D3FF
(0946688476.847996) can0 18FF1515#0000000100010000
(0946688476.848246) can0 00000103#0101010101010101
(0946688476.851088) can0 00000001#EDFF000000000000
(0946688476.851391) can0 00000002#2EFC00007600D3FF
(0946688476.858098) can0 00000103#0101010101010101
(0946688476.861160) can0 00000001#EDFF000000000000
(0946688476.861471) can0 00000002#2EFC00007600D3FF
(0946688476.868058) can0 00000103#0101010101010101
(0946688476.871231) can0 00000001#EDFF0000FFFF0000
(0946688476.871508) can0 00000002#2EFC00007600D3FF
(0946688476.878063) can0 00000103#0101010101010101
(0946688476.881346) can0 00000001#EDFF0000FFFF0000
(0946688476.881612) can0 00000002#2FFC00007600D3FF
(0946688476.888021) can0 00000103#0101010101010101
(0946688476.891426) can0 00000001#EDFF0000FFFF0000
(0946688476.891711) can0 00000002#2EFC00007600D3FF
(0946688476.898035) can0 00000103#0101010101010101
(0946688476.901506) can0 00000001#EDFF0000FFFF0000
(0946688476.901804) can0 00000002#2EFC00007600D3FF
(0946688476.908038) can0 00000103#0101010101010101
(0946688476.911671) can0 00000001#EDFF0000FFFF0000
(0946688476.911991) can0 00000002#2EFC00007600D3FF
(0946688476.918053) can0 00000103#0101010101010101
(0946688476.921682) can0 00000001#EDFF0000FFFF0000
(0946688476.921991) can0 00000002#2EFC00007600D3FF
(0946688476.922371) can0 19B50000#0004000000010060
(0946688476.922942) can0 19B50007#0000002700000000
(0946688476.923550) can0 19B50001#BFC4C1938E000000
(0946688476.924103) can0 19B50002#7879780000000000
(0946688476.924715) can0 19B50003#0000000000000000
(0946688476.925007) can0 00000303#0000
(0946688476.925321) can0 19B50008#797B7A0000000000
(0946688476.926181) can0 19B50500#0000002500003A64
(0946688476.927283) can0 19B50600#FFFF007799990000
(0946688476.927839) can0 19B50009#BFC4C10000938E00
(0946688476.928133) can0 00000103#0101010101010101
(0946688476.931830) can0 00000001#EDFF000000000000
(0946688476.932099) can0 00000002#2EFC00007500D3FF
(0946688476.938036) can0 00000103#0101010101010101
(0946688476.941890) can0 00000001#EDFF000000000000
(0946688476.942211) can0 00000002#2EFC00007500D3FF
(0946688476.947956) can0 18FF1515#0000000100010000
(0946688476.948223) can0 00000103#0101010101010101
(0946688476.952013) can0 00000001#EDFF000000000000
(0946688476.952275) can0 00000002#2EFC00007500D3FF
(0946688476.955988) can0 00000303#0000
(0946688476.958050) can0 00000103#0101010101010101
(0946688476.962108) can0 00000001#EDFF000000000000
(0946688476.962412) can0 00000002#2EFC00007500D3FF
(0946688476.968030) can0 00000103#0101010101010101
(0946688476.972227) can0 00000001#EDFF000000000000
(0946688476.972493) can0 00000002#2EFC00007500D3FF
(0946688476.978018) can0 00000103#0101010101010101
(0946688476.982317) can0 00000001#EDFF000000000000
(0946688476.982609) can0 00000002#2EFC00007500D3FF
(0946688476.988040) can0 00000103#0101010101010101
(0946688476.992373) can0 00000001#EDFF000000000000
(0946688476.992701) can0 00000002#2EFC00007500D3FF
(0946688476.998021) can0 00000103#0101010101010101
(0946688477.002466) can0 00000001#EDFF0000FFFF0000
(0946688477.002751) can0 00000002#2EFC00007500D3FF
(0946688477.008042) can0 00000103#0101010101010101
(0946688477.012586) can0 00000001#EDFF0000FFFF0000
(0946688477.012869) can0 00000002#2FFC00007500D3FF
(0946688477.018071) can0 00000103#0101010101010101
(0946688477.022656) can0 00000001#EDFF0000FFFF0000
(0946688477.022966) can0 00000002#2EFC00007500D3FF
(0946688477.028047) can0 00000103#0101010101010101
(0946688477.032786) can0 00000001#EDFF000000000000
(0946688477.033088) can0 00000002#2EFC00007500D3FF
(0946688477.038068) can0 00000103#0101010101010101
(0946688477.042859) can0 00000001#EDFF0000FFFF0000
(0946688477.043172) can0 00000002#2FFC00007500D3FF
(0946688477.047956) can0 18FF1515#0000000100010000
(0946688477.048235) can0 00000103#0101010101010101
(0946688477.053645) can0 00000001#EDFF0000FFFF0000
(0946688477.053893) can0 00000002#2FFC00007500D3FF
(0946688477.055817) can0 00000303#0000
(0946688477.058049) can0 00000103#0101010101010101
(0946688477.063732) can0 00000001#EDFF0000FFFF0000
(0946688477.063993) can0 00000002#2FFC00007500D3FF
(0946688477.068023) can0 00000103#0101010101010101
(0946688477.073854) can0 00000001#EDFF0000FFFF0000
(0946688477.074096) can0 00000002#2EFC00007500D3FF
(0946688477.078060) can0 00000103#0101010101010101
(0946688477.080797) can0 00000303#0000
(0946688477.083914) can0 00000001#EDFF0000FFFF0000
(0946688477.084179) can0 00000002#2EFC00007500D3FF
(0946688477.088035) can0 00000103#0101010101010101
(0946688477.093967) can0 00000001#EDFF0000FFFF0000
(0946688477.094296) can0 00000002#2EFC00007500D3FF
(0946688477.098040) can0 00000103#0101010101010101
(0946688477.104094) can0 00000001#EDFF0000FFFF0000
(0946688477.104376) can0 00000002#2EFC00007500D3FF
(0946688477.108087) can0 00000103#0101010101010101
(0946688477.114168) can0 00000001#EDFF0000FFFF0000
(0946688477.114460) can0 00000002#2FFC00007500D3FF
(0946688477.118060) can0 00000103#0101010101010101
(0946688477.119643) can0 19B50000#0004000000010060
(0946688477.120243) can0 19B50007#0000002700000000
(0946688477.120812) can0 19B50001#BFC4C1938E000000
(0946688477.121377) can0 19B50002#7879780000000000
(0946688477.122151) can0 19B50003#0000000000000000
(0946688477.122811) can0 19B50008#797B7A0000000000
(0946688477.123672) can0 19B50500#0000002500003A64
(0946688477.124282) can0 00000001#ECFF0000FFFF0000
(0946688477.124687) can0 00000002#2EFC00007500D3FF
(0946688477.124920) can0 19B50600#FFFF007799990000
(0946688477.125494) can0 19B50009#BFC4C10000938E00
(0946688477.128030) can0 00000103#0101010101010101
(0946688477.134362) can0 00000001#ECFF0000FFFF0000
(0946688477.134659) can0 00000002#2EFC00007500D3FF
(0946688477.138040) can0 00000103#0101010101010101
(0946688477.144459) can0 00000001#EDFF0000FFFF0000
(0946688477.144730) can0 00000002#2FFC00007500D3FF
(0946688477.147992) can0 18FF1515#0000000100010000
(0946688477.148220) can0 00000103#0101010101010101
(0946688477.154559) can0 00000001#EDFF0000FFFF0000
(0946688477.154858) can0 00000002#2FFC00007500D3FF
(0946688477.158069) can0 00000103#0101010101010101
(0946688477.164676) can0 00000001#EDFF0000FFFF0000
(0946688477.164932) can0 00000002#2EFC00007500D3FF
(0946688477.168008) can0 00000103#0101010101010101
(0946688477.174750) can0 00000001#EDFF000000000000
(0946688477.175057) can0 00000002#2EFC00007500D3FF
(0946688477.178020) can0 00000103#0101010101010101
(0946688477.180673) can0 00000303#0000
(0946688477.184874) can0 00000001#EDFF000000000000
(0946688477.185178) can0 00000002#2EFC00007500D3FF
(0946688477.188047) can0 00000103#0101010101010101
(0946688477.194998) can0 00000001#EEFF000000000000
(0946688477.195840) can0 00000002#2FFC00007500D3FF
(0946688477.198041) can0 00000103#0101010101010101
(0946688477.205753) can0 00000001#EEFF000000000000
(0946688477.206092) can0 00000002#2EFC00007500D3FF
(0946688477.208002) can0 00000103#0101010101010101
(0946688477.211639) can0 00000303#0000
(0946688477.215832) can0 00000001#EDFF000000000000
(0946688477.216160) can0 00000002#2EFC00007500D3FF
(0946688477.218007) can0 00000103#0101010101010101
(0946688477.225942) can0 00000001#EDFF0000FFFF0000
(0946688477.226213) can0 00000002#2EFC00007500D3FF
(0946688477.228018) can0 00000103#0101010101010101
(0946688477.236007) can0 00000001#EDFF0000FFFF0000
(0946688477.236320) can0 00000002#2EFC00007500D3FF
(0946688477.238051) can0 00000103#0101010101010101
(0946688477.246098) can0 00000001#ECFF0000FFFF0000
(0946688477.246367) can0 00000002#2EFC00007500D3FF
(0946688477.247976) can0 18FF1515#0000000100010000
(0946688477.248217) can0 00000103#0101010101010101
(0946688477.256172) can0 00000001#ECFF0000FFFF0000
(0946688477.256459) can0 00000002#2EFC00007500D3FF
(0946688477.258116) can0 00000103#0101010101010101
(0946688477.266288) can0 00000001#ECFF0000FFFF0000
(0946688477.266587) can0 00000002#2EFC00007500D3FF
(0946688477.268034) can0 00000103#0101010101010101
(0946688477.276361) can0 00000001#ECFF0000FFFF0000
(0946688477.276748) can0 00000002#2EFC00007500D3FF
(0946688477.278028) can0 00000103#0101010101010101
(0946688477.286451) can0 00000001#EDFF0000FFFF0000
(0946688477.286731) can0 00000002#2FFC00007500D3FF
(0946688477.287970) can0 00000007#1B08C5009B
(0946688477.288267) can0 00000103#0101010101010101
(0946688477.296575) can0 00000001#EDFF0000FFFF0000
(0946688477.296866) can0 00000002#2EFC00007500D3FF
(0946688477.298049) can0 00000103#0101010101010101
(0946688477.306623) can0 00000001#EDFF0000FFFF0000
(0946688477.306944) can0 00000002#2EFC00007500D3FF
(0946688477.307523) can0 00000303#0000
(0946688477.308160) can0 00000103#0101010101010101
(0946688477.316788) can0 00000001#EDFF0000FFFF0000
(0946688477.317084) can0 00000002#2FFC00007500D3FF
(0946688477.318244) can0 00000103#0101010101010101
(0946688477.320713) can0 19B50000#0004000000010060
(0946688477.321258) can0 19B50007#0000002700000000
(0946688477.322070) can0 19B50001#BFC4C1938E000000
(0946688477.322676) can0 19B50002#7879780000000000
(0946688477.323235) can0 19B50003#0000000000000000
(0946688477.323862) can0 19B50008#797B7A0000000000
(0946688477.324687) can0 19B50500#0000002500003A64
(0946688477.325746) can0 19B50600#FFFF007799990000
(0946688477.326373) can0 19B50009#BFC4C10000938E00
(0946688477.326873) can0 00000001#EDFF0000FFFF0000
(0946688477.327201) can0 00000002#2EFC00007500D3FF
(0946688477.328078) can0 00000103#0101010101010101
(0946688477.337036) can0 00000001#EDFF0000FFFF0000
(0946688477.337322) can0 00000002#2EFC00007500D3FF
(0946688477.338097) can0 00000103#0101010101010101
(0946688477.338448) can0 00000303#0000
(0946688477.347112) can0 00000001#EDFF0000FFFF0000
(0946688477.347449) can0 00000002#2EFC00007500D3FF
(0946688477.347968) can0 18FF1515#0000000100010000
(0946688477.348220) can0 00000103#0101010101010101
(0946688477.357267) can0 00000001#EDFF0000FFFF0000
(0946688477.357553) can0 00000002#2EFC00007500D3FF
(0946688477.358118) can0 00000103#0101010101010101
(0946688477.367371) can0 00000001#EDFF0000FFFF0000
(0946688477.368091) can0 00000103#0101010101010101
(0946688477.368501) can0 00000002#2EFC00007500D3FF
(0946688477.377454) can0 00000001#EDFF0000FFFF0000
(0946688477.377738) can0 00000002#2EFC00007500D3FF
(0946688477.378060) can0 00000103#0101010101010101
(0946688477.387201) can0 00000018#1BFF
(0946688477.387540) can0 00000001#EDFF0000FFFF0000
(0946688477.387855) can0 00000002#2EFC00007500D3FF
(0946688477.388106) can0 00000103#0101010101010101
(0946688477.398047) can0 00000103#0101010101010101
(0946688477.398357) can0 00000001#EDFF0000FFFF0000
(0946688477.398637) can0 00000002#2EFC00007500D3FF
(0946688477.408011) can0 00000103#0101010101010101
(0946688477.408522) can0 00000001#ECFF0000FFFF0000
(0946688477.408717) can0 00000002#2EFC00007500D3FF
(0946688477.418007) can0 00000103#0101010101010101
(0946688477.418547) can0 00000001#ECFF000000000000
(0946688477.418851) can0 00000002#2EFC00007500D3FF
(0946688477.428082) can0 00000103#0101010101010101
(0946688477.428712) can0 00000001#EDFF000000000000
(0946688477.429036) can0 00000002#2EFC00007500D3FF
(0946688477.438093) can0 00000103#0101010101010101
(0946688477.438824) can0 00000001#ECFF0000FFFF0000
(0946688477.439092) can0 00000002#2EFC00007500D3FF
(0946688477.440285) can0 00000303#0000
(0946688477.447968) can0 18FF1515#0000000100010000
(0946688477.448216) can0 00000103#0101010101010101
(0946688477.448898) can0 00000001#ECFF000000000000
(0946688477.449214) can0 00000002#2EFC00007500D3FF
(0946688477.458054) can0 00000103#0101010101010101
(0946688477.458970) can0 00000001#EDFF000000000000
(0946688477.459300) can0 00000002#2EFC00007500D3FF
(0946688477.465251) can0 00000303#0000
(0946688477.468115) can0 00000103#0101010101010101
(0946688477.469075) can0 00000001#EDFF000000000000
(0946688477.469402) can0 00000002#2EFC00007500D3FF
(0946688477.478085) can0 00000103#0101010101010101
(0946688477.479216) can0 00000001#EDFF0000FFFF0000
(0946688477.479475) can0 00000002#2EFC00007500D3FF
(0946688477.488067) can0 00000103#0101010101010101
(0946688477.489273) can0 00000001#EDFF0000FFFF0000
(0946688477.489593) can0 00000002#2EFC00007500D3FF
(0946688477.498037) can0 00000103#0101010101010101
(0946688477.499393) can0 00000001#EDFF0000FFFF0000
(0946688477.499727) can0 00000002#2EFC00007500D3FF
(0946688477.508034) can0 00000103#0101010101010101
(0946688477.509479) can0 00000001#EDFF0000FFFF0000
(0946688477.509760) can0 00000002#2EFC00007500D3FF
(0946688477.518037) can0 00000103#0101010101010101
(0946688477.519644) can0 00000001#EDFF0000FFFF0000
(0946688477.519908) can0 00000002#2EFC00007500D3FF
(0946688477.520216) can0 19B50000#0004000000010060
(0946688477.520855) can0 19B50007#0000002700000000
(0946688477.521642) can0 19B50001#BFC4C1938E000000
(0946688477.522295) can0 19B50002#7879780000000000
(0946688477.522816) can0 19B50003#0000000000000000
(0946688477.523398) can0 19B50008#797B7A0000000000
(0946688477.524251) can0 19B50500#0000002500003A64
(0946688477.525374) can0 19B50600#FFFF007799990000
(0946688477.525943) can0 19B50009#BFC4C10000938E00
(0946688477.528066) can0 00000103#0101010101010101
(0946688477.529671) can0 00000001#EDFF0000FFFF0000
(0946688477.529953) can0 00000002#2EFC00007500D3FF
(0946688477.538053) can0 00000103#0101010101010101
(0946688477.539747) can0 00000001#EDFF0000FFFF0000
(0946688477.540050) can0 00000002#2EFC00007500D3FF
(0946688477.547938) can0 18FF1515#0000000100010000
(0946688477.548241) can0 00000103#0101010101010101
(0946688477.549871) can0 00000001#EDFF0000FFFF0000
(0946688477.550141) can0 00000002#2EFC00007500D3FF
(0946688477.558081) can0 00000103#0101010101010101
(0946688477.559998) can0 00000001#EDFF0000FFFF0000
(0946688477.560277) can0 00000002#2EFC00007500D3FF
(0946688477.565125) can0 00000303#0000
(0946688477.568048) can0 00000103#0101010101010101
(0946688477.570090) can0 00000001#EDFF0000FFFF0000
(0946688477.570417) can0 00000002#2EFC00007500D3FF
(0946688477.578075) can0 00000103#0101010101010101
(0946688477.580901) can0 00000001#EDFF0000FFFF0000
(0946688477.581206) can0 00000002#2FFC00007500D3FF
(0946688477.588065) can0 00000103#0101010101010101
(0946688477.590997) can0 00000001#EDFF0000FFFF0000
(0946688477.591298) can0 00000002#2FFC00007500D3FF
(0946688477.596055) can0 00000303#0000
(0946688477.598032) can0 00000103#0101010101010101
(0946688477.601089) can0 00000001#EDFF0000FFFF0000
(0946688477.601393) can0 00000002#2EFC00007500D3FF
(0946688477.608036) can0 00000103#0101010101010101
(0946688477.611178) can0 00000001#EDFF0000FFFF0000
(0946688477.611477) can0 00000002#2FFC00007500D3FF
(0946688477.618094) can0 00000103#0101010101010101
(0946688477.621289) can0 00000001#EDFF000000000000
(0946688477.621556) can0 00000002#2FFC00007500D3FF
(0946688477.628046) can0 00000103#0101010101010101
(0946688477.631367) can0 00000001#EDFF0000FFFF0000
(0946688477.631670) can0 00000002#2FFC00007500D3FF
(0946688477.638065) can0 00000103#0101010101010101
(0946688477.641447) can0 00000001#EDFF0000FFFF0000
(0946688477.641737) can0 00000002#2EFC00007500D3FF
(0946688477.647938) can0 18FF1515#0000000100010000
(0946688477.648215) can0 00000103#0101010101010101
(0946688477.651539) can0 00000001#EDFF0000FFFF0000
(0946688477.651837) can0 00000002#2EFC00007500D3FF
(0946688477.658049) can0 00000103#0101010101010101
(0946688477.661649) can0 00000001#EDFF000000000000
(0946688477.661963) can0 00000002#2EFC00007500D3FF
(0946688477.668046) can0 00000103#0101010101010101
(0946688477.671713) can0 00000001#EDFF0000FFFF0000
(0946688477.672017) can0 00000002#2EFC00007500D3FF
(0946688477.678027) can0 00000103#0101010101010101
(0946688477.681853) can0 00000001#EDFF0000FFFF0000
(0946688477.682115) can0 00000002#2EFC00007500D3FF
(0946688477.688016) can0 00000103#0101010101010101
(0946688477.690947) can0 00000303#0000
(0946688477.691916) can0 00000001#EDFF0000FFFF0000
(0946688477.692225) can0 00000002#2EFC00007500D3FF
(0946688477.698048) can0 00000103#0101010101010101
(0946688477.702010) can0 00000001#EDFF0000FFFF0000
(0946688477.702298) can0 00000002#2EFC00007500D3FF
(0946688477.708038) can0 00000103#0101010101010101
(0946688477.712121) can0 00000001#EDFF0000FFFF0000
(0946688477.712395) can0 00000002#2EFC00007500D3FF
(0946688477.718010) can0 00000103#0101010101010101
(0946688477.720475) can0 19B50000#0004000000010060
(0946688477.721220) can0 19B50007#0000002700000000
(0946688477.721877) can0 19B50001#BFC4C1938E000000
(0946688477.722066) can0 00000303#0000
(0946688477.722331) can0 00000001#EDFF0000FFFF0000
(0946688477.722650) can0 00000002#2EFC00007500D3FF
(0946688477.722934) can0 19B50002#7879780000000000
(0946688477.723213) can0 19B50003#0000000000000000
(0946688477.723644) can0 19B50008#797B7A0000000000
(0946688477.724562) can0 19B50500#0000002500003A64
(0946688477.725553) can0 19B50600#FFFF007799990000
(0946688477.726167) can0 19B50009#BFC4C10000938E00
(0946688477.728044) can0 00000103#0101010101010101
(0946688477.732289) can0 00000001#EDFF0000FFFF0000
(0946688477.732566) can0 00000002#2EFC00007500D3FF
(0946688477.738021) can0 00000103#0101010101010101
(0946688477.742446) can0 00000001#EDFF000000000000
(0946688477.742737) can0 00000002#2EFC00007500D3FF
(0946688477.747937) can0 18FF1515#0000000100010000
(0946688477.748224) can0 00000103#0101010101010101
(0946688477.752530) can0 00000001#EDFF0000FFFF0000
(0946688477.753434) can0 00000002#2FFC00007500D3FF
(0946688477.758083) can0 00000103#0101010101010101
(0946688477.762637) can0 00000001#EDFF0000FFFF0000
(0946688477.762920) can0 00000002#2FFC00007500D3FF
(0946688477.768038) can0 00000103#0101010101010101
(0946688477.773332) can0 00000001#EDFF0000FFFF0000
(0946688477.773599) can0 00000002#2FFC00007500D3FF
(0946688477.778036) can0 00000103#0101010101010101
(0946688477.783425) can0 00000001#EDFF0000FFFF0000
(0946688477.783715) can0 00000002#2FFC00007500D3FF
(0946688477.788034) can0 00000103#0101010101010101
(0946688477.793520) can0 00000001#EDFF000000000000
(0946688477.793833) can0 00000002#2EFC00007500D3FF
(0946688477.798028) can0 00000103#0101010101010101
(0946688477.803663) can0 00000001#EDFF000000000000
(0946688477.803955) can0 00000002#2EFC00007500D3FF
(0946688477.808021) can0 00000103#0101010101010101
(0946688477.813747) can0 00000001#EDFF000000000000
(0946688477.814048) can0 00000002#2EFC00007500D3FF
(0946688477.818082) can0 00000103#0101010101010101
(0946688477.822692) can0 00000303#0000
(0946688477.823838) can0 00000001#ECFF0000FFFF0000
(0946688477.824159) can0 00000002#2EFC00007500D3FF
(0946688477.828038) can0 00000103#0101010101010101
(0946688477.833934) can0 00000001#ECFF0000FFFF0000
(0946688477.834215) can0 00000002#2EFC00007500D3FF
(0946688477.838060) can0 00000103#0101010101010101
(0946688477.844026) can0 00000001#ECFF0000FFFF0000
(0946688477.844322) can0 00000002#2EFC00007500D3FF
(0946688477.845253) can0 00000007#1C08C5009B
(0946688477.847673) can0 00000303#0000
(0946688477.847968) can0 18FF1515#0000000100010000
(0946688477.848259) can0 00000103#0101010101010101
(0946688477.854131) can0 00000001#EDFF000000000000
(0946688477.854458) can0 00000002#2EFC00007500D3FF
(0946688477.858086) can0 00000103#0101010101010101
(0946688477.864223) can0 00000001#EDFF000000000000
(0946688477.864513) can0 00000002#2EFC00007500D3FF
(0946688477.868082) can0 00000103#0101010101010101
(0946688477.874332) can0 00000001#EDFF000000000000
(0946688477.874640) can0 00000002#2EFC00007500D3FF
(0946688477.878085) can0 00000103#0101010101010101
(0946688477.884407) can0 00000001#EDFF000000000000
(0946688477.884714) can0 00000002#2FFC00007500D3FF
(0946688477.888035) can0 00000103#0101010101010101
(0946688477.894498) can0 00000001#EDFF000000000000
(0946688477.894800) can0 00000002#2FFC00007500D3FF
(0946688477.898064) can0 00000103#0101010101010101
(0946688477.904613) can0 00000001#EEFF000000000000
(0946688477.904880) can0 00000002#2FFC00007500D3FF
(0946688477.908048) can0 00000103#0101010101010101
(0946688477.914706) can0 00000001#EDFF000000000000
(0946688477.914997) can0 00000002#2EFC00007500D3FF
(0946688477.916920) can0 19B50000#0004000000010060
(0946688477.917489) can0 19B50007#0000002700000000
(0946688477.918080) can0 19B50001#BFC4C1938E000000
(0946688477.918339) can0 00000103#0101010101010101
(0946688477.918658) can0 19B50002#7879780000000000
(0946688477.919235) can0 19B50003#0000000000000000
(0946688477.919783) can0 19B50008#797B7A0000000000
(0946688477.920860) can0 19B50500#0000002500003A64
(0946688477.921973) can0 19B50600#FFFF007799990000
(0946688477.922526) can0 19B50009#BFC4C10000938E00
(0946688477.924791) can0 00000001#EDFF000000000000
(0946688477.925079) can0 00000002#2FFC00007500D3FF
(0946688477.928045) can0 00000103#0101010101010101
(0946688477.934933) can0 00000001#EDFF000000000000
(0946688477.935237) can0 00000002#2FFC00007500D3FF
(0946688477.938035) can0 00000103#0101010101010101
(0946688477.945017) can0 00000001#EEFF0000FFFF0000
(0946688477.945320) can0 00000002#2FFC00007500D3FF
(0946688477.947946) can0 18FF1515#0000000100010000
(0946688477.948242) can0 00000103#0101010101010101
(0946688477.952099) can0 00000018#1CFF
(0946688477.952465) can0 00000019#1C
(0946688477.954970) can0 0000001C#1CFF
(0946688477.955335) can0 0000001D#1C
(0946688477.955504) can0 00000303#0000
(0946688477.955989) can0 00000001#EDFF0000FFFF0000
(0946688477.956324) can0 00000002#2FFC00007500D3FF
(0946688477.958046) can0 00000103#0101010101010101
(0946688477.966088) can0 00000001#EDFF0000FFFF0000
(0946688477.966393) can0 00000002#2FFC00007500D3FF
(0946688477.968040) can0 00000103#0101010101010101
(0946688477.976169) can0 00000001#EDFF0000FFFF0000
(0946688477.976479) can0 00000002#2EFC00007500D3FF
(0946688477.978022) can0 00000103#0101010101010101
(0946688477.980469) can0 00000303#0000
(0946688477.986272) can0 00000001#EDFF0000FFFF0000
(0946688477.986563) can0 00000002#2EFC00007500D3FF
(0946688477.988013) can0 00000103#0101010101010101
(0946688477.996338) can0 00000001#EDFF000000000000
(0946688477.996663) can0 00000002#2EFC00007500D3FF
(0946688477.998007) can0 00000103#0101010101010101
(0946688478.006442) can0 00000001#EDFF000000000000
(0946688478.006743) can0 00000002#2EFC00007500D3FF
(0946688478.008053) can0 00000103#0101010101010101
(0946688478.016533) can0 00000001#EDFF000000000000
(0946688478.016822) can0 00000002#2FFC00007500D3FF
(0946688478.017725) can0 00000007#1D08C10000
(0946688478.018038) can0 00000103#0101010101010101
(0946688478.026642) can0 00000001#EDFF000000000000
(0946688478.026921) can0 00000002#2FFC00007500D3FF
(0946688478.028020) can0 00000103#0101010101010101
(0946688478.036712) can0 00000001#EDFF000000000000
(0946688478.037015) can0 00000002#2FFC00007500D3FF
(0946688478.038019) can0 00000103#0101010101010101
(0946688478.046851) can0 00000001#EDFF000000000000
(0946688478.047109) can0 00000002#2FFC00007500D3FF
(0946688478.047933) can0 18FF1515#0000000100010000
(0946688478.048228) can0 00000103#0101010101010101
(0946688478.056921) can0 00000001#EDFF000000000000
(0946688478.057224) can0 00000002#2FFC00007400D3FF
(0946688478.058089) can0 00000103#0101010101010101
(0946688478.067013) can0 00000001#EDFF000000000000
(0946688478.067314) can0 00000002#2FFC00007400D3FF
(0946688478.068064) can0 00000103#0101010101010101
(0946688478.077085) can0 00000001#EDFF0000FFFF0000
(0946688478.077383) can0 00000002#2FFC00007400D3FF
(0946688478.078009) can0 00000103#0101010101010101
(0946688478.082306) can0 00000303#0000
(0946688478.087202) can0 00000001#EDFF0000FFFF0000
(0946688478.087487) can0 00000002#2EFC00007400D3FF
(0946688478.088072) can0 00000103#0101010101010101
(0946688478.097290) can0 00000001#EDFF0000FFFF0000
(0946688478.097579) can0 00000002#2EFC00007400D3FF
(0946688478.098039) can0 00000103#0101010101010101
(0946688478.107531) can0 00000001#EDFF0000FFFF0000
(0946688478.108018) can0 00000103#0101010101010101
(0946688478.108613) can0 00000002#2FFC00007400D3FF
(0946688478.113276) can0 00000303#0000
(0946688478.118055) can0 00000103#0101010101010101
(0946688478.118400) can0 00000001#EDFF0000FFFF0000
(0946688478.118723) can0 00000002#2EFC00007400D3FF
(0946688478.119220) can0 19B50000#0004000000010060
(0946688478.119800) can0 19B50007#0000002700000000
(0946688478.120608) can0 19B50001#BFC4C1938E000000
(0946688478.121191) can0 19B50002#7879780000000000
(0946688478.121765) can0 19B50003#0000000000000000
(0946688478.122352) can0 19B50008#797B7A0000000000
(0946688478.123226) can0 19B50500#0000002500003A64
(0946688478.124319) can0 19B50600#FFFF007799990000
(0946688478.124891) can0 19B50009#BFC4C10000938E00
(0946688478.128048) can0 00000103#0101010101010101
(0946688478.128501) can0 00000001#EDFF0000FFFF0000
(0946688478.128831) can0 00000002#2EFC00007400D3FF
(0946688478.131449) can0 00000008#1DFF
(0946688478.131815) can0 00000009#1D
(0946688478.138012) can0 00000103#0101010101010101
(0946688478.138578) can0 00000001#EDFF0000FFFF0000
(0946688478.138871) can0 00000002#2EFC00007400D3FF
(0946688478.147319) can0 0000000C#1DFF
(0946688478.147679) can0 0000000D#1D
(0946688478.147969) can0 18FF1515#0000000100010000
(0946688478.148238) can0 00000103#0101010101010101
(0946688478.148713) can0 00000001#EDFF0000FFFF0000
(0946688478.149001) can0 00000002#2EFC00007400D3FF
(0946688478.153269) can0 00000010#1DFF
(0946688478.153630) can0 00000011#1D
(0946688478.158048) can0 00000103#0101010101010101
(0946688478.158236) can0 00000014#1DFF
(0946688478.158622) can0 00000015#1D
(0946688478.158883) can0 00000001#EDFF0000FFFF0000
(0946688478.159180) can0 00000002#2EFC00007400D3FF
(0946688478.163182) can0 00000018#1DFF
(0946688478.163543) can0 00000019#1D
(0946688478.167582) can0 0000001C#1DFF
(0946688478.168039) can0 00000103#0101010101010101
(0946688478.168218) can0 0000001D#1D
(0946688478.168879) can0 00000001#EDFF0000FFFF0000
(0946688478.169174) can0 00000002#2EFC00007400D3FF
(0946688478.178034) can0 00000103#0101010101010101
(0946688478.178968) can0 00000001#EDFF0000FFFF0000
(0946688478.179304) can0 00000002#2EFC00007400D3FF
(0946688478.188039) can0 00000103#0101010101010101
(0946688478.189079) can0 00000001#EDFF0000FFFF0000
(0946688478.189349) can0 00000002#2EFC00007400D3FF
(0946688478.198060) can0 00000103#0101010101010101
(0946688478.199208) can0 00000001#EDFF0000FFFF0000
(0946688478.199493) can0 00000002#2FFC00007400D3FF
(0946688478.208079) can0 00000103#0101010101010101
(0946688478.209240) can0 00000001#EDFF0000FFFF0000
(0946688478.209530) can0 00000002#2EFC00007400D3FF
(0946688478.215100) can0 00000303#0000
(0946688478.218063) can0 00000103#0101010101010101
(0946688478.219352) can0 00000001#EDFF0000FFFF0000
(0946688478.219634) can0 00000002#2EFC00007400D3FF
(0946688478.228038) can0 00000103#0101010101010101
(0946688478.229433) can0 00000001#EDFF0000FFFF0000
(0946688478.229728) can0 00000002#2EFC00007400D3FF
(0946688478.230568) can0 19B50108#BFC1C1C1C2C2C1C1
(0946688478.238049) can0 00000103#0101010101010101
(0946688478.239549) can0 00000001#EDFF0000FFFF0000
(0946688478.239832) can0 00000002#2EFC00007400D3FF
(0946688478.240071) can0 00000303#0000
(0946688478.246871) can0 19B50109#C3C1C1C3C1C1C1C1
(0946688478.247947) can0 18FF1515#0000000100010000
(0946688478.248212) can0 00000103#0101010101010101
(0946688478.249632) can0 00000001#EDFF0000FFFF0000
(0946688478.249928) can0 00000002#2EFC00007400D3FF
(0946688478.258057) can0 00000103#0101010101010101
(0946688478.259739) can0 00000001#EDFF0000FFFF0000
(0946688478.260023) can0 00000002#2EFC00007400D3FF
(0946688478.262727) can0 19B5010A#C2C2C2C1C2C2C1C1
(0946688478.268024) can0 00000103#0101010101010101
(0946688478.269830) can0 00000001#EDFF000000000000
(0946688478.270101) can0 00000002#2EFC00007400D3FF
(0946688478.276747) can0 19B5010B#C1C1C1C4C3C1C1C2
(0946688478.278035) can0 00000103#0101010101010101
(0946688478.279888) can0 00000001#EDFF000000000000
(0946688478.280195) can0 00000002#2EFC00007400D3FF
(0946688478.288022) can0 00000103#0101010101010101
(0946688478.289991) can0 00000001#EDFF000000000000
(0946688478.290830) can0 00000002#2EFC00007400D3FF
(0946688478.298019) can0 00000103#0101010101010101
(0946688478.300111) can0 00000001#EDFF000000000000
(0946688478.300411) can0 00000002#2EFC00007400D3FF
(0946688478.308024) can0 00000103#0101010101010101
(0946688478.310820) can0 00000001#EDFF000000000000
(0946688478.311142) can0 00000002#2EFC00007400D3FF
(0946688478.318053) can0 00000103#0101010101010101
(0946688478.320924) can0 00000001#EDFF000000000000
(0946688478.321215) can0 00000002#2EFC00007400D3FF
(0946688478.328040) can0 00000103#0101010101010101
(0946688478.328349) can0 19B50000#0004000000010060
(0946688478.329075) can0 19B50007#0000002700000000
(0946688478.329911) can0 19B50001#BFC4C1938E000000
(0946688478.330479) can0 19B50002#7879780000000000
(0946688478.331054) can0 00000001#EDFF000000000000
(0946688478.331307) can0 00000002#2EFC00007400D3FF
(0946688478.331650) can0 19B50003#0000000000000000
(0946688478.331966) can0 19B50008#797B7A0000000000
(0946688478.332867) can0 19B50500#0000002500003A64
(0946688478.334008) can0 19B50600#FFFF007799990000
(0946688478.334564) can0 19B50009#BFC4C10000938E00
(0946688478.338086) can0 00000103#0101010101010101
(0946688478.340955) can0 00000303#0000
(0946688478.341214) can0 00000001#EDFF000000000000
(0946688478.341505) can0 00000002#2EFC00007400D3FF
(0946688478.347944) can0 18FF1515#0000000100010000
(0946688478.348214) can0 00000103#0101010101010101
(0946688478.351236) can0 00000001#EDFF0000FFFF0000
(0946688478.351487) can0 00000002#2EFC00007400D3FF
(0946688478.358066) can0 00000103#0101010101010101
(0946688478.361335) can0 00000001#EDFF0000FFFF0000
(0946688478.361619) can0 00000002#2EFC00007400D3FF
(0946688478.368086) can0 00000103#0101010101010101
(0946688478.371373) can0 00000001#EDFF000000000000
(0946688478.371696) can0 00000002#2EFC00007400D3FF
(0946688478.371885) can0 00000303#0000
(0946688478.378040) can0 00000103#0101010101010101
(0946688478.381511) can0 00000001#EDFF0000FFFF0000
(0946688478.381762) can0 00000002#2EFC00007400D3FF
(0946688478.388039) can0 00000103#0101010101010101
(0946688478.391643) can0 00000001#EDFF0000FFFF0000
(0946688478.391918) can0 00000002#2EFC00007400D3FF
(0946688478.398017) can0 00000103#0101010101010101
(0946688478.401724) can0 00000001#EDFF0000FFFF0000
(0946688478.401982) can0 00000002#2EFC00007400D3FF
(0946688478.408057) can0 00000103#0101010101010101
(0946688478.411759) can0 00000001#EDFF0000FFFF0000
(0946688478.412062) can0 00000002#2EFC00007400D3FF
(0946688478.418045) can0 00000103#0101010101010101
(0946688478.421871) can0 00000001#EDFF0000FFFF0000
(0946688478.422146) can0 00000002#2EFC00007400D3FF
(0946688478.428042) can0 00000103#0101010101010101
(0946688478.429846) can0 00000007#1E03840094A40000
(0946688478.431965) can0 00000001#EDFF0000FFFF0000
(0946688478.432290) can0 00000002#2EFC00007400D3FF
(0946688478.438097) can0 00000103#0101010101010101
(0946688478.442043) can0 00000001#EDFF0000FFFF0000
(0946688478.442333) can0 00000002#2EFC00007400D3FF
(0946688478.447952) can0 18FF1515#0000000100010000
(0946688478.448208) can0 00000103#0101010101010101
(0946688478.452157) can0 00000001#ECFF0000FFFF0000
(0946688478.452470) can0 00000002#2EFC00007400D3FF
(0946688478.458076) can0 00000103#0101010101010101
(0946688478.462264) can0 00000001#ECFF0000FFFF0000
(0946688478.462540) can0 00000002#2EFC00007400D3FF
(0946688478.465751) can0 00000303#0000
(0946688478.468037) can0 00000103#0101010101010101
(0946688478.472350) can0 00000001#ECFF0000FFFF0000
(0946688478.472645) can0 00000002#2EFC00007400D3FF
(0946688478.478036) can0 00000103#0101010101010101
(0946688478.482454) can0 00000001#EDFF000000000000
(0946688478.482725) can0 00000002#2EFC00007400D3FF
(0946688478.488036) can0 00000103#0101010101010101
(0946688478.492549) can0 00000001#EDFF000000000000
(0946688478.492832) can0 00000002#2EFC00007400D3FF
(0946688478.496698) can0 00000303#0000
(0946688478.498041) can0 00000103#0101010101010101
(0946688478.503303) can0 00000001#EDFF000000000000
(0946688478.503585) can0 00000002#2EFC00007400D3FF
(0946688478.508036) can0 00000103#0101010101010101
(0946688478.513368) can0 00000001#EDFF000000000000
(0946688478.513663) can0 00000002#2FFC00007400D3FF
(0946688478.517580) can0 19B50000#0004000000010060
(0946688478.518051) can0 00000103#0101010101010101
(0946688478.518354) can0 19B50007#0000002700000000
(0946688478.518891) can0 19B50001#BFC4C1938E000000
(0946688478.519664) can0 19B50002#7879780000000000
(0946688478.520265) can0 19B50003#0000000000000000
(0946688478.520852) can0 19B50008#797B7A0000000000
(0946688478.521732) can0 19B50500#0000002500003A64
(0946688478.522837) can0 19B50600#FFFF007799990000
(0946688478.523416) can0 19B50009#BFC4C10000938E00
(0946688478.523702) can0 00000001#EDFF000000000000
(0946688478.523996) can0 00000002#2EFC00007400D3FF
(0946688478.528039) can0 00000103#0101010101010101
(0946688478.533573) can0 00000001#EDFF0000FFFF0000
(0946688478.533867) can0 00000002#2FFC00007400D3FF
(0946688478.534046) can0 00000008#1EFF
(0946688478.534536) can0 00000009#1E00787878787878
(0946688478.536087) can0 00000008#1EFF
(0946688478.536563) can0 00000009#1E06787878787878
(0946688478.538049) can0 00000103#0101010101010101
(0946688478.540170) can0 00000008#1EFF
(0946688478.540709) can0 00000009#1E0C78787878
(0946688478.543696) can0 00000001#EDFF0000FFFF0000
(0946688478.543983) can0 00000002#2EFC00007400D3FF
(0946688478.545560) can0 0000000C#1EFF
(0946688478.546094) can0 0000000D#1E00787878787878
(0946688478.547956) can0 18FF1515#0000000100010000
(0946688478.548201) can0 00000103#0101010101010101
(0946688478.550337) can0 0000000C#1EFF
(0946688478.550789) can0 0000000D#1E06787878787878
(0946688478.553771) can0 00000001#EDFF0000FFFF0000
(0946688478.554084) can0 00000002#2EFC00007400D3FF
(0946688478.558077) can0 00000103#0101010101010101
(0946688478.563866) can0 00000001#EDFF0000FFFF0000
(0946688478.564151) can0 00000002#2EFC00007400D3FF
(0946688478.568021) can0 00000103#0101010101010101
(0946688478.570057) can0 0000000C#1EFF
(0946688478.570513) can0 0000000D#1E0C78787878
(0946688478.573957) can0 00000001#EDFF0000FFFF0000
(0946688478.574231) can0 00000002#2EFC00007400D3FF
(0946688478.576667) can0 00000010#1EFF
(0946688478.577170) can0 00000011#1E00787878787878
(0946688478.578044) can0 00000103#0101010101010101
(0946688478.582190) can0 00000010#1EFF
(0946688478.582645) can0 00000011#1E06787878787878
(0946688478.584020) can0 00000001#EDFF0000FFFF0000
(0946688478.584337) can0 00000002#2EFC00007400D3FF
(0946688478.586859) can0 00000010#1EFF
(0946688478.587297) can0 00000011#1E0C78787878
(0946688478.588067) can0 00000103#0101010101010101
(0946688478.591563) can0 00000303#0000
(0946688478.592219) can0 00000014#1EFF
(0946688478.592698) can0 00000015#1E00797979797979
(0946688478.594119) can0 00000001#EDFF0000FFFF0000
(0946688478.594432) can0 00000002#2EFC00007400D3FF
(0946688478.597118) can0 00000014#1EFF
(0946688478.597590) can0 00000015#1E06797979797979
(0946688478.598041) can0 00000103#0101010101010101
(0946688478.602466) can0 00000014#1EFF
(0946688478.602935) can0 00000015#1E0C79797979
(0946688478.604247) can0 00000001#EDFF0000FFFF0000
(0946688478.604546) can0 00000002#2EFC00007400D3FF
(0946688478.607200) can0 00000018#1EFF
(0946688478.607713) can0 00000019#1E00787878787878
(0946688478.608085) can0 00000103#0101010101010101
(0946688478.612855) can0 00000018#1EFF
(0946688478.613325) can0 00000019#1E06787878787878
(0946688478.614363) can0 00000001#EDFF0000FFFF0000
(0946688478.614661) can0 00000002#2EFC00007400D3FF
(0946688478.618022) can0 00000103#0101010101010101
(0946688478.622480) can0 00000303#0000
(0946688478.624451) can0 00000001#EDFF0000FFFF0000
(0946688478.624732) can0 00000002#2EFC00007400D3FF
(0946688478.628049) can0 00000103#0101010101010101
(0946688478.629615) can0 00000018#1EFF
(0946688478.630094) can0 00000019#1E0C78787878
(0946688478.634527) can0 00000001#EDFF000000000000
(0946688478.634797) can0 00000002#2EFC00007400D3FF
(0946688478.636437) can0 0000001C#1EFF
(0946688478.636912) can0 0000001D#1E00797979797979
(0946688478.638041) can0 00000103#0101010101010101
(0946688478.641896) can0 0000001C#1EFF
(0946688478.642385) can0 0000001D#1E06797979797979
(0946688478.644674) can0 00000001#EDFF000000000000
(0946688478.644893) can0 00000002#2EFC00007400D3FF
(0946688478.646715) can0 0000001C#1EFF
(0946688478.647116) can0 0000001D#1E0C79797979
(0946688478.647939) can0 18FF1515#0000000100010000
(0946688478.648203) can0 00000103#0101010101010101
(0946688478.654698) can0 00000001#EDFF000000000000
(0946688478.655015) can0 00000002#2EFC00007400D3FF
(0946688478.658064) can0 00000103#0101010101010101
(0946688478.664835) can0 00000001#EDFF000000000000
(0946688478.665152) can0 00000002#2FFC00007400D3FF
(0946688478.668023) can0 00000103#0101010101010101
(0946688478.674918) can0 00000001#EDFF000000000000
(0946688478.675199) can0 00000002#2FFC00007400D3FF
(0946688478.678047) can0 00000103#0101010101010101
(0946688478.685020) can0 00000001#EDFF0000FFFF0000
(0946688478.685921) can0 00000002#2FFC00007400D3FF
(0946688478.688038) can0 00000103#0101010101010101
(0946688478.695901) can0 00000001#EDFF000000000000
(0946688478.696165) can0 00000002#2FFC00007400D3FF
(0946688478.698110) can0 00000103#0101010101010101
(0946688478.705953) can0 00000001#EDFF0000FFFF0000
(0946688478.706253) can0 00000002#2EFC00007400D3FF
(0946688478.708034) can0 00000103#0101010101010101
(0946688478.710290) can0 19B50200#00
(0946688478.710812) can0 19B50200#7878787878787878
(0946688478.716066) can0 00000001#EDFF0000FFFF0000
(0946688478.716347) can0 00000002#2EFC00007400D3FF
(0946688478.716549) can0 00000303#0000
(0946688478.718026) can0 00000103#0101010101010101
(0946688478.725423) can0 19B50000#0004000000020060
(0946688478.726010) can0 19B50007#0000002700000000
(0946688478.726286) can0 00000001#EDFF000000000000
(0946688478.726578) can0 00000002#2EFC00007400D3FF
(0946688478.726882) can0 19B50001#BFC4C1938E000000
(0946688478.727236) can0 19B50002#7879780000000000
(0946688478.727839) can0 19B50003#0000000000000000
(0946688478.728120) can0 00000103#0101010101010101
(0946688478.728436) can0 19B50008#797B7A0000000000
(0946688478.729488) can0 19B50500#0000002500003A64
(0946688478.730534) can0 19B50600#FFFF007799990000
(0946688478.731100) can0 19B50009#BFC4C10000938E00
(0946688478.736251) can0 00000001#EDFF0000FFFF0000
(0946688478.736542) can0 00000002#2EFC00007400D3FF
(0946688478.738044) can0 00000103#0101010101010101
(0946688478.746381) can0 00000001#EDFF000000000000
(0946688478.746634) can0 00000002#2EFC00007400D3FF
(0946688478.747287) can0 00000303#0000
(0946688478.747925) can0 18FF1515#0000000100010000
(0946688478.748202) can0 00000103#0101010101010101
(0946688478.756467) can0 00000001#EDFF0000FFFF0000
(0946688478.756753) can0 00000002#2EFC00007400D3FF
(0946688478.757007) can0 19B50201#7878787878787878
(0946688478.758041) can0 00000103#0101010101010101
(0946688478.766549) can0 00000001#EDFF0000FFFF0000
(0946688478.766845) can0 00000002#2EFC00007400D3FF
(0946688478.768039) can0 00000103#0101010101010101
(0946688478.776206) can0 19B50202#7878787878787878
(0946688478.776656) can0 00000001#EDFF0000FFFF0000
(0946688478.776988) can0 00000002#2EFC00007400D3FF
(0946688478.778052) can0 00000103#0101010101010101
(0946688478.786724) can0 00000001#EDFF0000FFFF0000
(0946688478.787021) can0 00000002#2EFC00007400D3FF
(0946688478.788048) can0 00000103#0101010101010101
(0946688478.793380) can0 19B50203#7878787878787878
(0946688478.796843) can0 00000001#EDFF0000FFFF0000
(0946688478.797163) can0 00000002#2EFC00007400D3FF
(0946688478.798020) can0 00000103#0101010101010101
(0946688478.806943) can0 00000001#EDFF000000000000
(0946688478.807281) can0 00000002#2EFC00007400D3FF
(0946688478.808018) can0 00000103#0101010101010101
(0946688478.817028) can0 00000001#EDFF0000FFFF0000
(0946688478.817320) can0 00000002#2FFC00007400D3FF
(0946688478.818031) can0 00000103#0101010101010101
(0946688478.825365) can0 19B50204#7878787878787878
(0946688478.827123) can0 00000001#EDFF0000FFFF0000
(0946688478.827412) can0 00000002#2FFC00007400D3FF
(0946688478.828053) can0 00000103#0101010101010101
(0946688478.837225) can0 00000001#EDFF0000FFFF0000
(0946688478.837507) can0 00000002#2FFC00007400D4FF
(0946688478.838082) can0 00000103#0101010101010101
(0946688478.841128) can0 00000303#0000
(0946688478.844097) can0 19B50205#7878787878787878
(0946688478.847340) can0 00000001#EDFF0000FFFF0000
(0946688478.847644) can0 00000002#2FFC00007400D4FF
(0946688478.848091) can0 18FF1515#0000000100010000
(0946688478.848296) can0 00000103#0101010101010101
(0946688478.857429) can0 00000001#EDFF0000FFFF0000
(0946688478.857728) can0 00000002#2FFC00007400D4FF
(0946688478.858035) can0 00000103#0101010101010101
(0946688478.863508) can0 19B50206#7979797979797979
(0946688478.867537) can0 00000001#EDFF0000FFFF0000
(0946688478.867836) can0 00000002#2EFC00007400D4FF
(0946688478.868106) can0 00000103#0101010101010101
(0946688478.872075) can0 00000303#0000
(0946688478.877608) can0 00000001#EDFF0000FFFF0000
(0946688478.877922) can0 00000002#2EFC00007400D4FF
(0946688478.878186) can0 00000103#0101010101010101
(0946688478.884409) can0 19B50207#7979797979797979
(0946688478.888034) can0 00000103#0101010101010101
(0946688478.888320) can0 00000001#EDFF000000000000
(0946688478.888632) can0 00000002#2EFC00007400D3FF
(0946688478.898040) can0 00000103#0101010101010101
(0946688478.898441) can0 00000001#EDFF000000000000
(0946688478.898707) can0 00000002#2EFC00007400D3FF
(0946688478.908036) can0 00000103#0101010101010101
(0946688478.908526) can0 00000001#EDFF0000FFFF0000
(0946688478.908850) can0 00000002#2FFC00007400D3FF
(0946688478.910977) can0 00000007#1F03840094A40000
(0946688478.918029) can0 00000103#0101010101010101
(0946688478.918648) can0 00000001#EDFF0000FFFF0000
(0946688478.918902) can0 00000002#2FFC00007400D3FF
(0946688478.928058) can0 00000103#0101010101010101
(0946688478.928722) can0 00000001#EDFF0000FFFF0000
(0946688478.928971) can0 00000002#2FFC00007400D3FF
(0946688478.938024) can0 00000103#0101010101010101
(0946688478.938787) can0 00000001#EDFF0000FFFF0000
(0946688478.939090) can0 00000002#2EFC00007400D3FF
(0946688478.942308) can0 19B50000#0004000000020060
(0946688478.942924) can0 19B50007#0000002700000000
(0946688478.943584) can0 19B50001#BFC4C1938E000000
(0946688478.944220) can0 19B50002#7879780000000000
(0946688478.944885) can0 19B50003#0000000000000000
(0946688478.945583) can0 19B50008#797B7A0000000000
(0946688478.946528) can0 19B50500#0000002500003A64
(0946688478.947765) can0 19B50600#FFFF007799990000
(0946688478.948054) can0 00000103#0101010101010101
(0946688478.948354) can0 18FF1515#0000000100010000
(0946688478.948657) can0 19B50009#BFC4C10000938E00
(0946688478.948973) can0 00000001#EDFF0000FFFF0000
(0946688478.949211) can0 00000002#2FFC00007400D3FF
(0946688478.958050) can0 00000103#0101010101010101
(0946688478.958992) can0 00000001#EDFF0000FFFF0000
(0946688478.959286) can0 00000002#2EFC00007400D3FF
(0946688478.968010) can0 00000103#0101010101010101
(0946688478.969082) can0 00000001#EDFF0000FFFF0000
(0946688478.969367) can0 00000002#2EFC00007400D3FF
(0946688478.971883) can0 00000303#0000
(0946688478.978057) can0 00000103#0101010101010101
(0946688478.979184) can0 00000001#EDFF0000FFFF0000
(0946688478.979457) can0 00000002#2EFC00007400D3FF
(0946688478.988041) can0 00000103#0101010101010101
(0946688478.989227) can0 00000001#EDFF0000FFFF0000
(0946688478.989508) can0 00000002#2FFC00007400D4FF
(0946688478.996915) can0 00000303#0000
(0946688478.998040) can0 00000103#0101010101010101
(0946688478.999337) can0 00000001#EDFF0000FFFF0000
(0946688478.999604) can0 00000002#2EFC00007400D4FF
(0946688479.008008) can0 00000103#0101010101010101
(0946688479.009462) can0 00000001#EDFF0000FFFF0000
(0946688479.009717) can0 00000002#2EFC00007400D4FF
(0946688479.012850) can0 00000008#1FFF
(0946688479.013424) can0 00000009#1F00787878787878
(0946688479.017999) can0 00000103#0101010101010101
(0946688479.019539) can0 00000001#EDFF0000FFFF0000
(0946688479.019804) can0 00000002#2EFC00007400D4FF
(0946688479.028019) can0 00000103#0101010101010101
(0946688479.029619) can0 00000001#EDFF0000FFFF0000
(0946688479.029901) can0 00000002#2EFC00007400D4FF
(0946688479.030118) can0 00000008#1FFF
(0946688479.030713) can0 00000009#1F06787878787878
(0946688479.038046) can0 00000103#0101010101010101
(0946688479.039698) can0 00000001#EDFF0000FFFF0000
(0946688479.040013) can0 00000002#2EFC00007400D4FF
(0946688479.047924) can0 18FF1515#0000000100010000
(0946688479.048210) can0 00000103#0101010101010101
(0946688479.049850) can0 00000001#ECFF0000FFFF0000
(0946688479.050129) can0 00000002#2EFC00007400D4FF
(0946688479.058094) can0 00000103#0101010101010101
(0946688479.060525) can0 00000001#EDFF0000FFFF0000
(0946688479.060836) can0 00000002#2EFC00007400D4FF
(0946688479.068240) can0 00000103#0101010101010101
(0946688479.070637) can0 00000001#EDFF000000000000
(0946688479.070942) can0 00000002#2EFC00007400D3FF
(0946688479.078076) can0 00000103#0101010101010101
(0946688479.081098) can0 00000001#EDFF000000000000
(0946688479.081404) can0 00000002#2EFC00007400D3FF
(0946688479.088099) can0 00000103#0101010101010101
(0946688479.092535) can0 00000001#EDFF000000000000
(0946688479.092805) can0 00000002#2FFC00007400D3FF
(0946688479.098096) can0 00000103#0101010101010101
(0946688479.103486) can0 00000001#EDFF000000000000
(0946688479.103767) can0 00000002#2FFC00007400D3FF
(0946688479.103992) can0 00000303#0000
(0946688479.108088) can0 00000103#0101010101010101
(0946688479.113600) can0 00000001#EDFF000000000000
(0946688479.113878) can0 00000002#2FFC00007400D3FF
(0946688479.116720) can0 19B50000#0004000000020060
(0946688479.117355) can0 19B50007#0000002700000000
(0946688479.117942) can0 19B50001#BFC4C1938E000000
(0946688479.118204) can0 00000103#0101010101010101
(0946688479.118901) can0 19B50002#7879780000000000
(0946688479.119458) can0 19B50003#0000000000000000
(0946688479.120025) can0 19B50008#797B7A0000000000
(0946688479.120943) can0 19B50500#0000002500003A64
(0946688479.122015) can0 19B50600#FFFF007799990000
(0946688479.122588) can0 19B50009#BFC4C10000938E00
(0946688479.124198) can0 00000001#EDFF000000000000
(0946688479.124496) can0 00000002#2FFC00007300D3FF
(0946688479.128081) can0 00000103#0101010101010101
(0946688479.128724) can0 00000303#0000
(0946688479.134357) can0 00000001#EDFF0000FFFF0000
(0946688479.134659) can0 00000002#2FFC00007300D3FF
(0946688479.138101) can0 00000103#0101010101010101
(0946688479.144455) can0 00000001#EDFF0000FFFF0000
(0946688479.144731) can0 00000002#2EFC00007300D3FF
(0946688479.147920) can0 18FF1515#0000000100010000
(0946688479.148212) can0 00000103#0101010101010101
(0946688479.154665) can0 00000001#EDFF0000FFFF0000
(0946688479.154988) can0 00000002#2FFC00007300D3FF
(0946688479.158093) can0 00000103#0101010101010101
(0946688479.164848) can0 00000001#EDFF0000FFFF0000
(0946688479.165163) can0 00000002#2FFC00007300D3FF
(0946688479.168110) can0 00000103#0101010101010101
(0946688479.174885) can0 00000001#EDFF0000FFFF0000
(0946688479.175152) can0 00000002#2EFC00007300D4FF
(0946688479.178119) can0 00000103#0101010101010101
(0946688479.184967) can0 00000001#EDFF0000FFFF0000
(0946688479.185235) can0 00000002#2EFC00007300D4FF
(0946688479.188108) can0 00000103#0101010101010101
(0946688479.196279) can0 00000001#EDFF0000FFFF0000
(0946688479.196610) can0 00000002#2EFC00007300D4FF
(0946688479.198083) can0 00000103#0101010101010101
(0946688479.206474) can0 00000001#ECFF0000FFFF0000
(0946688479.206744) can0 00000002#2EFC00007300D4FF
(0946688479.208050) can0 00000103#0101010101010101
(0946688479.216527) can0 00000001#EDFF0000FFFF0000
(0946688479.216838) can0 00000002#2EFC00007300D4FF
(0946688479.218083) can0 00000103#0101010101010101
(0946688479.227133) can0 00000001#EDFF0000FFFF0000
(0946688479.227415) can0 00000002#2EFC00007300D4FF
(0946688479.228056) can0 00000103#0101010101010101
(0946688479.228541) can0 00000303#0000
(0946688479.237241) can0 00000001#EDFF0000FFFF0000
(0946688479.237495) can0 00000002#2EFC00007300D4FF
(0946688479.238097) can0 00000103#0101010101010101
(0946688479.247356) can0 00000001#EDFF000000000000
(0946688479.247652) can0 00000002#2EFC00007300D4FF
(0946688479.247972) can0 18FF1515#0000000100010000
(0946688479.248224) can0 00000103#0101010101010101
(0946688479.257568) can0 00000001#EDFF000000000000
(0946688479.257844) can0 00000002#2EFC00007300D4FF
(0946688479.258120) can0 00000103#0101010101010101
(0946688479.259521) can0 00000303#0000
(0946688479.267653) can0 00000001#EDFF000000000000
(0946688479.267903) can0 00000002#2EFC00007300D4FF
(0946688479.268205) can0 00000103#0101010101010101
(0946688479.278107) can0 00000103#0101010101010101
(0946688479.278756) can0 00000001#EDFF000000000000
(0946688479.279042) can0 00000002#2EFC00007300D4FF
(0946688479.288101) can0 00000103#0101010101010101
(0946688479.288877) can0 00000001#EDFF0000FFFF0000
(0946688479.289181) can0 00000002#2FFC00007300D4FF
(0946688479.298133) can0 00000103#0101010101010101
(0946688479.298998) can0 00000001#EDFF0000FFFF0000
(0946688479.299358) can0 00000002#2FFC00007300D4FF
(0946688479.308123) can0 00000103#0101010101010101
(0946688479.309084) can0 00000001#EDFF0000FFFF0000
(0946688479.309366) can0 00000002#2FFC00007300D4FF
(0946688479.316999) can0 19B50000#0004000000020060
(0946688479.317605) can0 19B50007#0000002700000000
(0946688479.318089) can0 00000103#0101010101010101
(0946688479.318391) can0 19B50001#BFC4C1938E000000
(0946688479.319053) can0 19B50002#7879780000000000
(0946688479.319343) can0 00000001#EDFF0000FFFF0000
(0946688479.319644) can0 00000002#2EFC00007300D4FF
(0946688479.319936) can0 19B50003#0000000000000000
(0946688479.320213) can0 19B50008#797B7A0000000000
(0946688479.321139) can0 19B50500#0000002500003A64
(0946688479.322248) can0 19B50600#FFFF007799990000
(0946688479.322820) can0 19B50009#BFC4C10000938E00
(0946688479.328111) can0 00000103#0101010101010101
(0946688479.329333) can0 00000001#EDFF0000FFFF0000
(0946688479.330129) can0 00000002#2EFC00007300D4FF
(0946688479.338097) can0 00000103#0101010101010101
(0946688479.339411) can0 00000001#EDFF0000FFFF0000
(0946688479.339726) can0 00000002#2EFC00007300D4FF
(0946688479.347930) can0 18FF1515#0000000100010000
(0946688479.348203) can0 00000103#0101010101010101
(0946688479.349526) can0 00000001#EDFF0000FFFF0000
(0946688479.349840) can0 00000002#2EFC00007300D4FF
(0946688479.355383) can0 00000303#0000
(0946688479.358213) can0 00000103#0101010101010101
(0946688479.359869) can0 00000001#EDFF0000FFFF0000
(0946688479.360121) can0 00000002#2EFC00007300D4FF
(0946688479.368087) can0 00000103#0101010101010101
(0946688479.369903) can0 00000001#EDFF0000FFFF0000
(0946688479.370172) can0 00000002#2FFC00007300D4FF
(0946688479.378116) can0 00000103#0101010101010101
(0946688479.380017) can0 00000001#EDFF0000FFFF0000
(0946688479.380346) can0 00000002#2EFC00007300D4FF
(0946688479.386345) can0 00000303#0000
(0946688479.388096) can0 00000103#0101010101010101
(0946688479.390149) can0 00000001#EDFF0000FFFF0000
(0946688479.390452) can0 00000002#2EFC00007300D4FF
(0946688479.398179) can0 00000103#0101010101010101
(0946688479.400262) can0 00000001#EDFF0000FFFF0000
(0946688479.400531) can0 00000002#2EFC00007300D4FF
(0946688479.408101) can0 00000103#0101010101010101
(0946688479.410401) can0 00000001#EDFF0000FFFF0000
(0946688479.410656) can0 00000002#2EFC00007300D4FF
(0946688479.418091) can0 00000103#0101010101010101
(0946688479.421330) can0 00000001#EDFF000000000000
(0946688479.421632) can0 00000002#2EFC00007300D4FF
(0946688479.428089) can0 00000103#0101010101010101
(0946688479.431483) can0 00000001#EDFF000000000000
(0946688479.431772) can0 00000002#2EFC00007300D4FF
(0946688479.438108) can0 00000103#0101010101010101
(0946688479.442077) can0 00000001#EDFF000000000000
(0946688479.442401) can0 00000002#2EFC00007300D4FF
(0946688479.447930) can0 18FF1515#0000000100010000
(0946688479.448226) can0 00000103#0101010101010101
(0946688479.452219) can0 00000001#EDFF000000000000
(0946688479.452515) can0 00000002#2EFC00007300D4FF
(0946688479.458079) can0 00000103#0101010101010101
(0946688479.462298) can0 00000001#EDFF000000000000
(0946688479.462565) can0 00000002#2EFC00007300D4FF
(0946688479.468116) can0 00000103#0101010101010101
(0946688479.472375) can0 00000001#EDFF000000000000
(0946688479.472697) can0 00000002#2EFC00007300D4FF
(0946688479.478092) can0 00000103#0101010101010101
(0946688479.480232) can0 00000303#0000
(0946688479.482537) can0 00000001#EDFF000000000000
(0946688479.482848) can0 00000002#2EFC00007300D4FF
(0946688479.488077) can0 00000103#0101010101010101
(0946688479.492662) can0 00000001#EDFF000000000000
(0946688479.493805) can0 00000002#2EFC00007300D4FF
(0946688479.498100) can0 00000103#0101010101010101
(0946688479.502767) can0 00000001#EDFF0000FFFF0000
(0946688479.503072) can0 00000002#2EFC00007300D4FF
(0946688479.504727) can0 00000007#2003840094A40000
(0946688479.508125) can0 00000103#0101010101010101
(0946688479.511142) can0 00000303#0000
(0946688479.512880) can0 00000001#EDFF0000FFFF0000
(0946688479.513169) can0 00000002#2EFC00007300D4FF
(0946688479.517052) can0 19B50000#0004000000020060
(0946688479.517663) can0 19B50007#0000002700000000
(0946688479.518123) can0 00000103#0101010101010101
(0946688479.518434) can0 19B50001#BFC4C1938E000000
(0946688479.519127) can0 19B50002#7879780000000000
(0946688479.519735) can0 19B50003#0000000000000000
(0946688479.520304) can0 19B50008#797B7A0000000000
(0946688479.521214) can0 19B50500#0000002500003A64
(0946688479.522297) can0 19B50600#FFFF007799990000
(0946688479.522873) can0 19B50009#BFC4C10000938E00
(0946688479.524289) can0 00000001#EDFF0000FFFF0000
(0946688479.524558) can0 00000002#2FFC00007300D4FF
(0946688479.528081) can0 00000103#0101010101010101
(0946688479.534409) can0 00000001#EDFF0000FFFF0000
(0946688479.534711) can0 00000002#2FFC00007300D4FF
(0946688479.538100) can0 00000103#0101010101010101
(0946688479.544582) can0 00000001#EDFF0000FFFF0000
(0946688479.544880) can0 00000002#2FFC00007300D4FF
(0946688479.547935) can0 18FF1515#0000000100010000
(0946688479.548220) can0 00000103#0101010101010101
(0946688479.554699) can0 00000001#EDFF0000FFFF0000
(0946688479.554959) can0 00000002#2EFC00007300D4FF
(0946688479.558061) can0 00000103#0101010101010101
(0946688479.564799) can0 00000001#EDFF0000FFFF0000
(0946688479.565085) can0 00000002#2EFC00007300D4FF
(0946688479.568086) can0 00000103#0101010101010101
(0946688479.575021) can0 00000001#EDFF0000FFFF0000
(0946688479.575304) can0 00000002#2EFC00007300D4FF
(0946688479.578117) can0 00000103#0101010101010101
(0946688479.585154) can0 00000001#EDFF0000FFFF0000
(0946688479.585408) can0 00000002#2EFC00007300D4FF
(0946688479.588125) can0 00000103#0101010101010101
(0946688479.595312) can0 00000001#EDFF000000000000
(0946688479.595574) can0 00000002#2EFC00007300D4FF
(0946688479.598091) can0 00000103#0101010101010101
(0946688479.603544) can0 00000008#20FF
(0946688479.604012) can0 00000009#2000787878787878
(0946688479.605014) can0 00000303#0000
(0946688479.605384) can0 00000001#ECFF000000000000
(0946688479.605662) can0 00000002#2EFC00007300D4FF
(0946688479.608088) can0 00000103#0101010101010101
(0946688479.608360) can0 00000008#20FF
(0946688479.608869) can0 00000009#2006787878787878
(0946688479.616169) can0 00000001#ECFF000000000000
(0946688479.616431) can0 00000002#2EFC00007300D4FF
(0946688479.618098) can0 00000103#0101010101010101
(0946688479.625700) can0 00000008#20FF
(0946688479.626127) can0 00000009#200C78787878
(0946688479.626393) can0 00000001#ECFF000000000000
(0946688479.626721) can0 00000002#2EFC00007300D4FF
(0946688479.628088) can0 00000103#0101010101010101
(0946688479.631682) can0 0000000C#20FF
(0946688479.632162) can0 0000000D#2000787878787878
(0946688479.635983) can0 00000303#0000
(0946688479.636425) can0 00000001#EDFF000000000000
(0946688479.636712) can0 00000002#2EFC00007300D4FF
(0946688479.636900) can0 0000000C#20FF
(0946688479.637854) can0 0000000D#2006787878787878
(0946688479.638118) can0 00000103#0101010101010101
(0946688479.642163) can0 0000000C#20FF
(0946688479.642618) can0 0000000D#200C78787878
(0946688479.646516) can0 00000001#EDFF000000000000
(0946688479.646848) can0 00000002#2EFC00007300D4FF
(0946688479.646990) can0 00000010#20FF
(0946688479.647521) can0 00000011#2000787878787878
(0946688479.647944) can0 18FF1515#0000000100010000
(0946688479.648192) can0 00000103#0101010101010101
(0946688479.652191) can0 00000010#20FF
(0946688479.652672) can0 00000011#2006787878787878
(0946688479.656612) can0 00000001#EDFF000000000000
(0946688479.656926) can0 00000002#2EFC00007300D4FF
(0946688479.657090) can0 00000010#20FF
(0946688479.657538) can0 00000011#200C78787878
(0946688479.658044) can0 00000103#0101010101010101
(0946688479.662365) can0 00000014#20FF
(0946688479.662863) can0 00000015#2000797979797979
(0946688479.666739) can0 00000001#EDFF000000000000
(0946688479.667038) can0 00000002#2EFC00007300D4FF
(0946688479.667276) can0 00000014#20FF
(0946688479.667752) can0 00000015#2006797979797979
(0946688479.668045) can0 00000103#0101010101010101
(0946688479.672359) can0 00000014#20FF
(0946688479.672817) can0 00000015#200C79797979
(0946688479.676842) can0 00000001#EDFF000000000000
(0946688479.677125) can0 00000002#2EFC00007300D4FF
(0946688479.678124) can0 00000103#0101010101010101
(0946688479.686958) can0 00000001#EDFF000000000000
(0946688479.687238) can0 00000002#2EFC00007300D4FF
(0946688479.688077) can0 00000103#0101010101010101
(0946688479.688764) can0 00000018#20FF
(0946688479.689253) can0 00000019#2000787878787878
(0946688479.695106) can0 00000018#20FF
(0946688479.695591) can0 00000019#2006787878787878
(0946688479.697062) can0 00000001#EDFF000000000000
(0946688479.697327) can0 00000002#2FFC00007300D4FF
(0946688479.698066) can0 00000103#0101010101010101
(0946688479.700358) can0 00000018#20FF
(0946688479.700747) can0 00000019#200C78787878
(0946688479.707133) can0 00000001#EDFF0000FFFF0000
(0946688479.707420) can0 00000002#2EFC00007300D4FF
(0946688479.707745) can0 0000001C#20FF
(0946688479.708065) can0 00000103#0101010101010101
(0946688479.708393) can0 0000001D#2000797979797979
(0946688479.712846) can0 19B50000#0004000000020060
(0946688479.713413) can0 19B50007#0000002700000000
(0946688479.713964) can0 19B50001#BFC4C1938E000000
(0946688479.714569) can0 19B50002#7879780000000000
(0946688479.715176) can0 19B50003#0000000000000000
(0946688479.715737) can0 19B50008#797B7A0000000000
(0946688479.716579) can0 19B50500#0000002500003A64
(0946688479.717258) can0 00000001#EDFF0000FFFF0000
(0946688479.717573) can0 00000002#2EFC00007300D4FF
(0946688479.717841) can0 19B50600#FFFF007799990000
(0946688479.718124) can0 00000103#0101010101010101
(0946688479.718409) can0 19B50009#BFC4C10000938E00
(0946688479.727394) can0 00000001#EDFF0000FFFF0000
(0946688479.727648) can0 00000002#2EFC00007300D4FF
(0946688479.728045) can0 00000103#0101010101010101
(0946688479.731858) can0 00000303#0000
(0946688479.737460) can0 00000001#EDFF0000FFFF0000
(0946688479.737731) can0 00000002#2EFC00007300D4FF
(0946688479.738039) can0 00000103#0101010101010101
(0946688479.747552) can0 00000001#EDFF0000FFFF0000
(0946688479.747836) can0 00000002#2EFC00007300D4FF
(0946688479.748110) can0 00000103#0101010101010101
(0946688479.748413) can0 18FF1515#0000000100010000
(0946688479.757692) can0 00000001#EDFF0000FEFF0000
(0946688479.758001) can0 00000002#2EFC00007300D4FF
(0946688479.758268) can0 00000103#0101010101010101
(0946688479.762767) can0 00000303#0000
(0946688479.767766) can0 00000001#EDFF0000FEFF0000
(0946688479.768082) can0 00000002#2FFC00007300D4FF
(0946688479.768368) can0 00000103#0101010101010101
(0946688479.778023) can0 00000103#0101010101010101
(0946688479.778380) can0 00000001#EDFF000000000000
(0946688479.778656) can0 00000002#2EFC00007300D4FF
(0946688479.788041) can0 00000103#0101010101010101
(0946688479.788451) can0 00000001#EDFF000000000000
(0946688479.788751) can0 00000002#2EFC00007300D4FF
(0946688479.798037) can0 00000103#0101010101010101
(0946688479.798579) can0 00000001#EDFF000000000000
(0946688479.798849) can0 00000002#2EFC00007300D4FF
(0946688479.808093) can0 00000103#0101010101010101
(0946688479.808675) can0 00000001#EDFF000000000000
(0946688479.808930) can0 00000002#2EFC00007300D4FF
(0946688479.818104) can0 00000103#0101010101010101
(0946688479.818727) can0 00000001#EDFF000000000000
(0946688479.819041) can0 00000002#2EFC00007300D4FF
(0946688479.828051) can0 00000103#0101010101010101
(0946688479.828838) can0 00000001#EDFF000000000000
(0946688479.829102) can0 00000002#2EFC00007300D4FF
