(0946688487.010924) can0 00000001#EDFF0000ECFF0000
(0946688487.011205) can0 00000002#2FFC0000FAFF0100
(0946688487.011542) can0 00000007#2103860096A60000
(0946688487.011789) can0 00000103#0101010101010101
(0946688487.021027) can0 00000001#EDFF0000EBFF0000
(0946688487.021301) can0 00000002#2FFC0000FAFF0100
(0946688487.021610) can0 00000103#0101010101010101
(0946688487.031134) can0 00000001#EDFF0000ECFF0000
(0946688487.031393) can0 00000103#0101010101010101
(0946688487.031948) can0 00000002#2FFC0000FAFF0100
(0946688487.041123) can0 00000103#0101010101010101
(0946688487.041453) can0 00000001#EDFF0000ECFF0000
(0946688487.041718) can0 00000002#2FFC0000FAFF0100
(0946688487.051167) can0 00000103#0101010101010101
(0946688487.051441) can0 00000001#EDFF0000ECFF0000
(0946688487.051753) can0 00000002#2FFC0000FAFF0100
(0946688487.061146) can0 00000103#0101010101010101
(0946688487.061421) can0 00000001#EDFF0000ECFF0000
(0946688487.061757) can0 00000002#2FFC0000FAFF0100
(0946688487.062184) can0 18FF1515#0000000100010000
(0946688487.071141) can0 00000103#0101010101010101
(0946688487.072008) can0 00000001#EDFF0000ECFF0000
(0946688487.072295) can0 00000002#2FFC0000FAFF0100
(0946688487.081139) can0 00000103#0101010101010101
(0946688487.082057) can0 00000001#EEFF0000ECFF0000
(0946688487.082382) can0 00000002#2FFC0000FAFF0100
(0946688487.091128) can0 00000103#0101010101010101
(0946688487.092181) can0 00000001#EEFF0000EBFF0000
(0946688487.092466) can0 00000002#2FFC0000FAFF0100
(0946688487.101127) can0 00000103#0101010101010101
(0946688487.102283) can0 00000001#EEFF0000EBFF0000
(0946688487.102594) can0 00000002#2FFC0000FAFF0100
(0946688487.109622) can0 00000008#21FF
(0946688487.110164) can0 00000009#21007D7D7D7D7DFF
(0946688487.111134) can0 00000103#0101010101010101
(0946688487.112361) can0 00000001#EEFF0000ECFF0000
(0946688487.112656) can0 00000002#2FFC0000FAFF0100
(0946688487.114044) can0 00000008#21FF
(0946688487.114572) can0 00000009#2106FFFFFFFFFFFF
(0946688487.119622) can0 00000008#21FF
(0946688487.120065) can0 00000009#210CFFFFFFFF
(0946688487.121135) can0 00000103#0101010101010101
(0946688487.122471) can0 00000001#EDFF0000ECFF0000
(0946688487.122795) can0 00000002#2FFC0000FAFF0100
(0946688487.125359) can0 19B50000#0004000000020060
(0946688487.126172) can0 19B50007#0000002700000000
(0946688487.126710) can0 19B50001#C4CCC69557000000
(0946688487.127337) can0 19B50002#7D7F7D0000000000
(0946688487.127955) can0 19B50003#0000000000000000
(0946688487.128565) can0 19B50008#7D7E7D0000000000
(0946688487.129344) can0 19B50500#FFFA03E800006464
(0946688487.130429) can0 19B50600#FFFF0CE099990000
(0946688487.131009) can0 19B50009#C4CCC60000955700
(0946688487.131289) can0 00000103#0101010101010101
(0946688487.132577) can0 00000001#EDFF0000ECFF0000
(0946688487.132908) can0 00000002#2FFC0000FAFF0100
(0946688487.136998) can0 0000000C#21FF
(0946688487.137480) can0 0000000D#21007D7D7D7E7EFF
(0946688487.141124) can0 00000103#0101010101010101
(0946688487.142703) can0 00000001#EDFF0000ECFF0000
(0946688487.142995) can0 00000002#2FFC0000FAFF0100
(0946688487.143675) can0 0000000C#21FF
(0946688487.144172) can0 0000000D#2106FFFFFFFFFFFF
(0946688487.149156) can0 0000000C#21FF
(0946688487.149593) can0 0000000D#210CFFFFFFFF
(0946688487.151145) can0 00000103#0101010101010101
(0946688487.152794) can0 00000001#EDFF0000ECFF0000
(0946688487.153082) can0 00000002#2FFC0000FAFF0100
(0946688487.155687) can0 00000010#21FF
(0946688487.156205) can0 00000011#21007E7E7E7E7EFF
(0946688487.161130) can0 00000103#0101010101010101
(0946688487.162189) can0 18FF1515#0000000100010000
(0946688487.162872) can0 00000001#EDFF0000ECFF0000
(0946688487.163177) can0 00000002#2FFC0000FAFF0100
(0946688487.171170) can0 00000103#0101010101010101
(0946688487.172958) can0 00000001#EDFF0000ECFF0000
(0946688487.173252) can0 00000002#2FFC0000FAFF0100
(0946688487.173711) can0 00000010#21FF
(0946688487.174222) can0 00000011#2106FFFFFFFFFFFF
(0946688487.180143) can0 00000010#21FF
(0946688487.180575) can0 00000011#210CFFFFFFFF
(0946688487.181139) can0 00000103#0101010101010101
(0946688487.183061) can0 00000001#EDFF0000ECFF0000
(0946688487.183376) can0 00000002#2FFC0000FAFF0100
(0946688487.184536) can0 00000014#21FF
(0946688487.185098) can0 00000015#21007E7E7E7E7EFF
(0946688487.189856) can0 00000014#21FF
(0946688487.190551) can0 00000015#2106FFFFFFFFFFFF
(0946688487.191134) can0 00000103#0101010101010101
(0946688487.193163) can0 00000001#EDFF0000ECFF0000
(0946688487.193513) can0 00000002#2FFC0000FAFF0100
(0946688487.194460) can0 00000014#21FF
(0946688487.194899) can0 00000015#210CFFFFFFFF
(0946688487.199784) can0 00000018#21FF
(0946688487.200278) can0 00000019#21007D7D7D7D7DFF
(0946688487.201160) can0 00000103#0101010101010101
(0946688487.203252) can0 00000001#EEFF0000ECFF0000
(0946688487.203548) can0 00000002#2FFC0000FAFF0100
(0946688487.204292) can0 00000018#21FF
(0946688487.204806) can0 00000019#2106FFFFFFFFFFFF
(0946688487.209682) can0 00000018#21FF
(0946688487.210167) can0 00000019#210CFFFFFFFF
(0946688487.211129) can0 00000103#0101010101010101
(0946688487.213410) can0 00000001#EDFF0000ECFF0000
(0946688487.213659) can0 00000002#2FFC0000FAFF0100
(0946688487.214241) can0 0000001C#21FF
(0946688487.214766) can0 0000001D#21007E7E7E7E7DFF
(0946688487.220229) can0 0000001C#21FF
(0946688487.220931) can0 0000001D#2106FFFFFFFFFFFF
(0946688487.221185) can0 00000103#0101010101010101
(0946688487.223453) can0 00000001#EEFF0000ECFF0000
(0946688487.223738) can0 00000002#2FFC0000FAFF0100
(0946688487.231160) can0 00000103#0101010101010101
(0946688487.233552) can0 00000001#EEFF0000ECFF0000
(0946688487.233825) can0 00000002#2FFC0000FAFF0100
(0946688487.236692) can0 0000001C#21FF
(0946688487.237163) can0 0000001D#210CFFFFFFFF
(0946688487.241165) can0 00000103#0101010101010101
(0946688487.243714) can0 00000001#EDFF0000EBFF0000
(0946688487.244510) can0 00000002#2FFC0000FAFF0100
(0946688487.251164) can0 00000103#0101010101010101
(0946688487.253763) can0 00000001#EDFF0000ECFF0000
(0946688487.254094) can0 00000002#2FFC0000F9FF0100
(0946688487.261213) can0 00000103#0101010101010101
(0946688487.262180) can0 18FF1515#0000000100010000
(0946688487.263878) can0 00000001#EDFF0000ECFF0000
(0946688487.264163) can0 00000002#2FFC0000F9FF0100
(0946688487.271171) can0 00000103#0101010101010101
(0946688487.274503) can0 00000001#EDFF0000ECFF0000
(0946688487.274824) can0 00000002#2FFC0000F9FF0100
(0946688487.281162) can0 00000103#0101010101010101
(0946688487.284642) can0 00000001#EDFF0000ECFF0000
(0946688487.284933) can0 00000002#2FFC0000F9FF0100
(0946688487.291128) can0 00000103#0101010101010101
(0946688487.294759) can0 00000001#EDFF0000ECFF0000
(0946688487.295028) can0 00000002#2FFC0000F9FF0100
(0946688487.301128) can0 00000103#0101010101010101
(0946688487.304848) can0 00000001#EDFF0000ECFF0000
(0946688487.305136) can0 00000002#2FFC0000F9FF0100
(0946688487.306683) can0 19B5080B#FFFFFFFFFFFFFFFF
(0946688487.311159) can0 00000103#0101010101010101
(0946688487.314920) can0 00000001#EDFF0000ECFF0000
(0946688487.315198) can0 00000002#2FFC0000F9FF0100
(0946688487.321136) can0 00000103#0101010101010101
(0946688487.325009) can0 00000001#EDFF0000ECFF0000
(0946688487.325309) can0 00000002#2FFC0000F9FF0100
(0946688487.330233) can0 19B50000#0004000000020060
(0946688487.330834) can0 19B50007#0000002700000000
(0946688487.331179) can0 00000103#0101010101010101
(0946688487.331489) can0 19B50001#C4CCC69557000000
(0946688487.332169) can0 19B50002#7D7F7D0000000000
(0946688487.332739) can0 19B50003#0000000000000000
(0946688487.333300) can0 19B50008#7D7E7D0000000000
(0946688487.334172) can0 19B50500#FFFC03E800006464
(0946688487.335133) can0 00000001#EDFF0000ECFF0000
(0946688487.335392) can0 00000002#2FFC0000F9FF0100
(0946688487.335673) can0 19B50600#FFFF0CE099990000
(0946688487.336349) can0 19B50009#C4CCC60000955700
(0946688487.341165) can0 00000103#0101010101010101
(0946688487.345182) can0 00000001#EDFF0000ECFF0000
(0946688487.345482) can0 00000002#2FFC0000F9FF0000
(0946688487.351161) can0 00000103#0101010101010101
(0946688487.355341) can0 00000001#EEFF0000ECFF0000
(0946688487.355626) can0 00000002#2FFC0000F9FF0000
(0946688487.361162) can0 00000103#0101010101010101
(0946688487.362164) can0 18FF1515#0000000100010000
(0946688487.365395) can0 00000001#EDFF0000ECFF0000
(0946688487.365693) can0 00000002#2FFC0000F9FF0100
(0946688487.371140) can0 00000103#0101010101010101
(0946688487.375478) can0 00000001#EDFF0000ECFF0000
(0946688487.375780) can0 00000002#2FFC0000F9FF0100
(0946688487.381143) can0 00000103#0101010101010101
(0946688487.385565) can0 00000001#EEFF0000ECFF0000
(0946688487.385864) can0 00000002#2FFC0000F9FF0100
(0946688487.391130) can0 00000103#0101010101010101
(0946688487.395723) can0 00000001#EEFF0000ECFF0000
(0946688487.396011) can0 00000002#2FFC0000F9FF0100
(0946688487.401150) can0 00000103#0101010101010101
(0946688487.405785) can0 00000001#EEFF0000ECFF0000
(0946688487.406056) can0 00000002#2FFC0000F9FF0100
(0946688487.411132) can0 00000103#0101010101010101
(0946688487.415920) can0 00000001#EEFF0000ECFF0000
(0946688487.416186) can0 00000002#2FFC0000F9FF0100
(0946688487.421153) can0 00000103#0101010101010101
(0946688487.425973) can0 00000001#EDFF0000ECFF0000
(0946688487.426268) can0 00000002#2FFC0000F9FF0000
(0946688487.431126) can0 00000103#0101010101010101
(0946688487.436161) can0 00000001#EDFF0000ECFF0000
(0946688487.437042) can0 00000002#2FFC0000F9FF0000
(0946688487.441126) can0 00000103#0101010101010101
(0946688487.446877) can0 00000001#EDFF0000ECFF0000
(0946688487.447190) can0 00000002#2FFC0000F9FF0000
(0946688487.451162) can0 00000103#0101010101010101
(0946688487.457021) can0 00000001#EDFF0000ECFF0000
(0946688487.457308) can0 00000002#2FFC0000F9FF0000
(0946688487.461162) can0 00000103#0101010101010101
(0946688487.462173) can0 18FF1515#0000000100010000
(0946688487.467100) can0 00000001#EDFF0000ECFF0000
(0946688487.467393) can0 00000002#2FFC0000F9FF0000
(0946688487.471148) can0 00000103#0101010101010101
(0946688487.477225) can0 00000001#EEFF0000ECFF0000
(0946688487.477488) can0 00000002#2FFC0000F9FF0000
(0946688487.481136) can0 00000103#0101010101010101
(0946688487.487296) can0 00000001#EEFF0000ECFF0000
(0946688487.487599) can0 00000002#2FFC0000F9FF0000
(0946688487.491128) can0 00000103#0101010101010101
(0946688487.497381) can0 00000001#EEFF0000ECFF0000
(0946688487.497681) can0 00000002#2FFC0000F9FF0000
(0946688487.501152) can0 00000103#0101010101010101
(0946688487.507469) can0 00000001#EEFF0000ECFF0000
(0946688487.507762) can0 00000002#2FFC0000F9FF0000
(0946688487.511134) can0 00000103#0101010101010101
(0946688487.517586) can0 00000001#EEFF0000ECFF0000
(0946688487.517879) can0 00000002#2FFC0000F9FF0000
(0946688487.521139) can0 00000103#0101010101010101
(0946688487.527742) can0 00000001#EEFF0000ECFF0000
(0946688487.528029) can0 00000002#2FFC0000F8FF0000
(0946688487.531131) can0 00000103#0101010101010101
(0946688487.537744) can0 00000001#EEFF0000ECFF0000
(0946688487.538040) can0 00000002#2FFC0000F8FF0000
(0946688487.540875) can0 00000007#2203810091A10000
(0946688487.541139) can0 00000103#0101010101010101
(0946688487.547881) can0 00000001#EEFF0000ECFF0000
(0946688487.548156) can0 00000002#2FFC0000F8FF0000
(0946688487.551161) can0 00000103#0101010101010101
(0946688487.552154) can0 19B50000#0004000000020060
(0946688487.552703) can0 19B50007#0000002700000000
(0946688487.553298) can0 19B50001#C4CCC69557000000
(0946688487.553898) can0 19B50002#7D7F7D0000000000
(0946688487.554517) can0 19B50003#0000000000000000
(0946688487.555090) can0 19B50008#7D7E7D0000000000
(0946688487.556159) can0 19B50500#FFFC03E800006464
(0946688487.557151) can0 19B50600#FFFF0CE099990000
(0946688487.557807) can0 19B50009#C4CCC60000955700
(0946688487.558085) can0 00000001#EEFF0000ECFF0000
(0946688487.558368) can0 00000002#2FFC0000F8FF0000
(0946688487.561162) can0 00000103#0101010101010101
(0946688487.562163) can0 18FF1515#0000000100010000
(0946688487.568102) can0 00000001#EEFF0000EBFF0000
(0946688487.568401) can0 00000002#2FFC0000F9FF0000
(0946688487.571170) can0 00000103#0101010101010101
(0946688487.578178) can0 00000001#EDFF0000EBFF0000
(0946688487.578474) can0 00000002#2FFC0000F9FF0000
(0946688487.581171) can0 00000103#0101010101010101
(0946688487.588295) can0 00000001#EEFF0000EBFF0000
(0946688487.588566) can0 00000002#2FFC0000F8FF0000
(0946688487.591191) can0 00000103#0101010101010101
(0946688487.598380) can0 00000001#EDFF0000EBFF0000
(0946688487.598661) can0 00000002#2FFC0000F8FF0000
(0946688487.601199) can0 00000103#0101010101010101
(0946688487.608438) can0 00000001#EDFF0000EBFF0000
(0946688487.608762) can0 00000002#2FFC0000F8FF0000
(0946688487.611191) can0 00000103#0101010101010101
(0946688487.618543) can0 00000001#EDFF0000ECFF0000
(0946688487.618836) can0 00000002#2FFC0000F8FF0000
(0946688487.621161) can0 00000103#0101010101010101
(0946688487.628639) can0 00000001#EDFF0000ECFF0000
(0946688487.628943) can0 00000002#2FFC0000F8FF0000
(0946688487.631149) can0 00000103#0101010101010101
(0946688487.638312) can0 00000008#22FF
(0946688487.638788) can0 00000009#2200C8C6C6C6C6C6
(0946688487.639381) can0 00000001#EDFF0000ECFF0000
(0946688487.639678) can0 00000002#2FFC0000F8FF0000
(0946688487.641142) can0 00000103#0101010101010101
(0946688487.642736) can0 00000008#22FF
(0946688487.643208) can0 00000009#2206C6C6C6C6C7C6
(0946688487.648098) can0 00000008#22FF
(0946688487.648527) can0 00000009#220CC6C6C6C6
(0946688487.649506) can0 00000001#EDFF0000ECFF0000
(0946688487.649790) can0 00000002#2FFC0000F8FF0000
(0946688487.651199) can0 00000103#0101010101010101
(0946688487.652685) can0 0000000C#22FF
(0946688487.653166) can0 0000000D#2200C6C6C6C6C6C9
(0946688487.658062) can0 0000000C#22FF
(0946688487.658545) can0 0000000D#2206C6C6C6C7C6C6
(0946688487.659931) can0 00000001#EDFF0000ECFF0000
(0946688487.660231) can0 00000002#2FFC0000F8FF0000
(0946688487.661236) can0 00000103#0101010101010101
(0946688487.662160) can0 18FF1515#0000000100010000
(0946688487.670018) can0 00000001#EEFF0000ECFF0000
(0946688487.670301) can0 00000002#2FFC0000F8FF0000
(0946688487.671192) can0 00000103#0101010101010101
(0946688487.677483) can0 0000000C#22FF
(0946688487.677927) can0 0000000D#220CC9C6C6C6
(0946688487.680092) can0 00000001#EEFF0000ECFF0000
(0946688487.680404) can0 00000002#2FFC0000F8FF0000
(0946688487.681155) can0 00000103#0101010101010101
(0946688487.683660) can0 00000010#22FF
(0946688487.684169) can0 00000011#2200C6C6C6C6C6C6
(0946688487.689103) can0 00000010#22FF
(0946688487.689583) can0 00000011#2206C6C6C6C6C6C6
(0946688487.690212) can0 00000001#EEFF0000ECFF0000
(0946688487.690494) can0 00000002#2FFC0000F8FF0000
(0946688487.691176) can0 00000103#0101010101010101
(0946688487.693656) can0 00000010#22FF
(0946688487.694102) can0 00000011#220CC6C6C6C6
(0946688487.699040) can0 00000014#22FF
(0946688487.699522) can0 00000015#2200C6C6C6C6C6C6
(0946688487.700290) can0 00000001#EEFF0000ECFF0000
(0946688487.700570) can0 00000002#2FFC0000F8FF0000
(0946688487.701190) can0 00000103#0101010101010101
(0946688487.703685) can0 00000014#22FF
(0946688487.704164) can0 00000015#2206C6C6C6C6C6C6
(0946688487.709064) can0 00000014#22FF
(0946688487.709520) can0 00000015#220CC6C6C6C6
(0946688487.710380) can0 00000001#EDFF0000ECFF0000
(0946688487.710687) can0 00000002#2FFC0000F8FF0000
(0946688487.711136) can0 00000103#0101010101010101
(0946688487.713764) can0 00000018#22FF
(0946688487.714543) can0 00000019#2200C4C6C6C6C7C7
(0946688487.719459) can0 00000018#22FF
(0946688487.719928) can0 00000019#2206C6C6C8C6C6C7
(0946688487.720490) can0 00000001#EEFF0000EBFF0000
(0946688487.720796) can0 00000002#2FFC0000F8FF0000
(0946688487.721193) can0 00000103#0101010101010101
(0946688487.725445) can0 19B50000#0004000000020060
(0946688487.726018) can0 19B50007#0000002700000000
(0946688487.726587) can0 19B50001#C4CCC69557000000
(0946688487.727190) can0 19B50002#7D7F7D0000000000
(0946688487.727792) can0 19B50003#0000000000000000
(0946688487.728361) can0 19B50008#7D7E7D0000000000
(0946688487.729177) can0 19B50500#FFFA03E800006464
(0946688487.730238) can0 19B50600#FFFF0CE099990000
(0946688487.730620) can0 00000001#EEFF0000EBFF0000
(0946688487.730926) can0 00000002#2FFC0000F8FF0000
(0946688487.731185) can0 00000103#0101010101010101
(0946688487.731499) can0 19B50009#C4CCC60000955700
(0946688487.740691) can0 00000001#EDFF0000ECFF0000
(0946688487.740992) can0 00000002#2FFC0000F8FF0000
(0946688487.741261) can0 00000103#0101010101010101
(0946688487.748517) can0 00000018#22FF
(0946688487.748999) can0 00000019#220CC5C6C6C6
(0946688487.750772) can0 00000001#EDFF0000EBFF0000
(0946688487.751055) can0 00000002#2FFC0000F8FF0000
(0946688487.751360) can0 00000103#0101010101010101
(0946688487.755594) can0 0000001C#22FF
(0946688487.756063) can0 0000001D#2200C6C6C6C6C6C6
(0946688487.760891) can0 00000001#EDFF0000ECFF0000
(0946688487.761162) can0 00000002#2FFC0000F8FF0000
(0946688487.761443) can0 00000103#0101010101010101
(0946688487.762162) can0 18FF1515#0000000100010000
(0946688487.764032) can0 0000001C#22FF
(0946688487.764542) can0 0000001D#2206C6C6C6C6C6CC
(0946688487.770242) can0 0000001C#22FF
(0946688487.770847) can0 0000001D#220CCAC6C6C6
(0946688487.771145) can0 00000001#EDFF0000EBFF0000
(0946688487.771426) can0 00000002#2FFC0000F8FF0000
(0946688487.771686) can0 00000103#0101010101010101
(0946688487.781039) can0 00000001#EDFF0000ECFF0000
(0946688487.781353) can0 00000002#2FFC0000F8FF0000
(0946688487.781638) can0 00000103#0101010101010101
(0946688487.791110) can0 00000103#0101010101010101
(0946688487.791412) can0 00000001#EEFF0000ECFF0000
(0946688487.792046) can0 00000002#2FFC0000F8FF0000
(0946688487.801139) can0 00000103#0101010101010101
(0946688487.801425) can0 00000001#EEFF0000EBFF0000
(0946688487.801719) can0 00000002#2FFC0000F8FF0000
(0946688487.811163) can0 00000103#0101010101010101
(0946688487.812003) can0 00000001#EEFF0000ECFF0000
(0946688487.812316) can0 00000002#2FFC0000F8FF0000
(0946688487.821159) can0 00000103#0101010101010101
(0946688487.822133) can0 00000001#EEFF0000ECFF0000
(0946688487.822441) can0 00000002#2FFC0000F8FF0000
(0946688487.831148) can0 00000103#0101010101010101
(0946688487.832222) can0 00000001#EDFF0000ECFF0000
(0946688487.832501) can0 00000002#2FFC0000F8FF0000
(0946688487.835722) can0 19B50100#00
(0946688487.836268) can0 19B50100#C8C6C6C6C6C6C6C6
(0946688487.841127) can0 00000103#0101010101010101
(0946688487.842307) can0 00000001#EDFF0000ECFF0000
(0946688487.842587) can0 00000002#2FFC0000F7FF0000
(0946688487.849908) can0 19B50101#C6C6C7C6C6C6C6C6
(0946688487.851156) can0 00000103#0101010101010101
(0946688487.852424) can0 00000001#EDFF0000ECFF0000
(0946688487.852724) can0 00000002#2FFC0000F7FF0000
(0946688487.861152) can0 00000103#0101010101010101
(0946688487.862168) can0 18FF1515#0000000100010000
(0946688487.862528) can0 00000001#EDFF0000ECFF0000
(0946688487.862809) can0 00000002#2FFC0000F7FF0000
(0946688487.865343) can0 19B50102#C6C6C6C6C6C9C6C6
(0946688487.871132) can0 00000103#0101010101010101
(0946688487.872626) can0 00000001#EDFF0000ECFF0000
(0946688487.872909) can0 00000002#2FFC0000F7FF0000
(0946688487.881132) can0 00000103#0101010101010101
(0946688487.882693) can0 00000001#EDFF0000ECFF0000
(0946688487.883006) can0 00000002#2FFC0000F7FF0000
(0946688487.891129) can0 00000103#0101010101010101
(0946688487.892792) can0 00000001#EDFF0000ECFF0000
(0946688487.893089) can0 00000002#2FFC0000F7FF0000
(0946688487.893692) can0 19B50103#C6C7C6C6C9C6C6C6
(0946688487.901146) can0 00000103#0101010101010101
(0946688487.902902) can0 00000001#EDFF0000ECFF0000
(0946688487.903184) can0 00000002#2FFC0000F7FF0000
(0946688487.908907) can0 19B50104#C6C6C6C6C6C6C6C6
(0946688487.911128) can0 00000103#0101010101010101
(0946688487.912986) can0 00000001#EDFF0000ECFF0000
(0946688487.913281) can0 00000002#2FFC0000F7FF0000
(0946688487.921169) can0 00000103#0101010101010101
(0946688487.923084) can0 00000001#EEFF0000ECFF0000
(0946688487.923390) can0 00000002#2FFC0000F7FF0000
(0946688487.924241) can0 19B50105#C6C6C6C6C6C6C6C6
(0946688487.931132) can0 00000103#0101010101010101
(0946688487.933181) can0 00000001#EDFF0000ECFF0000
(0946688487.933480) can0 00000002#2FFC0000F7FF0000
(0946688487.933786) can0 19B50000#0004000000020060
(0946688487.934450) can0 19B50007#0000002700000000
(0946688487.935232) can0 19B50001#C4CCC69556000000
(0946688487.935918) can0 19B50002#7D7F7D0000000000
(0946688487.936408) can0 19B50003#0000000000000000
(0946688487.936968) can0 19B50008#7D7E7D0000000000
(0946688487.937763) can0 19B50500#FFFD03E800006464
(0946688487.938870) can0 19B50600#FFFF0CE099990000
(0946688487.939433) can0 19B50009#C4CCC60000955600
(0946688487.941192) can0 00000103#0101010101010101
(0946688487.943304) can0 00000001#EDFF0000ECFF0000
(0946688487.943592) can0 00000002#2FFC0000F7FF0000
(0946688487.951162) can0 00000103#0101010101010101
(0946688487.951875) can0 19B50106#C6C6C6C6C6C6C6C6
(0946688487.953441) can0 00000001#EDFF0000ECFF0000
(0946688487.953729) can0 00000002#2FFC0000F7FF0000
(0946688487.961156) can0 00000103#0101010101010101
(0946688487.962169) can0 18FF1515#0000000100010000
(0946688487.963513) can0 00000001#EDFF0000ECFF0000
(0946688487.963804) can0 00000002#2FFC0000F7FF0000
(0946688487.968597) can0 19B50107#C6C6C6C6C6C6C6C6
(0946688487.971165) can0 00000103#0101010101010101
(0946688487.973592) can0 00000001#EEFF0000ECFF0000
(0946688487.973886) can0 00000002#2FFC0000F7FF0000
(0946688487.981144) can0 00000103#0101010101010101
(0946688487.983711) can0 00000001#EDFF0000ECFF0000
(0946688487.984005) can0 00000002#2FFC0000F7FF0000
(0946688487.991140) can0 00000103#0101010101010101
(0946688487.994473) can0 00000001#EDFF0000EBFF0000
(0946688487.994743) can0 00000002#2FFC0000F7FF0000
(0946688487.997602) can0 19B50108#C4C6C6C6C7C7C6C6
(0946688488.001165) can0 00000103#0101010101010101
(0946688488.004595) can0 00000001#EDFF0000ECFF0000
(0946688488.004861) can0 00000002#2FFC0000F7FF0000
(0946688488.011130) can0 00000103#0101010101010101
(0946688488.013668) can0 19B50109#C8C6C6C7C5C6C6C6
(0946688488.014636) can0 00000001#EDFF0000ECFF0000
(0946688488.014942) can0 00000002#2FFC0000F7FF0000
(0946688488.021127) can0 00000103#0101010101010101
(0946688488.024755) can0 00000001#EDFF0000ECFF0000
(0946688488.025021) can0 00000002#2FFC0000F7FF0000
(0946688488.028850) can0 19B5010A#C6C6C6C6C6C6C6C6
(0946688488.031130) can0 00000103#0101010101010101
(0946688488.034817) can0 00000001#EDFF0000ECFF0000
(0946688488.035141) can0 00000002#2FFC0000F7FF0000
(0946688488.037628) can0 00000007#2303810091A10000
(0946688488.041146) can0 00000103#0101010101010101
(0946688488.044906) can0 00000001#EEFF0000ECFF0000
(0946688488.045211) can0 00000002#2FFC0000F7FF0000
(0946688488.051170) can0 00000103#0101010101010101
(0946688488.055035) can0 00000001#EEFF0000ECFF0000
(0946688488.055340) can0 00000002#2FFC0000F7FF0000
(0946688488.061154) can0 00000103#0101010101010101
(0946688488.062170) can0 18FF1515#0000000100010000
(0946688488.065126) can0 00000001#EDFF0000ECFF0000
(0946688488.065417) can0 00000002#2FFC0000F7FF0000
(0946688488.071156) can0 00000103#0101010101010101
(0946688488.075232) can0 00000001#EDFF0000ECFF0000
(0946688488.075536) can0 00000002#2FFC0000F7FF0000
(0946688488.081183) can0 00000103#0101010101010101
(0946688488.085303) can0 00000001#EDFF0000ECFF0000
(0946688488.085618) can0 00000002#2FFC0000F7FF0000
(0946688488.091162) can0 00000103#0101010101010101
(0946688488.095398) can0 00000001#EDFF0000ECFF0000
(0946688488.095674) can0 00000002#2FFC0000F7FF0000
(0946688488.101171) can0 00000103#0101010101010101
(0946688488.105478) can0 00000001#EDFF0000ECFF0000
(0946688488.105772) can0 00000002#2FFC0000F7FF0000
(0946688488.111164) can0 00000103#0101010101010101
(0946688488.115550) can0 00000001#EDFF0000ECFF0000
(0946688488.115842) can0 00000002#2FFC0000F7FF0000
(0946688488.121131) can0 00000103#0101010101010101
(0946688488.124192) can0 19B50000#0004000000020060
(0946688488.124977) can0 19B50007#0000002700000000
(0946688488.125594) can0 19B50001#C4CCC69556000000
(0946688488.125845) can0 00000001#EDFF0000ECFF0000
(0946688488.126128) can0 00000002#2FFC0000F7FF0000
(0946688488.126468) can0 19B50002#7D7F7D0000000000
(0946688488.126762) can0 19B50003#0000000000000000
(0946688488.127338) can0 19B50008#7D7E7D0000000000
(0946688488.128177) can0 19B50500#FFFB03E800006464
(0946688488.129321) can0 19B50600#FFFF0CE099990000
(0946688488.129843) can0 19B50009#C4CCC60000955600
(0946688488.131182) can0 00000103#0101010101010101
(0946688488.135754) can0 00000001#EDFF0000ECFF0000
(0946688488.136044) can0 00000002#2FFC0000F7FF0000
(0946688488.141138) can0 00000103#0101010101010101
(0946688488.145832) can0 00000001#EEFF0000ECFF0000
(0946688488.146126) can0 00000002#2FFC0000F7FF0000
(0946688488.150523) can0 00000008#23FF
(0946688488.150992) can0 00000009#2300C8C6C6C6C6C6
(0946688488.151260) can0 00000103#0101010101010101
(0946688488.154826) can0 00000008#23FF
(0946688488.155304) can0 00000009#2306C6C6C6C6C6C6
(0946688488.155928) can0 00000001#EEFF0000ECFF0000
(0946688488.156255) can0 00000002#2FFC0000FAFF0000
(0946688488.160163) can0 00000008#23FF
(0946688488.160597) can0 00000009#230CC6C6C6C6
(0946688488.161142) can0 00000103#0101010101010101
(0946688488.162172) can0 18FF1515#0000000100010000
(0946688488.164857) can0 0000000C#23FF
(0946688488.165307) can0 0000000D#2300C6C6C6C6C6C9
(0946688488.166029) can0 00000001#EDFF0000ECFF0000
(0946688488.166334) can0 00000002#2FFC0000FAFF0000
(0946688488.170465) can0 0000000C#23FF
(0946688488.170956) can0 0000000D#2306C6C6C6C7C6C6
(0946688488.171224) can0 00000103#0101010101010101
(0946688488.175036) can0 0000000C#23FF
(0946688488.175461) can0 0000000D#230CC9C6C6C6
(0946688488.176158) can0 00000001#EDFF0000EBFF0000
(0946688488.177016) can0 00000002#2FFC0000FAFF0000
(0946688488.181125) can0 00000103#0101010101010101
(0946688488.182671) can0 00000010#23FF
(0946688488.183146) can0 00000011#2300C6C6C6C6C6C6
(0946688488.186962) can0 00000001#EDFF0000EBFF0000
(0946688488.187265) can0 00000002#2FFC0000FAFF0000
(0946688488.188495) can0 00000010#23FF
(0946688488.188972) can0 00000011#2306C6C6C6C6C6C6
(0946688488.191117) can0 00000103#0101010101010101
(0946688488.197030) can0 00000001#EDFF0000EBFF0000
(0946688488.197347) can0 00000002#2FFC0000FAFF0000
(0946688488.201141) can0 00000103#0101010101010101
(0946688488.205008) can0 00000010#23FF
(0946688488.205520) can0 00000011#230CC6C6C6C6
(0946688488.207134) can0 00000001#EDFF0000EBFF0000
(0946688488.207434) can0 00000002#2FFC0000FAFF0000
(0946688488.211133) can0 00000103#0101010101010101
(0946688488.211314) can0 00000014#23FF
(0946688488.211789) can0 00000015#2300C6C6C6C6C6C6
(0946688488.217242) can0 00000001#EDFF0000ECFF0000
(0946688488.217518) can0 00000002#2FFC0000F9FF0000
(0946688488.217722) can0 00000014#23FF
(0946688488.218174) can0 00000015#2306C6C6C6C6C6C6
(0946688488.221129) can0 00000103#0101010101010101
(0946688488.222385) can0 00000014#23FF
(0946688488.222854) can0 00000015#230CC6C6C6C6
(0946688488.227338) can0 00000001#EDFF0000ECFF0000
(0946688488.227592) can0 00000002#2EFC0000FBFF0000
(0946688488.227804) can0 00000018#23FF
(0946688488.228284) can0 00000019#2300C4C6C6C6C7C7
(0946688488.231141) can0 00000103#0101010101010101
(0946688488.232517) can0 00000018#23FF
(0946688488.232984) can0 00000019#2306C6C6C8C6C6C7
(0946688488.237414) can0 00000001#EEFF0000ECFF0000
(0946688488.237691) can0 00000002#2EFC0000FBFF0000
(0946688488.237887) can0 00000018#23FF
(0946688488.238324) can0 00000019#230CC5C6C6C6
(0946688488.241132) can0 00000103#0101010101010101
(0946688488.242488) can0 0000001C#23FF
(0946688488.242988) can0 0000001D#2300C6C6C6C6C6C6
(0946688488.247488) can0 00000001#EEFF0000ECFF0000
(0946688488.247781) can0 00000002#2EFC0000FBFF0000
(0946688488.247969) can0 0000001C#23FF
(0946688488.248484) can0 0000001D#2306C6C6C6C6C6CC
(0946688488.251171) can0 00000103#0101010101010101
(0946688488.257606) can0 00000001#EDFF0000ECFF0000
(0946688488.257904) can0 00000002#2FFC0000FBFF0000
(0946688488.261143) can0 00000103#0101010101010101
(0946688488.262171) can0 18FF1515#0000000100010000
(0946688488.264470) can0 0000001C#23FF
(0946688488.264911) can0 0000001D#230CCAC6C6C6
(0946688488.267720) can0 00000001#EDFF0000ECFF0000
(0946688488.268007) can0 00000002#2FFC0000FBFF0000
(0946688488.271130) can0 00000103#0101010101010101
(0946688488.277826) can0 00000001#EEFF0000ECFF0000
(0946688488.278147) can0 00000002#2FFC0000FBFF0000
(0946688488.281162) can0 00000103#0101010101010101
(0946688488.287920) can0 00000001#EEFF0000ECFF0000
(0946688488.288223) can0 00000002#2EFC0000FBFF0000
(0946688488.291127) can0 00000103#0101010101010101
(0946688488.298007) can0 00000001#EDFF0000ECFF0000
(0946688488.298304) can0 00000002#2FFC0000FBFF0000
(0946688488.301150) can0 00000103#0101010101010101
(0946688488.308098) can0 00000001#EEFF0000ECFF0000
(0946688488.308392) can0 00000002#2FFC0000FBFF0000
(0946688488.311141) can0 00000103#0101010101010101
(0946688488.318195) can0 00000001#EEFF0000ECFF0000
(0946688488.318503) can0 00000002#2FFC0000FBFF0000
(0946688488.321129) can0 00000103#0101010101010101
(0946688488.323056) can0 19B50000#0004000000020060
(0946688488.323644) can0 19B50007#0000002700000000
(0946688488.324468) can0 19B50001#C4CCC69555000000
(0946688488.325038) can0 19B50002#7D7F7D0000000000
(0946688488.325637) can0 19B50003#0000000000000000
(0946688488.326210) can0 19B50008#7D7E7D0000000000
(0946688488.327062) can0 19B50500#FFFB03E800006464
(0946688488.328146) can0 19B50600#FFFF0CE099990000
(0946688488.328439) can0 00000001#EDFF0000EBFF0000
(0946688488.328732) can0 00000002#2EFC0000FCFF0000
(0946688488.329023) can0 19B50009#C4CCC60000955500
(0946688488.331126) can0 00000103#0101010101010101
(0946688488.338405) can0 00000001#EDFF0000EBFF0000
(0946688488.338679) can0 00000002#2FFC0000FCFF0000
(0946688488.341143) can0 00000103#0101010101010101
(0946688488.348482) can0 00000001#EDFF0000ECFF0000
(0946688488.348784) can0 00000002#2EFC0000FBFF0000
(0946688488.351159) can0 00000103#0101010101010101
(0946688488.356310) can0 19B5010B#C6C6C6CCCAC6C6C6
(0946688488.358598) can0 00000001#EDFF0000ECFF0000
(0946688488.358921) can0 00000002#2EFC0000FBFF0000
(0946688488.361161) can0 00000103#0101010101010101
(0946688488.362239) can0 18FF1515#0000000100010000
(0946688488.368726) can0 00000001#EDFF0000ECFF0000
(0946688488.369515) can0 00000002#2EFC0000FBFF0000
(0946688488.371128) can0 00000103#0101010101010101
(0946688488.379425) can0 00000001#EDFF0000ECFF0000
(0946688488.379716) can0 00000002#2FFC0000FBFF0000
(0946688488.381129) can0 00000103#0101010101010101
(0946688488.389507) can0 00000001#EDFF0000ECFF0000
(0946688488.389840) can0 00000002#2FFC0000FBFF0000
(0946688488.391157) can0 00000103#0101010101010101
(0946688488.399623) can0 00000001#EDFF0000ECFF0000
(0946688488.399899) can0 00000002#2FFC0000FBFF0000
(0946688488.401175) can0 00000103#0101010101010101
(0946688488.409702) can0 00000001#EDFF0000ECFF0000
(0946688488.409998) can0 00000002#2FFC0000FBFF0000
(0946688488.411138) can0 00000103#0101010101010101
(0946688488.419797) can0 00000001#EDFF0000ECFF0000
(0946688488.420082) can0 00000002#2FFC0000FBFF0000
(0946688488.421167) can0 00000103#0101010101010101
(0946688488.429893) can0 00000001#EDFF0000ECFF0000
(0946688488.430180) can0 00000002#2FFC0000FBFF0000
(0946688488.431125) can0 00000103#0101010101010101
(0946688488.439978) can0 00000001#EDFF0000ECFF0000
(0946688488.440312) can0 00000002#2FFC0000FBFF0000
(0946688488.441167) can0 00000103#0101010101010101
(0946688488.450085) can0 00000001#EDFF0000ECFF0000
(0946688488.450371) can0 00000002#30FC0000FBFF0000
(0946688488.451162) can0 00000103#0101010101010101
(0946688488.460212) can0 00000001#EEFF0000ECFF0000
(0946688488.460517) can0 00000002#2FFC0000FBFF0000
(0946688488.461162) can0 00000103#0101010101010101
(0946688488.462178) can0 18FF1515#0000000100010000
(0946688488.470316) can0 00000001#EEFF0000ECFF0000
(0946688488.470597) can0 00000002#2FFC0000FBFF0000
(0946688488.471174) can0 00000103#0101010101010101
(0946688488.480382) can0 00000001#EEFF0000ECFF0000
(0946688488.480672) can0 00000002#2FFC0000FBFF0000
(0946688488.481160) can0 00000103#0101010101010101
(0946688488.490485) can0 00000001#EEFF0000EBFF0000
(0946688488.490763) can0 00000002#2FFC0000FBFF0000
(0946688488.491163) can0 00000103#0101010101010101
(0946688488.500511) can0 00000001#EDFF0000ECFF0000
(0946688488.500832) can0 00000002#2FFC0000FBFF0000
(0946688488.501113) can0 00000103#0101010101010101
(0946688488.510613) can0 00000001#EDFF0000ECFF0000
(0946688488.510911) can0 00000002#2FFC0000FBFF0000
(0946688488.511210) can0 00000103#0101010101010101
(0946688488.520723) can0 00000001#EDFF0000ECFF0000
(0946688488.521011) can0 00000002#2FFC0000FBFF0000
(0946688488.521288) can0 00000103#0101010101010101
(0946688488.530806) can0 00000001#EDFF0000ECFF0000
(0946688488.531087) can0 00000002#2FFC0000FBFF0000
(0946688488.531389) can0 00000103#0101010101010101
(0946688488.540883) can0 00000001#EDFF0000ECFF0000
(0946688488.541187) can0 00000002#2FFC0000FBFF0000
(0946688488.541444) can0 00000103#0101010101010101
(0946688488.550971) can0 00000001#EDFF0000ECFF0000
(0946688488.551270) can0 00000002#2FFC0000FBFF0000
(0946688488.551574) can0 00000103#0101010101010101
(0946688488.561094) can0 00000001#EDFF0000ECFF0000
(0946688488.561392) can0 00000002#2FFC0000FBFF0000
(0946688488.561692) can0 00000103#0101010101010101
(0946688488.562180) can0 18FF1515#0000000100010000
(0946688488.569604) can0 19B50000#0004000000020060
(0946688488.570190) can0 19B50007#0000002700000000
(0946688488.570741) can0 19B50001#C4CCC69555000000
(0946688488.571133) can0 00000103#0101010101010101
(0946688488.571434) can0 00000001#EEFF0000ECFF0000
(0946688488.571733) can0 00000002#2FFC0000FBFF0000
(0946688488.572126) can0 19B50002#7D7F7D0000000000
(0946688488.572383) can0 19B50003#0000000000000000
(0946688488.572990) can0 19B50008#7D7E7D0000000000
(0946688488.574030) can0 19B50500#FFFD03E800006464
(0946688488.575153) can0 19B50600#FFFF0CE099990000
(0946688488.575728) can0 19B50009#C4CCC60000955500
(0946688488.578729) can0 00000007#2403840094A40000
(0946688488.581159) can0 00000103#0101010101010101
(0946688488.581445) can0 00000001#EEFF0000ECFF0000
(0946688488.581766) can0 00000002#2FFC0000FBFF0000
(0946688488.591131) can0 00000103#0101010101010101
(0946688488.592133) can0 00000001#EEFF0000ECFF0000
(0946688488.592411) can0 00000002#2FFC0000FBFF0000
(0946688488.601129) can0 00000103#0101010101010101
(0946688488.602225) can0 00000001#EEFF0000ECFF0000
(0946688488.602513) can0 00000002#2FFC0000FBFF0000
(0946688488.611168) can0 00000103#0101010101010101
(0946688488.612303) can0 00000001#EEFF0000ECFF0000
(0946688488.612603) can0 00000002#2FFC0000FBFF0000
(0946688488.621159) can0 00000103#0101010101010101
(0946688488.622380) can0 00000001#EEFF0000ECFF0000
(0946688488.622680) can0 00000002#2FFC0000FBFF0000
(0946688488.631126) can0 00000103#0101010101010101
(0946688488.632474) can0 00000001#EEFF0000ECFF0000
(0946688488.632772) can0 00000002#2FFC0000FBFF0000
(0946688488.641147) can0 00000103#0101010101010101
(0946688488.642566) can0 00000001#EDFF0000ECFF0000
(0946688488.642889) can0 00000002#2FFC0000FBFF0000
(0946688488.651181) can0 00000103#0101010101010101
(0946688488.652689) can0 00000001#EDFF0000ECFF0000
(0946688488.653003) can0 00000002#2FFC0000FBFF0000
(0946688488.661170) can0 00000103#0101010101010101
(0946688488.662151) can0 18FF1515#0000000100010000
(0946688488.662780) can0 00000001#EDFF0000ECFF0000
(0946688488.663067) can0 00000002#2FFC0000FBFF0000
(0946688488.671147) can0 00000103#0101010101010101
(0946688488.672862) can0 00000001#EDFF0000ECFF0000
(0946688488.673162) can0 00000002#2FFC0000FBFF0000
(0946688488.677389) can0 00000008#24FF
(0946688488.677859) can0 00000009#24007D7D7D7D7D7D
(0946688488.681162) can0 00000103#0101010101010101
(0946688488.682980) can0 00000001#EEFF0000ECFF0000
(0946688488.683283) can0 00000002#2FFC0000FBFF0000
(0946688488.691132) can0 00000103#0101010101010101
(0946688488.693048) can0 00000001#EDFF0000EBFF0000
(0946688488.693382) can0 00000002#2FFC0000FAFF0000
(0946688488.693547) can0 00000008#24FF
(0946688488.694033) can0 00000009#24067D7D7D7D7D7D
(0946688488.701166) can0 00000103#0101010101010101
(0946688488.702044) can0 00000008#24FF
(0946688488.702496) can0 00000009#240C7D7D7D7D
(0946688488.703175) can0 00000001#EEFF0000EBFF0000
(0946688488.703462) can0 00000002#2FFC0000FAFF0000
(0946688488.707274) can0 0000000C#24FF
(0946688488.707761) can0 0000000D#24007E7E7E7E7E7E
(0946688488.711172) can0 00000103#0101010101010101
(0946688488.712023) can0 0000000C#24FF
(0946688488.712522) can0 0000000D#24067E7E7E7E7E7E
(0946688488.713262) can0 00000001#EEFF0000EBFF0000
(0946688488.713544) can0 00000002#2FFC0000FAFF0000
(0946688488.717349) can0 0000000C#24FF
(0946688488.717793) can0 0000000D#240C7E7E7E7E
(0946688488.721161) can0 00000103#0101010101010101
(0946688488.722921) can0 19B50000#0004000000020060
(0946688488.723387) can0 00000001#EEFF0000ECFF0000
(0946688488.723652) can0 00000002#2FFC0000FAFF0000
(0946688488.723989) can0 19B50007#0000002700000000
(0946688488.724351) can0 19B50001#C4CCC69555000000
(0946688488.724963) can0 19B50002#7D7F7D0000000000
(0946688488.725523) can0 19B50003#0000000000000000
(0946688488.726119) can0 19B50008#7D7E7D0000000000
(0946688488.726909) can0 19B50500#FFFB03E800006464
(0946688488.728002) can0 19B50600#FFFF0CE099990000
(0946688488.728611) can0 19B50009#C4CCC60000955500
(0946688488.731152) can0 00000103#0101010101010101
(0946688488.733446) can0 00000001#EEFF0000EBFF0000
(0946688488.733764) can0 00000002#2FFC0000FAFF0000
(0946688488.735824) can0 00000010#24FF
(0946688488.736337) can0 00000011#24007E7E7E7E7E7E
(0946688488.741161) can0 00000103#0101010101010101
(0946688488.741363) can0 00000010#24FF
(0946688488.741847) can0 00000011#24067E7E7E7E7E7E
(0946688488.743516) can0 00000001#EEFF0000ECFF0000
(0946688488.743827) can0 00000002#2FFC0000FAFF0000
(0946688488.746717) can0 00000010#24FF
(0946688488.747152) can0 00000011#240C7E7E7E7E
(0946688488.751131) can0 00000103#0101010101010101
(0946688488.753663) can0 00000001#EEFF0000ECFF0000
(0946688488.753960) can0 00000002#2FFC0000FAFF0000
(0946688488.761161) can0 00000103#0101010101010101
(0946688488.762149) can0 18FF1515#0000000100010000
(0946688488.763394) can0 00000014#24FF
(0946688488.763753) can0 00000001#EEFF0000ECFF0000
(0946688488.764036) can0 00000002#2FFC0000FAFF0000
(0946688488.771166) can0 00000103#0101010101010101
(0946688488.773829) can0 00000001#EDFF0000ECFF0000
(0946688488.774150) can0 00000002#2FFC0000FAFF0000
(0946688488.781162) can0 00000103#0101010101010101
(0946688488.784461) can0 00000001#EEFF0000ECFF0000
(0946688488.784763) can0 00000002#2FFC0000FAFF0000
(0946688488.791125) can0 00000103#0101010101010101
(0946688488.794539) can0 00000001#EDFF0000ECFF0000
(0946688488.794855) can0 00000002#2FFC0000FAFF0000
(0946688488.801129) can0 00000103#0101010101010101
(0946688488.804659) can0 00000001#EEFF0000ECFF0000
(0946688488.804927) can0 00000002#2FFC0000FAFF0000
(0946688488.811175) can0 00000103#0101010101010101
(0946688488.814742) can0 00000001#EDFF0000ECFF0000
(0946688488.815015) can0 00000002#2FFC0000FAFF0000
(0946688488.821137) can0 00000103#0101010101010101
(0946688488.824806) can0 00000001#EDFF0000ECFF0000
(0946688488.825133) can0 00000002#2FFC0000FAFF0000
(0946688488.831161) can0 00000103#0101010101010101
(0946688488.834894) can0 00000001#EDFF0000ECFF0000
(0946688488.835185) can0 00000002#2FFC0000FAFF0000
(0946688488.841158) can0 00000103#0101010101010101
(0946688488.844973) can0 00000001#EDFF0000ECFF0000
(0946688488.845280) can0 00000002#2EFC0000FAFF0000
(0946688488.851153) can0 00000103#0101010101010101
(0946688488.855104) can0 00000001#EEFF0000EBFF0000
(0946688488.855393) can0 00000002#30FC0000FAFF0000
(0946688488.861148) can0 00000103#0101010101010101
(0946688488.862146) can0 18FF1515#0000000100010000
(0946688488.865229) can0 00000001#EEFF0000ECFF0000
(0946688488.865520) can0 00000002#30FC0000FAFFFFFF
(0946688488.871170) can0 00000103#0101010101010101
(0946688488.875293) can0 00000001#EEFF0000ECFF0000
(0946688488.875566) can0 00000002#30FC0000FAFFFFFF
(0946688488.881159) can0 00000103#0101010101010101
(0946688488.885385) can0 00000001#EEFF0000EBFF0000
(0946688488.885680) can0 00000002#30FC0000FAFFFFFF
(0946688488.891157) can0 00000103#0101010101010101
(0946688488.895487) can0 00000001#EFFF0000EBFF0000
(0946688488.895754) can0 00000002#30FC0000FAFFFFFF
(0946688488.901171) can0 00000103#0101010101010101
(0946688488.905560) can0 00000001#EEFF0000EBFF0000
(0946688488.905877) can0 00000002#30FC0000FAFFFFFF
(0946688488.911143) can0 00000103#0101010101010101
(0946688488.915657) can0 00000001#EEFF0000EBFF0000
(0946688488.915938) can0 00000002#30FC0000FAFFFFFF
(0946688488.921138) can0 00000103#0101010101010101
(0946688488.921841) can0 19B50000#0004000000020060
(0946688488.922488) can0 19B50007#0000002700000000
(0946688488.923263) can0 19B50001#C4CCC69555000000
(0946688488.923881) can0 19B50002#7D7F7D0000000000
(0946688488.924483) can0 19B50003#0000000000000000
(0946688488.925028) can0 19B50008#7D7E7D0000000000
(0946688488.925728) can0 00000001#EEFF0000ECFF0000
(0946688488.926024) can0 00000002#30FC0000FAFFFFFF
(0946688488.926317) can0 19B50500#FFFC03E800006464
(0946688488.927350) can0 19B50600#FFFF0CE099990000
(0946688488.927876) can0 19B50009#C4CCC60000955500
(0946688488.931162) can0 00000103#0101010101010101
(0946688488.935807) can0 00000001#EEFF0000EBFF0000
(0946688488.936092) can0 00000002#2FFC0000FAFFFFFF
(0946688488.941156) can0 00000103#0101010101010101
(0946688488.945868) can0 00000001#EEFF0000EBFF0000
(0946688488.946181) can0 00000002#2FFC0000F9FFFFFF
(0946688488.951164) can0 00000103#0101010101010101
(0946688488.956013) can0 00000001#EEFF0000EBFF0000
(0946688488.956304) can0 00000002#2FFC0000F9FFFFFF
(0946688488.961128) can0 00000103#0101010101010101
(0946688488.962146) can0 18FF1515#0000000100010000
(0946688488.966129) can0 00000001#ECFF0000EBFF0000
(0946688488.966397) can0 00000002#2EFC0000F9FFFFFF
(0946688488.971169) can0 00000103#0101010101010101
(0946688488.976907) can0 00000001#ECFF0000EBFF0000
(0946688488.977212) can0 00000002#2DFC0000F9FFFFFF
(0946688488.981163) can0 00000103#0101010101010101
(0946688488.986998) can0 00000001#EBFF0000EBFF0000
(0946688488.987284) can0 00000002#2DFC0000F9FFFFFF
(0946688488.991133) can0 00000103#0101010101010101
(0946688488.997069) can0 00000001#EBFF0000EBFF0000
(0946688488.997390) can0 00000002#2DFC0000F9FFFFFF
(0946688489.001144) can0 00000103#0101010101010101
(0946688489.007156) can0 00000001#ECFF0000EBFF0000
(0946688489.007441) can0 00000002#2EFC0000F9FFFFFF
(0946688489.011159) can0 00000103#0101010101010101
(0946688489.017265) can0 00000001#ECFF0000EBFF0000
(0946688489.017554) can0 00000002#2DFC0000F9FFFFFF
(0946688489.021171) can0 00000103#0101010101010101
(0946688489.027341) can0 00000001#ECFF0000EBFF0000
(0946688489.027630) can0 00000002#2EFC0000F9FFFFFF
(0946688489.031122) can0 00000103#0101010101010101
(0946688489.037424) can0 00000001#EEFF0000EDFF0000
(0946688489.037720) can0 00000002#30FC0000F9FFFFFF
(0946688489.041158) can0 00000103#0101010101010101
(0946688489.047496) can0 00000001#EFFF0000EDFF0000
(0946688489.047805) can0 00000002#30FC0000F9FFFFFF
(0946688489.051137) can0 00000103#0101010101010101
(0946688489.057598) can0 00000001#EEFF0000EDFF0000
(0946688489.057907) can0 00000002#30FC0000F9FFFFFF
(0946688489.061132) can0 00000103#0101010101010101
(0946688489.062144) can0 18FF1515#0000000100010000
(0946688489.067758) can0 00000001#EEFF0000ECFF0000
(0946688489.068039) can0 00000002#30FC0000F9FFFFFF
(0946688489.071138) can0 00000103#0101010101010101
(0946688489.077825) can0 00000001#EDFF0000ECFF0000
(0946688489.078129) can0 00000002#2FFC0000F9FFFFFF
(0946688489.081169) can0 00000103#0101010101010101
(0946688489.087897) can0 00000001#EDFF0000ECFF0000
(0946688489.088193) can0 00000002#2FFC0000F9FFFFFF
(0946688489.091133) can0 00000103#0101010101010101
(0946688489.097989) can0 00000001#EDFF0000ECFF0000
(0946688489.098276) can0 00000002#2FFC0000F9FFFFFF
(0946688489.101153) can0 00000103#0101010101010101
(0946688489.108042) can0 00000001#EDFF0000ECFF0000
(0946688489.108370) can0 00000002#2FFC0000F9FFFFFF
(0946688489.111140) can0 00000103#0101010101010101
(0946688489.118115) can0 00000001#EDFF0000ECFF0000
(0946688489.118430) can0 00000002#2FFC0000F9FFFFFF
(0946688489.120232) can0 19B50000#0004000000020060
(0946688489.120795) can0 19B50007#0000002700000000
(0946688489.121138) can0 00000103#0101010101010101
(0946688489.121449) can0 19B50001#C4CCC69555000000
(0946688489.122138) can0 19B50002#7D7F7D0000000000
(0946688489.123010) can0 19B50003#0000000000000000
(0946688489.123614) can0 19B50008#7D7E7D0000000000
(0946688489.124395) can0 19B50500#FFFB03E800006464
(0946688489.125482) can0 19B50600#FFFF0CE099990000
(0946688489.126049) can0 19B50009#C4CCC60000955500
(0946688489.128254) can0 00000001#EDFF0000ECFF0000
(0946688489.128556) can0 00000002#2EFC0000F9FFFFFF
(0946688489.131150) can0 00000103#0101010101010101
(0946688489.138339) can0 00000001#EDFF0000ECFF0000
(0946688489.138651) can0 00000002#2EFC0000F9FFFFFF
(0946688489.141159) can0 00000103#0101010101010101
(0946688489.148452) can0 00000001#EDFF0000EBFF0000
(0946688489.148763) can0 00000002#2EFC0000F9FFFFFF
(0946688489.151130) can0 00000103#0101010101010101
(0946688489.158536) can0 00000001#EDFF0000ECFF0000
(0946688489.158837) can0 00000002#2EFC0000F9FFFFFF
(0946688489.161164) can0 00000103#0101010101010101
(0946688489.162156) can0 18FF1515#0000000100010000
(0946688489.168627) can0 00000001#EDFF0000EBFF0000
(0946688489.168916) can0 00000002#2EFC0000F9FFFFFF
(0946688489.171150) can0 00000103#0101010101010101
(0946688489.178705) can0 00000001#EDFF0000ECFF0000
(0946688489.178998) can0 00000002#2FFC0000F9FFFFFF
(0946688489.181136) can0 00000103#0101010101010101
(0946688489.189398) can0 00000001#EEFF0000ECFF0000
(0946688489.189710) can0 00000002#2FFC0000F9FFFFFF
(0946688489.191167) can0 00000103#0101010101010101
(0946688489.199473) can0 00000001#EEFF0000EBFF0000
(0946688489.199768) can0 00000002#2FFC0000F9FFFFFF
(0946688489.201130) can0 00000103#0101010101010101
(0946688489.209563) can0 00000001#EEFF0000ECFF0000
(0946688489.209881) can0 00000002#2EFC0000F9FFFFFF
(0946688489.211128) can0 00000103#0101010101010101
(0946688489.217202) can0 00000007#2503840094A40000
(0946688489.219692) can0 00000001#EEFF0000ECFF0000
(0946688489.219997) can0 00000002#2DFC0000F9FFFFFF
(0946688489.221111) can0 00000103#0101010101010101
(0946688489.229779) can0 00000001#EDFF0000ECFF0000
(0946688489.230048) can0 00000002#2EFC0000F9FFFFFF
(0946688489.231214) can0 00000103#0101010101010101
(0946688489.239855) can0 00000001#EDFF0000ECFF0000
(0946688489.240139) can0 00000002#2DFC0000F9FFFFFF
(0946688489.241158) can0 00000103#0101010101010101
(0946688489.249952) can0 00000001#EDFF0000EDFF0000
(0946688489.250246) can0 00000002#2DFC0000F9FFFFFF
(0946688489.251154) can0 00000103#0101010101010101
(0946688489.260061) can0 00000001#EDFF0000ECFF0000
(0946688489.260364) can0 00000002#2EFC0000F9FFFFFF
(0946688489.261193) can0 00000103#0101010101010101
(0946688489.262164) can0 18FF1515#0000000100010000
(0946688489.270131) can0 00000001#EDFF0000ECFF0000
(0946688489.270423) can0 00000002#2FFC0000F9FFFFFF
(0946688489.271142) can0 00000103#0101010101010101
(0946688489.280217) can0 00000001#EDFF0000EDFF0000
(0946688489.280515) can0 00000002#2FFC0000F9FFFFFF
(0946688489.281129) can0 00000103#0101010101010101
(0946688489.290320) can0 00000001#EDFF0000EDFF0000
(0946688489.290652) can0 00000002#2FFC0000F9FFFFFF
(0946688489.291122) can0 00000103#0101010101010101
(0946688489.300412) can0 00000001#EDFF0000ECFF0000
(0946688489.300719) can0 00000002#30FC0000F9FFFFFF
(0946688489.301190) can0 00000103#0101010101010101
(0946688489.310509) can0 00000001#EDFF0000EDFF0000
(0946688489.310801) can0 00000002#30FC0000F9FFFFFF
(0946688489.311159) can0 00000103#0101010101010101
(0946688489.320585) can0 00000001#EDFF0000ECFF0000
(0946688489.320880) can0 00000002#31FC0000F9FFFFFF
(0946688489.321180) can0 00000103#0101010101010101
(0946688489.330701) can0 00000001#EEFF0000ECFF0000
(0946688489.330974) can0 00000002#31FC0000F9FFFFFF
(0946688489.331263) can0 00000103#0101010101010101
(0946688489.331579) can0 19B50000#0004000000020060
(0946688489.332033) can0 19B50007#0000002700000000
(0946688489.332839) can0 19B50001#C4CCC69555000000
(0946688489.333407) can0 19B50002#7D7F7D0000000000
(0946688489.334000) can0 19B50003#0000000000000000
(0946688489.334585) can0 19B50008#7D7E7D0000000000
(0946688489.335442) can0 19B50500#FFFB03E800006464
(0946688489.336516) can0 19B50600#FFFF0CE099990000
(0946688489.337036) can0 19B50009#C4CCC60000955500
(0946688489.339210) can0 00000014#25FF
(0946688489.339703) can0 00000015#25007F7F7F7F7F7F
(0946688489.340804) can0 00000001#EEFF0000ECFF0000
(0946688489.341085) can0 00000002#30FC0000F9FFFFFF
(0946688489.341361) can0 00000103#0101010101010101
(0946688489.345558) can0 00000014#25FF
(0946688489.346023) can0 00000015#25067F7F7F7F7F7F
(0946688489.350408) can0 00000014#25FF
(0946688489.350824) can0 00000015#250C7F7F7F7F
(0946688489.351133) can0 00000001#EDFF0000ECFF0000
(0946688489.351393) can0 00000002#30FC0000F9FFFFFF
(0946688489.351753) can0 00000103#0101010101010101
(0946688489.355637) can0 00000018#25FF
(0946688489.356119) can0 00000019#25007D7D7D7D7D7D
(0946688489.360423) can0 00000018#25FF
(0946688489.360940) can0 00000019#25067D7D7D7D7D7D
(0946688489.361231) can0 00000001#EDFF0000ECFF0000
(0946688489.361500) can0 00000002#30FC0000F9FFFFFF
(0946688489.361790) can0 00000103#0101010101010101
(0946688489.362206) can0 18FF1515#0000000100010000
(0946688489.365765) can0 00000018#25FF
(0946688489.366211) can0 00000019#250C7D7D7D7D
(0946688489.370844) can0 0000001C#25FF
(0946688489.371096) can0 00000001#EDFF0000ECFF0000
(0946688489.371402) can0 00000002#30FC0000F9FFFFFF
(0946688489.371677) can0 00000103#0101010101010101
(0946688489.381171) can0 00000103#0101010101010101
(0946688489.381451) can0 00000001#EEFF0000ECFF0000
(0946688489.381739) can0 00000002#2FFC0000F9FFFFFF
(0946688489.391184) can0 00000103#0101010101010101
(0946688489.391418) can0 00000001#ECFF0000EBFF0000
(0946688489.391729) can0 00000002#31FC0000F9FFFFFF
(0946688489.401140) can0 00000103#0101010101010101
(0946688489.401446) can0 00000001#ECFF0000EBFF0000
(0946688489.401731) can0 00000002#30FC0000F8FFFFFF
(0946688489.411128) can0 00000103#0101010101010101
(0946688489.411949) can0 00000001#EDFF0000ECFF0000
(0946688489.412234) can0 00000002#30FC0000F8FFFFFF
(0946688489.421162) can0 00000103#0101010101010101
(0946688489.422043) can0 00000001#ECFF0000ECFF0000
(0946688489.422353) can0 00000002#30FC0000F8FFFFFF
(0946688489.431140) can0 00000103#0101010101010101
(0946688489.432135) can0 00000001#EEFF0000ECFF0000
(0946688489.432431) can0 00000002#2FFC0000F8FFFFFF
(0946688489.441143) can0 00000103#0101010101010101
(0946688489.442272) can0 00000001#EDFF0000ECFF0000
(0946688489.442553) can0 00000002#2EFC0000F8FFFFFF
(0946688489.451159) can0 00000103#0101010101010101
(0946688489.452337) can0 00000001#EEFF0000ECFF0000
(0946688489.452629) can0 00000002#2FFC0000F8FFFFFF
(0946688489.461159) can0 00000103#0101010101010101
(0946688489.462155) can0 18FF1515#0000000100010000
(0946688489.462438) can0 00000001#EEFF0000EEFF0000
(0946688489.462752) can0 00000002#2EFC0000F8FFFEFF
(0946688489.471237) can0 00000103#0101010101010101
(0946688489.472555) can0 00000001#ECFF0000EBFF0000
(0946688489.472821) can0 00000002#2DFC0000F8FFFEFF
(0946688489.481198) can0 00000103#0101010101010101
(0946688489.482612) can0 00000001#EFFF0000EEFF0000
(0946688489.482908) can0 00000002#2EFC0000F8FFFEFF
(0946688489.491212) can0 00000103#0101010101010101
(0946688489.492693) can0 00000001#EDFF0000EDFF0000
(0946688489.493009) can0 00000002#2DFC0000F8FFFEFF
(0946688489.501168) can0 00000103#0101010101010101
(0946688489.502820) can0 00000001#EEFF0000ECFF0000
(0946688489.503062) can0 00000002#2DFC0000F8FFFEFF
(0946688489.511162) can0 00000103#0101010101010101
(0946688489.512900) can0 00000001#EFFF0000ECFF0000
(0946688489.513170) can0 00000002#2EFC0000F8FFFEFF
(0946688489.519934) can0 19B50000#0004000000020060
(0946688489.520540) can0 19B50007#0000002700000000
(0946688489.521101) can0 19B50001#C4CCC69555000000
(0946688489.521395) can0 00000103#0101010101010101
(0946688489.521897) can0 19B50002#7D7F7D0000000000
(0946688489.522714) can0 19B50003#0000000000000000
(0946688489.523007) can0 00000001#EEFF0000ECFF0000
(0946688489.523300) can0 00000002#2EFC0000F8FFFEFF
(0946688489.523586) can0 19B50008#7D7E7D0000000000
(0946688489.524105) can0 19B50500#FFFD03E800006464
(0946688489.525176) can0 19B50600#FFFF0CE099990000
(0946688489.525794) can0 19B50009#C4CCC60000955500
(0946688489.531135) can0 00000103#0101010101010101
(0946688489.533069) can0 00000001#EDFF0000ECFF0000
(0946688489.533376) can0 00000002#2EFC0000F8FFFEFF
(0946688489.541171) can0 00000103#0101010101010101
(0946688489.543175) can0 00000001#EEFF0000ECFF0000
(0946688489.543468) can0 00000002#2FFC0000F8FFFEFF
(0946688489.551162) can0 00000103#0101010101010101
(0946688489.553286) can0 00000001#EDFF0000ECFF0000
(0946688489.553589) can0 00000002#2FFC0000F8FFFEFF
(0946688489.561164) can0 00000103#0101010101010101
(0946688489.562156) can0 18FF1515#0000000100010000
(0946688489.563386) can0 00000001#EDFF0000EBFF0000
(0946688489.563733) can0 00000002#30FC0000F8FFFEFF
(0946688489.571163) can0 00000103#0101010101010101
(0946688489.573430) can0 00000001#EDFF0000ECFF0000
(0946688489.573754) can0 00000002#2FFC0000F8FFFEFF
(0946688489.581142) can0 00000103#0101010101010101
(0946688489.583527) can0 00000001#EEFF0000ECFF0000
(0946688489.583835) can0 00000002#2EFC0000F8FFFEFF
(0946688489.591138) can0 00000103#0101010101010101
(0946688489.593609) can0 00000001#EEFF0000ECFF0000
(0946688489.593891) can0 00000002#2EFC0000F8FFFEFF
(0946688489.601162) can0 00000103#0101010101010101
(0946688489.604507) can0 00000001#EEFF0000ECFF0000
(0946688489.604806) can0 00000002#2EFC0000F7FFFEFF
(0946688489.611147) can0 00000103#0101010101010101
(0946688489.614555) can0 00000001#EEFF0000ECFF0000
(0946688489.614848) can0 00000002#2EFC0000F7FFFEFF
(0946688489.621129) can0 00000103#0101010101010101
(0946688489.624661) can0 00000001#EEFF0000EDFF0000
(0946688489.624952) can0 00000002#2EFC0000F7FFFEFF
(0946688489.631180) can0 00000103#0101010101010101
(0946688489.634758) can0 00000001#EEFF0000ECFF0000
(0946688489.635043) can0 00000002#2DFC0000F7FFFEFF
(0946688489.641137) can0 00000103#0101010101010101
(0946688489.644823) can0 00000001#EEFF0000ECFF0000
(0946688489.645128) can0 00000002#2EFC0000F7FFFEFF
(0946688489.651164) can0 00000103#0101010101010101
(0946688489.654943) can0 00000001#EEFF0000ECFF0000
(0946688489.655243) can0 00000002#2EFC0000F7FFFEFF
(0946688489.661158) can0 00000103#0101010101010101
(0946688489.662155) can0 18FF1515#0000000100010000
(0946688489.665029) can0 00000001#EEFF0000ECFF0000
(0946688489.665339) can0 00000002#2FFC0000F7FFFEFF
(0946688489.671137) can0 00000103#0101010101010101
(0946688489.675131) can0 00000001#EEFF0000ECFF0000
(0946688489.675422) can0 00000002#30FC0000F7FFFEFF
(0946688489.681144) can0 00000103#0101010101010101
(0946688489.685225) can0 00000001#EEFF0000ECFF0000
(0946688489.685522) can0 00000002#2FFC0000F7FFFEFF
(0946688489.691138) can0 00000103#0101010101010101
(0946688489.695282) can0 00000001#EEFF0000ECFF0000
(0946688489.695606) can0 00000002#2FFC0000F7FFFEFF
(0946688489.701143) can0 00000103#0101010101010101
(0946688489.705403) can0 00000001#EFFF0000EBFF0000
(0946688489.705705) can0 00000002#30FC0000F7FFFEFF
(0946688489.711134) can0 00000103#0101010101010101
(0946688489.715525) can0 00000001#EEFF0000EBFF0000
(0946688489.715806) can0 00000002#2FFC0000F7FFFEFF
(0946688489.718159) can0 19B50000#0004000000020060
(0946688489.718724) can0 19B50007#0000002700000000
(0946688489.719300) can0 19B50001#C4CCC69555000000
(0946688489.719952) can0 19B50002#7D7F7D0000000000
(0946688489.720464) can0 19B50003#0000000000000000
(0946688489.721056) can0 19B50008#7D7E7D0000000000
(0946688489.721308) can0 00000103#0101010101010101
(0946688489.722195) can0 19B50500#FFFB03E800006464
(0946688489.723284) can0 19B50600#FFFF0CE099990000
(0946688489.723898) can0 19B50009#C4CCC60000955500
(0946688489.725647) can0 00000001#EDFF0000EBFF0000
(0946688489.725965) can0 00000002#2FFC0000F7FFFEFF
(0946688489.731171) can0 00000103#0101010101010101
(0946688489.735776) can0 00000001#EDFF0000EBFF0000
(0946688489.736030) can0 00000002#2FFC0000F7FFFEFF
(0946688489.741177) can0 00000103#0101010101010101
(0946688489.745850) can0 00000001#EDFF0000EDFF0000
(0946688489.746168) can0 00000002#2FFC0000F7FFFEFF
(0946688489.751150) can0 00000103#0101010101010101
(0946688489.755958) can0 00000001#EDFF0000EDFF0000
(0946688489.756259) can0 00000002#2EFC0000F7FFFEFF
(0946688489.761170) can0 00000103#0101010101010101
(0946688489.762156) can0 18FF1515#0000000100010000
(0946688489.766042) can0 00000001#EEFF0000ECFF0000
(0946688489.766346) can0 00000002#2EFC0000F7FFFEFF
(0946688489.771160) can0 00000103#0101010101010101
(0946688489.776172) can0 00000001#EEFF0000ECFF0000
(0946688489.777275) can0 00000002#2EFC0000F7FFFEFF
(0946688489.781130) can0 00000103#0101010101010101
(0946688489.787006) can0 00000001#EFFF0000EBFF0000
(0946688489.787270) can0 00000002#2EFC0000F7FFFEFF
(0946688489.791139) can0 00000103#0101010101010101
(0946688489.797067) can0 00000001#EEFF0000EBFF0000
(0946688489.797388) can0 00000002#2EFC0000F7FFFEFF
(0946688489.801150) can0 00000103#0101010101010101
(0946688489.807166) can0 00000001#EEFF0000EBFF0000
(0946688489.807465) can0 00000002#2EFC0000F7FFFEFF
(0946688489.811131) can0 00000103#0101010101010101
(0946688489.817235) can0 00000001#EFFF0000EBFF0000
(0946688489.817542) can0 00000002#2EFC0000F7FFFEFF
(0946688489.821162) can0 00000103#0101010101010101
(0946688489.827335) can0 00000001#EEFF0000EBFF0000
(0946688489.827618) can0 00000002#2FFC0000F7FFFEFF
(0946688489.828039) can0 00000007#2603840094A40000
(0946688489.831127) can0 00000103#0101010101010101
(0946688489.837397) can0 00000001#EDFF0000EBFF0000
(0946688489.837665) can0 00000002#30FC0000F7FFFEFF
(0946688489.841138) can0 00000103#0101010101010101
(0946688489.847473) can0 00000001#EDFF0000EBFF0000
(0946688489.847748) can0 00000002#30FC0000F6FFFEFF
(0946688489.851150) can0 00000103#0101010101010101
(0946688489.857582) can0 00000001#EDFF0000EBFF0000
(0946688489.857864) can0 00000002#30FC0000F6FFFEFF
(0946688489.861134) can0 00000103#0101010101010101
(0946688489.862155) can0 18FF1515#0000000100010000
(0946688489.867765) can0 00000001#EDFF0000EBFF0000
(0946688489.868043) can0 00000002#30FC0000F6FFFEFF
(0946688489.871196) can0 00000103#0101010101010101
(0946688489.877796) can0 00000001#EEFF0000EBFF0000
(0946688489.878066) can0 00000002#30FC0000F6FFFEFF
(0946688489.881172) can0 00000103#0101010101010101
(0946688489.887879) can0 00000001#EEFF0000ECFF0000
(0946688489.888187) can0 00000002#30FC0000F6FFFEFF
(0946688489.891160) can0 00000103#0101010101010101
(0946688489.897944) can0 00000001#EEFF0000ECFF0000
(0946688489.898247) can0 00000002#2FFC0000F6FFFEFF
(0946688489.901170) can0 00000103#0101010101010101
(0946688489.908036) can0 00000001#EEFF0000ECFF0000
(0946688489.908341) can0 00000002#2EFC0000F6FFFEFF
(0946688489.911140) can0 00000103#0101010101010101
(0946688489.918131) can0 00000001#EEFF0000ECFF0000
(0946688489.918447) can0 00000002#2EFC0000F6FFFEFF
(0946688489.921163) can0 00000103#0101010101010101
(0946688489.926317) can0 19B50000#0004000000020060
(0946688489.926905) can0 19B50007#0000002700000000
(0946688489.927470) can0 19B50001#C4CCC69555000000
(0946688489.928059) can0 19B50002#7D7F7D0000000000
(0946688489.928367) can0 00000001#EDFF0000ECFF0000
(0946688489.928639) can0 00000002#30FC0000F6FFFEFF
(0946688489.928941) can0 19B50003#0000000000000000
(0946688489.929283) can0 19B50008#7D7E7D0000000000
(0946688489.930157) can0 19B50500#FFFC03E800006464
(0946688489.931162) can0 00000103#0101010101010101
(0946688489.931447) can0 19B50600#FFFF0CE099990000
(0946688489.931974) can0 19B50009#C4CCC60000955500
(0946688489.938358) can0 00000001#EDFF0000ECFF0000
(0946688489.938631) can0 00000002#30FC0000F6FFFEFF
(0946688489.938817) can0 0000001C#26FF
(0946688489.939327) can0 0000001D#26007E7E7E7E7E7E
(0946688489.941177) can0 00000103#0101010101010101
(0946688489.942098) can0 0000001C#26FF
(0946688489.942591) can0 0000001D#26067E7E7E7E7E7E
(0946688489.947356) can0 0000001C#26FF
(0946688489.947792) can0 0000001D#260C7E7E7E7E
(0946688489.948429) can0 00000001#EDFF0000ECFF0000
(0946688489.948754) can0 00000002#30FC0000F6FFFEFF
(0946688489.951169) can0 00000103#0101010101010101
(0946688489.958559) can0 00000001#EDFF0000ECFF0000
(0946688489.958821) can0 00000002#30FC0000F6FFFEFF
(0946688489.961143) can0 00000103#0101010101010101
(0946688489.962135) can0 18FF1515#0000000100010000
(0946688489.968642) can0 00000001#EDFF0000ECFF0000
(0946688489.969567) can0 00000002#2FFC0000F6FFFEFF
(0946688489.971139) can0 00000103#0101010101010101
(0946688489.979469) can0 00000001#EDFF0000ECFF0000
(0946688489.979762) can0 00000002#2FFC0000F6FFFEFF
(0946688489.981125) can0 00000103#0101010101010101
(0946688489.989577) can0 00000001#EDFF0000ECFF0000
(0946688489.989879) can0 00000002#2EFC0000F6FFFEFF
(0946688489.991197) can0 00000103#0101010101010101
(0946688489.999742) can0 00000001#EEFF0000ECFF0000
(0946688490.000022) can0 00000002#2EFC0000F6FFFEFF
(0946688490.001135) can0 00000103#0101010101010101
(0946688490.009769) can0 00000001#EEFF0000ECFF0000
(0946688490.010051) can0 00000002#2EFC0000F6FFFEFF
(0946688490.011141) can0 00000103#0101010101010101
(0946688490.012650) can0 19B50200#00
(0946688490.013219) can0 19B50200#7D7D7D7D7D7D7D7D
(0946688490.019896) can0 00000001#EDFF0000EBFF0000
(0946688490.020187) can0 00000002#2EFC0000F6FFFEFF
(0946688490.021129) can0 00000103#0101010101010101
(0946688490.026856) can0 19B50201#7D7D7D7D7D7D7D7D
(0946688490.029981) can0 00000001#EDFF0000ECFF0000
(0946688490.030272) can0 00000002#2FFC0000F6FFFEFF
(0946688490.031142) can0 00000103#0101010101010101
(0946688490.040103) can0 00000001#EDFF0000EBFF0000
(0946688490.040378) can0 00000002#2FFC0000F6FFFEFF
(0946688490.041138) can0 00000103#0101010101010101
(0946688490.041949) can0 19B50202#7E7E7E7E7E7E7E7E
(0946688490.050235) can0 00000001#EDFF0000EBFF0000
(0946688490.050521) can0 00000002#2FFC0000F6FFFEFF
(0946688490.051144) can0 00000103#0101010101010101
(0946688490.058304) can0 19B50203#7E7E7E7E7E7E7E7E
(0946688490.060295) can0 00000001#EDFF0000EBFF0000
(0946688490.060609) can0 00000002#2FFC0000F6FFFEFF
(0946688490.061140) can0 00000103#0101010101010101
(0946688490.062134) can0 18FF1515#0000000100010000
(0946688490.070383) can0 00000001#EDFF0000EBFF0000
(0946688490.070675) can0 00000002#2FFC0000F6FFFEFF
(0946688490.071140) can0 00000103#0101010101010101
(0946688490.080506) can0 00000001#EDFF0000ECFF0000
(0946688490.080784) can0 00000002#2FFC0000F6FFFEFF
(0946688490.081163) can0 00000103#0101010101010101
(0946688490.086184) can0 19B50204#7E7E7E7E7E7E7E7E
(0946688490.090574) can0 00000001#EDFF0000ECFF0000
(0946688490.090847) can0 00000002#30FC0000F5FFFEFF
(0946688490.091127) can0 00000103#0101010101010101
(0946688490.100699) can0 00000001#EDFF0000ECFF0000
(0946688490.100976) can0 00000002#2FFC0000F5FFFEFF
(0946688490.101244) can0 00000103#0101010101010101
(0946688490.101977) can0 19B50205#7E7E7E7E7E7E7E7E
(0946688490.110740) can0 00000001#EDFF0000ECFF0000
(0946688490.111025) can0 00000002#2FFC0000F5FFFEFF
(0946688490.111370) can0 00000103#0101010101010101
(0946688490.116682) can0 19B50206#7F7F7F7F7F7F7F7F
(0946688490.120849) can0 00000001#EDFF0000ECFF0000
(0946688490.121142) can0 00000002#2FFC0000F5FFFEFF
(0946688490.121419) can0 00000103#0101010101010101
(0946688490.126647) can0 19B50000#0004000000020060
(0946688490.127257) can0 19B50007#0000002700000000
(0946688490.127814) can0 19B50001#C4CCC69555000000
(0946688490.128426) can0 19B50002#7D7F7D0000000000
(0946688490.128989) can0 19B50003#0000000000000000
(0946688490.129589) can0 19B50008#7D7E7D0000000000
(0946688490.130420) can0 19B50500#FFFB03E800006464
(0946688490.130975) can0 00000001#EDFF0000ECFF0000
(0946688490.131274) can0 00000002#2FFC0000F5FFFDFF
(0946688490.131524) can0 00000103#0101010101010101
(0946688490.132213) can0 19B50600#FFFF0CE099990000
(0946688490.132778) can0 19B50009#C4CCC60000955500
(0946688490.141049) can0 00000001#EDFF0000ECFF0000
(0946688490.141380) can0 00000002#2FFC0000F5FFFDFF
(0946688490.141658) can0 00000103#0101010101010101
(0946688490.143663) can0 19B50207#7F7F7F7F7F7F7F7F
(0946688490.151131) can0 00000103#0101010101010101
(0946688490.151435) can0 00000001#EEFF0000ECFF0000
(0946688490.151732) can0 00000002#2FFC0000F5FFFDFF
(0946688490.161160) can0 00000103#0101010101010101
(0946688490.162030) can0 19B50208#7D7D7D7D7D7D7D7D
(0946688490.162341) can0 00000001#EEFF0000ECFF0000
(0946688490.162604) can0 00000002#2FFC0000F5FFFDFF
(0946688490.162908) can0 18FF1515#0000000100010000
(0946688490.171136) can0 00000103#0101010101010101
(0946688490.172319) can0 00000001#EDFF0000ECFF0000
(0946688490.172598) can0 00000002#2FFC0000F5FFFDFF
(0946688490.181129) can0 00000103#0101010101010101
(0946688490.182385) can0 00000001#EDFF0000ECFF0000
(0946688490.182682) can0 00000002#2FFC0000F5FFFDFF
(0946688490.188761) can0 19B50209#7D7D7D7D7D7D7D7D
(0946688490.191124) can0 00000103#0101010101010101
(0946688490.192497) can0 00000001#EEFF0000ECFF0000
(0946688490.192764) can0 00000002#2FFC0000F5FFFDFF
(0946688490.201138) can0 00000103#0101010101010101
(0946688490.202571) can0 00000001#EDFF0000ECFF0000
(0946688490.202884) can0 00000002#2FFC0000F5FFFDFF
(0946688490.205282) can0 19B5020A#7E7E7E7E7E7E7E7E
(0946688490.211151) can0 00000103#0101010101010101
(0946688490.212674) can0 00000001#EEFF0000ECFF0000
(0946688490.212959) can0 00000002#2FFC0000F5FFFDFF
(0946688490.214609) can0 00000007#2703840094A40000
(0946688490.221159) can0 00000103#0101010101010101
(0946688490.222777) can0 00000001#EDFF0000ECFF0000
(0946688490.223036) can0 00000002#2FFC0000F5FFFDFF
(0946688490.231131) can0 00000103#0101010101010101
(0946688490.232827) can0 00000001#EDFF0000ECFF0000
(0946688490.233131) can0 00000002#2FFC0000F5FFFDFF
(0946688490.241145) can0 00000103#0101010101010101
(0946688490.242975) can0 00000001#EDFF0000ECFF0000
(0946688490.243257) can0 00000002#2FFC0000F5FFFDFF
(0946688490.251176) can0 00000103#0101010101010101
(0946688490.253038) can0 00000001#EDFF0000ECFF0000
(0946688490.253346) can0 00000002#2FFC0000F5FFFDFF
(0946688490.261172) can0 00000103#0101010101010101
(0946688490.262141) can0 18FF1515#0000000100010000
(0946688490.263130) can0 00000001#EDFF0000ECFF0000
(0946688490.263430) can0 00000002#2FFC0000F5FFFDFF
(0946688490.271161) can0 00000103#0101010101010101
(0946688490.273255) can0 00000001#EEFF0000ECFF0000
(0946688490.273533) can0 00000002#2EFC0000F5FFFDFF
(0946688490.281152) can0 00000103#0101010101010101
(0946688490.283346) can0 00000001#EDFF0000ECFF0000
(0946688490.283643) can0 00000002#2FFC0000F5FFFDFF
(0946688490.291146) can0 00000103#0101010101010101
(0946688490.293397) can0 00000001#EDFF0000ECFF0000
(0946688490.293694) can0 00000002#2FFC0000F4FFFDFF
(0946688490.301140) can0 00000103#0101010101010101
(0946688490.303490) can0 00000001#EDFF0000ECFF0000
(0946688490.303767) can0 00000002#30FC0000F4FFFDFF
(0946688490.311169) can0 00000103#0101010101010101
(0946688490.313607) can0 00000001#ECFF0000ECFF0000
(0946688490.313876) can0 00000002#30FC0000F4FFFDFF
(0946688490.321161) can0 00000103#0101010101010101
(0946688490.323720) can0 00000001#ECFF0000ECFF0000
(0946688490.323985) can0 00000002#30FC0000F4FFFDFF
(0946688490.326478) can0 19B50000#0004000000020060
(0946688490.327041) can0 19B50007#0000002700000000
(0946688490.327640) can0 19B50001#C4CCC69555000000
(0946688490.328217) can0 19B50002#7D7F7D0000000000
(0946688490.328817) can0 19B50003#0000000000000000
(0946688490.329421) can0 19B50008#7D7E7D0000000000
(0946688490.330248) can0 19B50500#FFFB03E800006464
(0946688490.331126) can0 00000103#0101010101010101
(0946688490.331563) can0 19B50600#FFFF0CE099990000
(0946688490.332152) can0 19B50009#C4CCC60000955500
(0946688490.334158) can0 00000008#27FF
(0946688490.334602) can0 00000001#ECFF0000ECFF0000
(0946688490.334883) can0 00000002#30FC0000F4FFFDFF
(0946688490.341129) can0 00000103#0101010101010101
(0946688490.344693) can0 00000001#ECFF0000ECFF0000
(0946688490.344949) can0 00000002#30FC0000F4FFFDFF
(0946688490.351179) can0 00000103#0101010101010101
(0946688490.354835) can0 00000001#ECFF0000ECFF0000
(0946688490.355118) can0 00000002#30FC0000F4FFFDFF
(0946688490.361171) can0 00000103#0101010101010101
(0946688490.362140) can0 18FF1515#0000000100010000
(0946688490.364907) can0 00000001#EDFF0000ECFF0000
(0946688490.365211) can0 00000002#30FC0000F4FFFDFF
(0946688490.371159) can0 00000103#0101010101010101
(0946688490.374994) can0 00000001#EDFF0000ECFF0000
(0946688490.375286) can0 00000002#30FC0000F4FFFDFF
(0946688490.381133) can0 00000103#0101010101010101
(0946688490.385065) can0 00000001#EEFF0000ECFF0000
(0946688490.385384) can0 00000002#2FFC0000F4FFFDFF
(0946688490.391147) can0 00000103#0101010101010101
(0946688490.395159) can0 00000001#EFFF0000ECFF0000
(0946688490.395439) can0 00000002#2EFC0000F4FFFDFF
(0946688490.401127) can0 00000103#0101010101010101
(0946688490.405265) can0 00000001#EFFF0000ECFF0000
(0946688490.405577) can0 00000002#2EFC0000F4FFFDFF
(0946688490.411137) can0 00000103#0101010101010101
(0946688490.415387) can0 00000001#EEFF0000ECFF0000
(0946688490.415623) can0 00000002#2EFC0000F4FFFDFF
(0946688490.421161) can0 00000103#0101010101010101
(0946688490.425485) can0 00000001#EEFF0000ECFF0000
(0946688490.425753) can0 00000002#2EFC0000F4FFFDFF
(0946688490.431124) can0 00000103#0101010101010101
(0946688490.435542) can0 00000001#EDFF0000ECFF0000
(0946688490.435814) can0 00000002#2FFC0000F4FFFDFF
(0946688490.441129) can0 00000103#0101010101010101
(0946688490.445622) can0 00000001#EEFF0000ECFF0000
(0946688490.445924) can0 00000002#2FFC0000F4FFFDFF
(0946688490.451164) can0 00000103#0101010101010101
(0946688490.455759) can0 00000001#EDFF0000ECFF0000
(0946688490.456035) can0 00000002#2FFC0000F4FFFDFF
(0946688490.461171) can0 00000103#0101010101010101
(0946688490.462140) can0 18FF1515#0000000100010000
(0946688490.465819) can0 00000001#EDFF0000ECFF0000
(0946688490.466142) can0 00000002#2EFC0000F4FFFDFF
(0946688490.471149) can0 00000103#0101010101010101
(0946688490.475928) can0 00000001#EDFF0000ECFF0000
(0946688490.476188) can0 00000002#2FFC0000F4FFFDFF
(0946688490.481126) can0 00000103#0101010101010101
(0946688490.486042) can0 00000001#EEFF0000ECFF0000
(0946688490.486323) can0 00000002#2FFC0000F3FFFDFF
(0946688490.491167) can0 00000103#0101010101010101
(0946688490.496139) can0 00000001#EEFF0000EDFF0000
(0946688490.496931) can0 00000002#2EFC0000F3FFFDFF
(0946688490.501144) can0 00000103#0101010101010101
(0946688490.506898) can0 00000001#EEFF0000ECFF0000
(0946688490.507195) can0 00000002#2FFC0000F3FFFDFF
(0946688490.511176) can0 00000103#0101010101010101
(0946688490.517014) can0 00000001#EEFF0000ECFF0000
(0946688490.517303) can0 00000002#2EFC0000F3FFFDFF
(0946688490.521148) can0 00000103#0101010101010101
(0946688490.527085) can0 00000001#EEFF0000ECFF0000
(0946688490.527376) can0 00000002#2FFC0000F3FFFDFF
(0946688490.531134) can0 00000103#0101010101010101
(0946688490.537178) can0 00000001#EEFF0000ECFF0000
(0946688490.537504) can0 00000002#2FFC0000F3FFFDFF
(0946688490.541159) can0 00000103#0101010101010101
(0946688490.545585) can0 19B50000#0004000000020060
(0946688490.546173) can0 19B50007#0000002700000000
(0946688490.546728) can0 19B50001#C4CCC69555000000
(0946688490.547273) can0 00000001#EEFF0000ECFF0000
(0946688490.547573) can0 00000002#2FFC0000F3FFFDFF
(0946688490.547888) can0 19B50002#7D7F7D0000000000
(0946688490.548289) can0 19B50003#0000000000000000
(0946688490.548886) can0 19B50008#7D7E7D0000000000
(0946688490.549688) can0 19B50500#FFFA03E800006464
(0946688490.550973) can0 19B50600#FFFF0CE099990000
(0946688490.551232) can0 00000103#0101010101010101
(0946688490.551534) can0 19B50009#C4CCC60000955500
(0946688490.557409) can0 00000001#EEFF0000ECFF0000
(0946688490.557715) can0 00000002#2FFC0000F3FFFDFF
(0946688490.561179) can0 00000103#0101010101010101
(0946688490.562139) can0 18FF1515#0000000100010000
(0946688490.567482) can0 00000001#EEFF0000ECFF0000
(0946688490.567761) can0 00000002#2FFC0000F3FFFDFF
(0946688490.571169) can0 00000103#0101010101010101
(0946688490.577552) can0 00000001#EEFF0000ECFF0000
(0946688490.577872) can0 00000002#2FFC0000F3FFFDFF
(0946688490.581173) can0 00000103#0101010101010101
(0946688490.587673) can0 00000001#EEFF0000EBFF0000
(0946688490.587950) can0 00000002#2FFC0000F3FFFDFF
(0946688490.591121) can0 00000103#0101010101010101
(0946688490.597754) can0 00000001#EEFF0000EBFF0000
(0946688490.598021) can0 00000002#30FC0000F3FFFDFF
(0946688490.601126) can0 00000103#0101010101010101
(0946688490.607837) can0 00000001#EDFF0000EBFF0000
(0946688490.608139) can0 00000002#30FC0000F3FFFDFF
(0946688490.611161) can0 00000103#0101010101010101
(0946688490.617908) can0 00000001#EDFF0000EBFF0000
(0946688490.618211) can0 00000002#30FC0000F3FFFDFF
(0946688490.621134) can0 00000103#0101010101010101
(0946688490.628003) can0 00000001#EDFF0000EBFF0000
(0946688490.628302) can0 00000002#2FFC0000F3FFFDFF
(0946688490.631160) can0 00000103#0101010101010101
(0946688490.638138) can0 00000001#EAFF0000EFFF0000
(0946688490.638415) can0 00000002#31FC0000F3FFFDFF
(0946688490.641132) can0 00000103#0101010101010101
(0946688490.648170) can0 00000001#E9FF0000E8FF0100
(0946688490.648471) can0 00000002#2CFC0000F3FFFDFF
(0946688490.651158) can0 00000103#0101010101010101
(0946688490.658304) can0 00000001#F9FF0000DDFF0000
(0946688490.658564) can0 00000002#2CFC0000F2FFFDFF
(0946688490.661177) can0 00000103#0101010101010101
(0946688490.662142) can0 18FF1515#0000000100010000
(0946688490.668389) can0 00000001#EFFF0000EBFF0000
(0946688490.668674) can0 00000002#20FC0000F3FFFDFF
(0946688490.671137) can0 00000103#0101010101010101
(0946688490.678467) can0 00000001#EFFF0100EEFF0000
(0946688490.678772) can0 00000002#1EFC0000F2FFFDFF
(0946688490.681130) can0 00000103#0101010101010101
(0946688490.688591) can0 00000001#EEFF0100EBFF0000
(0946688490.688853) can0 00000002#26FC0000F2FFFDFF
(0946688490.691163) can0 00000103#0101010101010101
(0946688490.699373) can0 00000001#E6FF0000F1FF0000
(0946688490.699686) can0 00000002#26FC0000F3FFFDFF
(0946688490.701162) can0 00000103#0101010101010101
(0946688490.709485) can0 00000001#E9FF0000F6FF0000
(0946688490.709786) can0 00000002#26FC0000F3FFFDFF
(0946688490.711145) can0 00000103#0101010101010101
(0946688490.718876) can0 19B50000#0004000000020060
(0946688490.719446) can0 19B50007#0000002700000000
(0946688490.719700) can0 00000001#E9FF0000F0FF0000
(0946688490.720009) can0 00000002#2BFC0000F3FFFDFF
(0946688490.720563) can0 19B50001#C4CCC69555000000
(0946688490.721140) can0 00000103#0101010101010101
(0946688490.721444) can0 19B50002#7D7F7D0000000000
(0946688490.721880) can0 19B50003#0000000000000000
(0946688490.722487) can0 19B50008#7D7E7D0000000000
(0946688490.723344) can0 19B50500#FFFC03E800006464
(0946688490.724391) can0 19B50600#FFFF0CE099990000
(0946688490.724959) can0 19B50009#C4CCC60000955500
(0946688490.729692) can0 00000001#F0FF0000F0FF0000
(0946688490.729992) can0 00000002#2EFC0000F3FFFDFF
(0946688490.731161) can0 00000103#0101010101010101
(0946688490.739763) can0 00000001#EFFF0000F0FF0000
(0946688490.740051) can0 00000002#2DFC0000F3FFFCFF
(0946688490.741132) can0 00000103#0101010101010101
(0946688490.749888) can0 00000001#F7FF0000E8FF0000
(0946688490.750163) can0 00000002#2FFC0000F2FFFDFF
(0946688490.751158) can0 00000103#0101010101010101
(0946688490.759967) can0 00000001#F4FF0000E7FF0000
(0946688490.760244) can0 00000002#32FC0000F2FFFDFF
(0946688490.761129) can0 00000103#0101010101010101
(0946688490.762137) can0 18FF1515#0000000100010000
(0946688490.770043) can0 00000001#F3FF0000E7FF0000
(0946688490.770345) can0 00000002#37FC0000F2FFFDFF
(0946688490.771135) can0 00000103#0101010101010101
(0946688490.780140) can0 00000001#F3FF0000EBFF0000
(0946688490.780406) can0 00000002#36FC0000F2FFFDFF
(0946688490.781161) can0 00000103#0101010101010101
(0946688490.790243) can0 00000001#F0FF0000EEFF0000
(0946688490.790512) can0 00000002#38FC0000F2FFFDFF
(0946688490.791121) can0 00000103#0101010101010101
(0946688490.800312) can0 00000001#EEFF0000EEFF0000
(0946688490.800629) can0 00000002#37FC0000F2FFFDFF
(0946688490.801188) can0 00000103#0101010101010101
(0946688490.804641) can0 00000007#2803840094A40000
(0946688490.810407) can0 00000001#ECFF0000ECFF0000
(0946688490.810685) can0 00000002#39FC0000F2FFFDFF
(0946688490.811148) can0 00000103#0101010101010101
(0946688490.820532) can0 00000001#EEFF0000ECFF0000
(0946688490.820872) can0 00000002#2AFC0000F2FFFCFF
(0946688490.821137) can0 00000103#0101010101010101
(0946688490.830641) can0 00000001#EEFF0000ECFF0000
(0946688490.830911) can0 00000002#29FC0000F2FFFCFF
(0946688490.831187) can0 00000103#0101010101010101
(0946688490.840732) can0 00000001#EEFF0000ECFF0000
(0946688490.841019) can0 00000002#2AFC0000F2FFFCFF
(0946688490.841317) can0 00000103#0101010101010101
(0946688490.850850) can0 00000001#EFFF0000ECFF0000
(0946688490.851147) can0 00000002#2CFC0000F2FFFCFF
(0946688490.851459) can0 00000103#0101010101010101
(0946688490.861008) can0 00000001#EFFF0000ECFF0000
(0946688490.861253) can0 00000002#2DFC0000F2FFFCFF
(0946688490.861555) can0 00000103#0101010101010101
(0946688490.862153) can0 18FF1515#0000000100010000
(0946688490.871033) can0 00000001#F0FF0000EDFF0000
(0946688490.871367) can0 00000002#2EFC0000F2FFFCFF
(0946688490.871631) can0 00000103#0101010101010101
(0946688490.881170) can0 00000103#0101010101010101
(0946688490.881902) can0 00000001#F0FF0000EBFF0000
(0946688490.882211) can0 00000002#31FC0000F1FFFCFF
(0946688490.891125) can0 00000103#0101010101010101
(0946688490.892015) can0 00000001#EFFF0000ECFF0000
(0946688490.892294) can0 00000002#32FC0000F1FFFCFF
(0946688490.901131) can0 00000103#0101010101010101
(0946688490.902043) can0 00000001#EFFF0000EBFF0000
(0946688490.902362) can0 00000002#32FC0000F1FFFCFF
(0946688490.904166) can0 00000008#28FF
(0946688490.904668) can0 00000009#28007D7D7D7D7D7D
(0946688490.911131) can0 00000103#0101010101010101
(0946688490.912150) can0 00000001#EFFF0000EAFF0000
(0946688490.912470) can0 00000002#33FC0000F1FFFCFF
(0946688490.920136) can0 00000008#28FF
(0946688490.920636) can0 00000009#28067D7D7D7D7D7D
(0946688490.921132) can0 00000103#0101010101010101
(0946688490.922268) can0 00000001#EDFF0000E9FF0000
(0946688490.922526) can0 00000002#33FC0000F1FFFCFF
(0946688490.926584) can0 19B50000#0004000000020060
(0946688490.927177) can0 19B50007#0000002700000000
(0946688490.927740) can0 19B50001#C4CCC69555000000
(0946688490.928357) can0 19B50002#7D7F7D0000000000
(0946688490.928927) can0 19B50003#0000000000000000
(0946688490.929523) can0 19B50008#7D7E7D0000000000
(0946688490.930575) can0 19B50500#FFFA03E800006464
(0946688490.931150) can0 00000103#0101010101010101
(0946688490.931831) can0 19B50600#FFFF0CE099990000
(0946688490.932341) can0 00000001#EDFF0000E8FF0000
(0946688490.932607) can0 00000002#33FC0000F1FFFCFF
(0946688490.932913) can0 19B50009#C4CCC60000955500
(0946688490.937872) can0 00000008#28FF
(0946688490.938348) can0 00000009#280C7D7D7D7D
(0946688490.941131) can0 00000103#0101010101010101
(0946688490.942404) can0 00000001#ECFF0000E9FF0000
(0946688490.942719) can0 00000002#32FC0000F1FFFDFF
(0946688490.944952) can0 0000000C#28FF
(0946688490.945423) can0 0000000D#28007E7E7E7E7E7E
(0946688490.949255) can0 0000000C#28FF
(0946688490.949731) can0 0000000D#28067E7E7E7E7E7E
(0946688490.951173) can0 00000103#0101010101010101
(0946688490.952537) can0 00000001#ECFF0000EAFF0000
(0946688490.952802) can0 00000002#32FC0000F1FFFDFF
(0946688490.954322) can0 0000000C#28FF
(0946688490.954805) can0 0000000D#280C7E7E7E7E
(0946688490.959043) can0 00000010#28FF
(0946688490.959566) can0 00000011#28007E7E7E7E7E7E
(0946688490.961192) can0 00000103#0101010101010101
(0946688490.962131) can0 18FF1515#0000000100010000
(0946688490.962634) can0 00000001#ECFF0000EAFF0000
(0946688490.962899) can0 00000002#31FC0000F1FFFDFF
(0946688490.964370) can0 00000010#28FF
(0946688490.964884) can0 00000011#28067E7E7E7E7E7E
(0946688490.969311) can0 00000010#28FF
(0946688490.970013) can0 00000011#280C7E7E7E7E
(0946688490.971138) can0 00000103#0101010101010101
(0946688490.972680) can0 00000001#ECFF0000EAFF0000
(0946688490.972985) can0 00000002#31FC0000F1FFFDFF
(0946688490.974484) can0 00000014#28FF
(0946688490.975017) can0 00000015#28007F7F7F7F7F7F
(0946688490.981177) can0 00000103#0101010101010101
(0946688490.982784) can0 00000001#EDFF0000EBFF0000
(0946688490.983083) can0 00000002#30FC0000F1FFFDFF
(0946688490.991160) can0 00000103#0101010101010101
(0946688490.992897) can0 00000001#EEFF0000EEFF0000
(0946688490.993164) can0 00000002#2FFC0000F1FFFDFF
(0946688490.993729) can0 00000014#28FF
(0946688490.994222) can0 00000015#28067F7F7F7F7F7F
(0946688490.999141) can0 00000014#28FF
(0946688490.999595) can0 00000015#280C7F7F7F7F
(0946688491.001128) can0 00000103#0101010101010101
(0946688491.002977) can0 00000001#EEFF0000EEFF0000
(0946688491.003243) can0 00000002#30FC0000F1FFFCFF
(0946688491.004271) can0 00000018#28FF
(0946688491.004764) can0 00000019#28007D7D7D7D7D7D
(0946688491.009067) can0 00000018#28FF
(0946688491.009586) can0 00000019#28067D7D7D7D7D7D
(0946688491.011168) can0 00000103#0101010101010101
(0946688491.013046) can0 00000001#EEFF0000EEFF0000
(0946688491.013374) can0 00000002#30FC0000F1FFFCFF
(0946688491.016633) can0 00000018#28FF
(0946688491.017104) can0 00000019#280C7D7D7D7D
(0946688491.021135) can0 00000103#0101010101010101
(0946688491.023178) can0 00000001#EEFF0000EEFF0000
(0946688491.023453) can0 00000002#31FC0000F1FFFCFF
(0946688491.031173) can0 00000103#0101010101010101
(0946688491.033255) can0 00000001#EEFF0000EEFF0000
(0946688491.033521) can0 00000002#32FC0000F1FFFCFF
(0946688491.038223) can0 0000001C#28FF
(0946688491.038741) can0 0000001D#28007E7E7E7E7E7E
(0946688491.041153) can0 00000103#0101010101010101
(0946688491.043309) can0 00000001#EDFF0000EEFF0000
(0946688491.043637) can0 00000002#31FC0000F1FFFCFF
(0946688491.046688) can0 0000001C#28FF
(0946688491.047195) can0 0000001D#28067E7E7E7E7E7E
(0946688491.051171) can0 00000103#0101010101010101
(0946688491.052682) can0 0000001C#28FF
(0946688491.053172) can0 0000001D#280C7E7E7E7E
(0946688491.053419) can0 00000001#EDFF0000EDFF0000
(0946688491.053728) can0 00000002#31FC0000F0FFFCFF
(0946688491.061164) can0 00000103#0101010101010101
(0946688491.062153) can0 18FF1515#0000000100010000
(0946688491.063533) can0 00000001#EDFF0000EDFF0000
(0946688491.063840) can0 00000002#31FC0000F0FFFCFF
(0946688491.071144) can0 00000103#0101010101010101
(0946688491.073619) can0 00000001#EDFF0000EDFF0000
(0946688491.074508) can0 00000002#31FC0000F0FFFCFF
(0946688491.081135) can0 00000103#0101010101010101
(0946688491.084521) can0 00000001#EDFF0000EBFF0000
(0946688491.084782) can0 00000002#30FC0000F0FFFCFF
(0946688491.091202) can0 00000103#0101010101010101
(0946688491.094618) can0 00000001#EDFF0000EBFF0000
(0946688491.094877) can0 00000002#2FFC0000F0FFFCFF
(0946688491.101131) can0 00000103#0101010101010101
(0946688491.104713) can0 00000001#EDFF0000EAFF0000
(0946688491.104987) can0 00000002#2EFC0000F0FFFCFF
(0946688491.111131) can0 00000103#0101010101010101
(0946688491.114796) can0 00000001#EDFF0000E9FF0000
(0946688491.115083) can0 00000002#2DFC0000F0FFFCFF
(0946688491.119668) can0 19B50000#0004000000020060
(0946688491.120265) can0 19B50007#0000002700000000
(0946688491.120850) can0 19B50001#C4CCC69555000000
(0946688491.121130) can0 00000103#0101010101010101
(0946688491.121450) can0 19B50002#7D7F7D0000000000
(0946688491.122232) can0 19B50003#0000000000000000
(0946688491.122789) can0 19B50008#7D7E7D0000000000
(0946688491.123608) can0 19B50500#FFFB03E800006464
(0946688491.124667) can0 19B50600#FFFF0CE099990000
(0946688491.124964) can0 00000001#EEFF0000E9FF0000
(0946688491.125233) can0 00000002#2DFC0000F0FFFCFF
(0946688491.125528) can0 19B50009#C4CCC60000955500
(0946688491.131171) can0 00000103#0101010101010101
(0946688491.135008) can0 00000001#EEFF0000E9FF0000
(0946688491.135275) can0 00000002#2DFC0000F0FFFCFF
(0946688491.141158) can0 00000103#0101010101010101
(0946688491.145069) can0 00000001#EEFF0000E9FF0000
(0946688491.145382) can0 00000002#2DFC0000F0FFFCFF
(0946688491.151158) can0 00000103#0101010101010101
(0946688491.153643) can0 19B5020B#7E7E7E7E7E7E7E7E
(0946688491.155197) can0 00000001#EEFF0000EAFF0000
(0946688491.155483) can0 00000002#2DFC0000F0FFFCFF
(0946688491.161202) can0 00000103#0101010101010101
(0946688491.162206) can0 18FF1515#0000000100010000
(0946688491.165297) can0 00000001#EEFF0000EAFF0000
(0946688491.165622) can0 00000002#2EFC0000F0FFFCFF
(0946688491.171210) can0 00000103#0101010101010101
(0946688491.181528) can0 00000103#0101010101010101
(0946688491.183041) can0 00000001#ECFF0000EEFF0000
(0946688491.186930) can0 00000002#2FFC0000F0FFFCFF
(0946688491.187446) can0 00000001#EDFF0000EDFF0000
(0946688491.187940) can0 00000002#2FFC0000F0FFFCFF
(0946688491.191194) can0 00000103#0101010101010101
(0946688491.199396) can0 00000001#EDFF0000EEFF0000
(0946688491.200191) can0 00000002#2FFC0000F0FFFCFF
(0946688491.201182) can0 00000103#0101010101010101
(0946688491.209972) can0 00000001#EEFF0000EDFF0000
(0946688491.210242) can0 00000002#2FFC0000F0FFFCFF
(0946688491.211246) can0 00000103#0101010101010101
(0946688491.219877) can0 00000001#EEFF0000EDFF0000
(0946688491.220156) can0 00000002#2EFC0000F0FFFCFF
(0946688491.221206) can0 00000103#0101010101010101
(0946688491.230005) can0 00000001#EEFF0000EDFF0000
(0946688491.230262) can0 00000002#2EFC0000F0FFFCFF
(0946688491.231181) can0 00000103#0101010101010101
(0946688491.240483) can0 00000001#EEFF0000EDFF0000
(0946688491.241053) can0 00000002#2EFC0000EFFFFCFF
(0946688491.241364) can0 00000103#0101010101010101
(0946688491.250460) can0 00000001#EEFF0000ECFF0000
(0946688491.250726) can0 00000002#2EFC0000EFFFFCFF
(0946688491.251254) can0 00000103#0101010101010101
(0946688491.260888) can0 00000001#EEFF0000ECFF0000
(0946688491.261169) can0 00000002#2FFC0000EFFFFCFF
(0946688491.261442) can0 00000103#0101010101010101
(0946688491.262167) can0 18FF1515#0000000100010000
(0946688491.271017) can0 00000001#EFFF0000EBFF0000
(0946688491.271357) can0 00000002#2FFC0000EFFFFCFF
(0946688491.271589) can0 00000103#0101010101010101
(0946688491.281224) can0 00000001#EEFF0000EBFF0000
(0946688491.281493) can0 00000002#2FFC0000EFFFFCFF
(0946688491.281781) can0 00000103#0101010101010101
(0946688491.291234) can0 00000103#0101010101010101
(0946688491.291512) can0 00000001#EEFF0000EAFF0000
(0946688491.291834) can0 00000002#2FFC0000EFFFFCFF
(0946688491.301244) can0 00000103#0101010101010101
(0946688491.302592) can0 00000001#EEFF0000EAFF0000
(0946688491.302867) can0 00000002#2FFC0000EFFFFCFF
(0946688491.311242) can0 00000103#0101010101010101
(0946688491.312776) can0 00000001#EEFF0000EAFF0000
(0946688491.313055) can0 00000002#2FFC0000EFFFFCFF
(0946688491.321238) can0 00000103#0101010101010101
(0946688491.322936) can0 00000001#EEFF0000EAFF0000
(0946688491.323259) can0 00000002#2FFC0000EFFFFCFF
(0946688491.327716) can0 19B50000#0004000000020060
(0946688491.328280) can0 19B50007#0000002700000000
(0946688491.328930) can0 19B50001#C4CCC69555000000
(0946688491.329721) can0 19B50002#7D7F7D0000000000
(0946688491.330325) can0 19B50003#0000000000000000
(0946688491.330917) can0 19B50008#7D7E7D0000000000
(0946688491.331373) can0 00000103#0101010101010101
(0946688491.331714) can0 19B50500#FFFA03E800006464
(0946688491.332797) can0 19B50600#FFFF0CE099990000
(0946688491.333051) can0 00000001#EEFF0000EAFF0000
(0946688491.333355) can0 00000002#30FC0000EFFFFCFF
(0946688491.333679) can0 19B50009#C4CCC60000955500
(0946688491.341223) can0 00000103#0101010101010101
(0946688491.343742) can0 00000001#EDFF0000EAFF0000
(0946688491.344003) can0 00000002#2FFC0000EFFFFCFF
(0946688491.351204) can0 00000103#0101010101010101
(0946688491.353820) can0 00000001#EEFF0000EDFF0000
(0946688491.354090) can0 00000002#2EFC0000EFFFFCFF
(0946688491.355164) can0 00000007#2903830093A30000
(0946688491.361243) can0 00000103#0101010101010101
(0946688491.362157) can0 18FF1515#0000000100010000
(0946688491.363894) can0 00000001#EEFF0000EDFF0000
(0946688491.364193) can0 00000002#2EFC0000EFFFFCFF
(0946688491.371184) can0 00000103#0101010101010101
(0946688491.375286) can0 00000001#EEFF0000EDFF0000
(0946688491.375576) can0 00000002#2EFC0000EFFFFCFF
(0946688491.381188) can0 00000103#0101010101010101
(0946688491.385391) can0 00000001#EEFF0000EDFF0000
(0946688491.385700) can0 00000002#2FFC0000EFFFFCFF
(0946688491.391180) can0 00000103#0101010101010101
(0946688491.395513) can0 00000001#EEFF0000EDFF0000
(0946688491.395781) can0 00000002#2FFC0000EFFFFCFF
(0946688491.401188) can0 00000103#0101010101010101
(0946688491.405596) can0 00000001#EEFF0000EDFF0000
(0946688491.405874) can0 00000002#2FFC0000EFFFFCFF
(0946688491.411591) can0 00000103#0101010101010101
(0946688491.415764) can0 00000001#EEFF0000EDFF0000
(0946688491.416051) can0 00000002#2FFC0000EFFFFCFF
(0946688491.421165) can0 00000103#0101010101010101
(0946688491.425891) can0 00000001#EEFF0000EDFF0000
(0946688491.426170) can0 00000002#2FFC0000EEFFFCFF
(0946688491.431197) can0 00000103#0101010101010101
(0946688491.436004) can0 00000001#EEFF0000EDFF0000
(0946688491.436302) can0 00000002#2FFC0000EEFFFCFF
(0946688491.441213) can0 00000103#0101010101010101
(0946688491.446224) can0 00000001#EEFF0000ECFF0000
(0946688491.446511) can0 00000002#2FFC0000EEFFFCFF
(0946688491.451165) can0 00000103#0101010101010101
(0946688491.453065) can0 00000008#29FF
(0946688491.453581) can0 00000009#2900000000000000
(0946688491.455054) can0 00000008#29FF
(0946688491.455566) can0 00000009#2906000000000000
(0946688491.456855) can0 00000001#EDFF0000EBFF0000
(0946688491.457139) can0 00000002#2FFC0000EEFFFCFF
(0946688491.459342) can0 00000008#29FF
(0946688491.459766) can0 00000009#290C00000000
(0946688491.462142) can0 00000103#0101010101010101
(0946688491.462423) can0 18FF1515#0000000100010000
(0946688491.464825) can0 0000000C#29FF
(0946688491.465340) can0 0000000D#2900000000000000
(0946688491.466958) can0 00000001#EDFF0000EBFF0000
(0946688491.467240) can0 00000002#2FFC0000EEFFFCFF
(0946688491.469513) can0 0000000C#29FF
(0946688491.470022) can0 0000000D#2906000000000000
(0946688491.471160) can0 00000103#0101010101010101
(0946688491.474986) can0 0000000C#29FF
(0946688491.475434) can0 0000000D#290C00000000
(0946688491.478025) can0 00000001#EDFF0000EBFF0000
(0946688491.478316) can0 00000002#2FFC0000EEFFFCFF
(0946688491.479462) can0 00000010#29FF
(0946688491.480015) can0 00000011#2900000000000000
(0946688491.481183) can0 00000103#0101010101010101
(0946688491.484933) can0 00000010#29FF
(0946688491.485451) can0 00000011#2906000000000000
(0946688491.488142) can0 00000001#EDFF0000EBFF0000
(0946688491.488411) can0 00000002#30FC0000EEFFFCFF
(0946688491.489364) can0 00000010#29FF
(0946688491.490044) can0 00000011#290C00000000
(0946688491.491181) can0 00000103#0101010101010101
(0946688491.498298) can0 00000001#EDFF0000EBFF0000
(0946688491.498578) can0 00000002#2FFC0000EEFFFCFF
(0946688491.501180) can0 00000103#0101010101010101
(0946688491.508419) can0 00000001#EDFF0000EBFF0000
(0946688491.508723) can0 00000002#2FFC0000EEFFFCFF
(0946688491.511226) can0 00000103#0101010101010101
(0946688491.518518) can0 00000001#EDFF0000EBFF0000
(0946688491.518847) can0 00000002#2FFC0000EEFFFCFF
(0946688491.521236) can0 00000103#0101010101010101
(0946688491.528665) can0 00000001#EEFF0000ECFF0000
(0946688491.528923) can0 00000002#2FFC0000EEFFFCFF
(0946688491.531185) can0 00000103#0101010101010101
(0946688491.534501) can0 00000014#29FF
(0946688491.534930) can0 00000015#2900000000000000
(0946688491.539567) can0 00000001#EEFF0000ECFF0000
(0946688491.539882) can0 00000002#2FFC0000EEFFFCFF
(0946688491.541137) can0 00000103#0101010101010101
(0946688491.543486) can0 19B50000#0004000000020060
(0946688491.544054) can0 19B50007#0000002700000000
(0946688491.544656) can0 19B50001#C4CCC69555000000
(0946688491.545228) can0 19B50002#7D7F7D0000000000
(0946688491.545835) can0 19B50003#0000000000000000
(0946688491.546372) can0 19B50008#7D7E7D0000000000
(0946688491.547193) can0 19B50500#FFFD03E800006464
(0946688491.548282) can0 19B50600#FFFF0CE099990000
(0946688491.549145) can0 19B50009#C4CCC60000955500
(0946688491.549937) can0 00000001#EEFF0000ECFF0000
(0946688491.550255) can0 00000002#2FFC0000EDFFFCFF
(0946688491.551165) can0 00000103#0101010101010101
(0946688491.557098) can0 00000014#29FF
(0946688491.557596) can0 00000015#2906000000000000
(0946688491.560042) can0 00000001#EEFF0000ECFF0000
(0946688491.560347) can0 00000002#2FFC0000EDFFFCFF
(0946688491.561215) can0 00000103#0101010101010101
(0946688491.562159) can0 18FF1515#0000000100010000
(0946688491.564415) can0 00000014#29FF
(0946688491.564908) can0 00000015#290C00000000
(0946688491.569254) can0 00000018#29FF
(0946688491.569731) can0 00000019#2900000000000000
(0946688491.570168) can0 00000001#EDFF0000ECFF0000
(0946688491.570442) can0 00000002#2FFC0000EDFFFCFF
(0946688491.571172) can0 00000103#0101010101010101
(0946688491.574618) can0 00000018#29FF
(0946688491.575109) can0 00000019#2906000000000000
(0946688491.579202) can0 00000018#29FF
(0946688491.579668) can0 00000019#290C00000000
(0946688491.580254) can0 00000001#EDFF0000ECFF0000
(0946688491.580536) can0 00000002#2FFC0000EDFFFCFF
(0946688491.581273) can0 00000103#0101010101010101
(0946688491.584668) can0 0000001C#29FF
(0946688491.585370) can0 0000001D#2900000000000000
(0946688491.589360) can0 0000001C#29FF
(0946688491.589836) can0 0000001D#2906000000000000
(0946688491.590332) can0 00000001#EEFF0000ECFF0000
(0946688491.590651) can0 00000002#2FFC0000EDFFFCFF
(0946688491.591210) can0 00000103#0101010101010101
(0946688491.600497) can0 00000001#EDFF0000ECFF0000
(0946688491.600770) can0 00000002#2FFC0000EDFFFCFF
(0946688491.601169) can0 00000103#0101010101010101
(0946688491.606391) can0 0000001C#29FF
(0946688491.606867) can0 0000001D#290C00000000
(0946688491.610549) can0 00000001#EDFF0000ECFF0000
(0946688491.610820) can0 00000002#2FFC0000EDFFFCFF
(0946688491.611165) can0 00000103#0101010101010101
(0946688491.620636) can0 00000001#EDFF0000ECFF0000
(0946688491.620930) can0 00000002#2FFC0000EDFFFCFF
(0946688491.621234) can0 00000103#0101010101010101
(0946688491.630724) can0 00000001#EDFF0000ECFF0000
(0946688491.631018) can0 00000002#2FFC0000EDFFFCFF
(0946688491.631340) can0 00000103#0101010101010101
(0946688491.640834) can0 00000001#EDFF0000ECFF0000
(0946688491.641132) can0 00000002#2FFC0000EDFFFCFF
(0946688491.641405) can0 00000103#0101010101010101
(0946688491.651021) can0 00000001#EDFF0000ECFF0000
(0946688491.651359) can0 00000002#2FFC0000EDFFFCFF
(0946688491.651631) can0 00000103#0101010101010101
(0946688491.661061) can0 00000001#EDFF0000ECFF0000
(0946688491.661380) can0 00000002#2FFC0000EDFFFCFF
(0946688491.661679) can0 00000103#0101010101010101
(0946688491.662155) can0 18FF1515#0000000100010000
(0946688491.671160) can0 00000103#0101010101010101
(0946688491.671462) can0 00000001#EDFF0000ECFF0000
(0946688491.672328) can0 00000002#2FFC0000EDFFFCFF
(0946688491.680804) can0 19B50300#00
(0946688491.681176) can0 00000103#0101010101010101
(0946688491.681462) can0 19B50300#0000000000000000
(0946688491.682134) can0 00000001#EDFF0000ECFF0000
(0946688491.682442) can0 00000002#2FFC0000EDFFFCFF
(0946688491.691181) can0 00000103#0101010101010101
(0946688491.692231) can0 00000001#EEFF0000ECFF0000
(0946688491.692523) can0 00000002#2FFC0000EDFFFCFF
(0946688491.696193) can0 19B50301#0000000000000000
(0946688491.701174) can0 00000103#0101010101010101
(0946688491.702344) can0 00000001#EDFF0000ECFF0000
(0946688491.702652) can0 00000002#2FFC0000EDFFFCFF
(0946688491.711063) can0 19B50302#0000000000000000
(0946688491.711390) can0 00000103#0101010101010101
(0946688491.712404) can0 00000001#EDFF0000ECFF0000
(0946688491.712721) can0 00000002#2FFC0000EDFFFCFF
(0946688491.720568) can0 19B50000#0004000000020060
(0946688491.721170) can0 19B50007#0000002700000000
(0946688491.721423) can0 00000103#0101010101010101
(0946688491.721865) can0 19B50001#C4CCC69555000000
(0946688491.722499) can0 19B50002#7D7F7D0000000000
(0946688491.722743) can0 00000001#EDFF0000ECFF0000
(0946688491.723026) can0 00000002#2FFC0000EDFFFCFF
(0946688491.723346) can0 19B50003#0000000000000000
(0946688491.723637) can0 19B50008#7D7E7D0000000000
(0946688491.724494) can0 19B50500#FFFC03E800006464
(0946688491.725597) can0 19B50600#FFFF0CE099990000
(0946688491.726160) can0 19B50009#C4CCC60000955500
(0946688491.731208) can0 00000103#0101010101010101
(0946688491.732617) can0 00000001#EDFF0000ECFF0000
(0946688491.732908) can0 00000002#2FFC0000ECFFFCFF
(0946688491.739629) can0 19B50303#0000000000000000
(0946688491.741180) can0 00000103#0101010101010101
(0946688491.742691) can0 00000001#EDFF0000ECFF0000
(0946688491.743002) can0 00000002#2FFC0000ECFFFCFF
(0946688491.751170) can0 00000103#0101010101010101
(0946688491.752816) can0 00000001#EDFF0000ECFF0000
(0946688491.753150) can0 00000002#2FFC0000ECFFFCFF
(0946688491.754804) can0 19B50304#0000000000000000
(0946688491.761269) can0 00000103#0101010101010101
(0946688491.762160) can0 18FF1515#0000000100010000
(0946688491.762932) can0 00000001#EDFF0000ECFF0000
(0946688491.763265) can0 00000002#2FFC0000ECFFFCFF
(0946688491.771280) can0 00000103#0101010101010101
(0946688491.773010) can0 00000001#EDFF0000ECFF0000
(0946688491.773316) can0 00000002#2EFC0000ECFFFCFF
(0946688491.781315) can0 00000103#0101010101010101
(0946688491.783141) can0 00000001#EDFF0000ECFF0000
(0946688491.783428) can0 00000002#2FFC0000ECFFFCFF
(0946688491.784597) can0 19B50305#0000000000000000
(0946688491.791272) can0 00000103#0101010101010101
(0946688491.793227) can0 00000001#EDFF0000ECFF0000
(0946688491.793503) can0 00000002#2EFC0000ECFFFCFF
(0946688491.800932) can0 19B50306#0000000000000000
(0946688491.801211) can0 00000103#0101010101010101
(0946688491.803371) can0 00000001#EEFF0000ECFF0000
(0946688491.803603) can0 00000002#2FFC0000ECFFFBFF
(0946688491.811162) can0 00000103#0101010101010101
(0946688491.813422) can0 00000001#EEFF0000ECFF0000
(0946688491.813724) can0 00000002#2FFC0000ECFFFBFF
(0946688491.815564) can0 19B50307#0000000000000000
(0946688491.821165) can0 00000103#0101010101010101
(0946688491.823555) can0 00000001#EEFF0000ECFF0000
(0946688491.823850) can0 00000002#2FFC0000ECFFFBFF
(0946688491.830853) can0 19B50308#0000000000000000
(0946688491.831167) can0 00000103#0101010101010101
(0946688491.833635) can0 00000001#EEFF0000ECFF0000
(0946688491.833924) can0 00000002#2FFC0000ECFFFBFF
(0946688491.841161) can0 00000103#0101010101010101
(0946688491.843785) can0 00000001#EEFF0000ECFF0000
(0946688491.844039) can0 00000002#2FFC0000ECFFFBFF
(0946688491.845151) can0 19B50309#0000000000000000
(0946688491.851133) can0 00000103#0101010101010101
(0946688491.853883) can0 00000001#EEFF0000ECFF0000
(0946688491.854169) can0 00000002#2FFC0000ECFFFBFF
(0946688491.861173) can0 00000103#0101010101010101
(0946688491.862182) can0 18FF1515#0000000100010000
(0946688491.864724) can0 00000001#EEFF0000ECFF0000
(0946688491.865036) can0 00000002#2FFC0000ECFFFBFF
(0946688491.871122) can0 00000103#0101010101010101
(0946688491.872341) can0 19B5030A#0000000000000000
(0946688491.874802) can0 00000001#EEFF0000ECFF0000
(0946688491.875116) can0 00000002#2FFC0000ECFFFBFF
(0946688491.881153) can0 00000103#0101010101010101
(0946688491.884329) can0 00000007#2A03830093A30000
(0946688491.884929) can0 00000001#EDFF0000ECFF0000
(0946688491.885228) can0 00000002#2FFC0000ECFFFBFF
(0946688491.891129) can0 00000103#0101010101010101
(0946688491.895005) can0 00000001#EDFF0000ECFF0000
(0946688491.895276) can0 00000002#2FFC0000ECFFFBFF
(0946688491.901112) can0 00000103#0101010101010101
(0946688491.905069) can0 00000001#EDFF0000ECFF0000
(0946688491.905388) can0 00000002#2FFC0000ECFFFBFF
(0946688491.911164) can0 00000103#0101010101010101
