(0946688513.471833) can0 19B50805#FFFFFFFFFFFFFFFF
(0946688513.472519) can0 00000103#0101010101010101
(0946688513.481306) can0 19B50000#0004000000020060
(0946688513.481922) can0 19B50007#0000002700000000
(0946688513.482443) can0 19B50001#C6D0C9968A000000
(0946688513.482722) can0 00000103#0101010101010101
(0946688513.483065) can0 19B50002#7E807E0000000000
(0946688513.483645) can0 19B50003#0000000000000000
(0946688513.484221) can0 19B50008#7E7F7E0000000000
(0946688513.485036) can0 19B50500#FFFB03E800006464
(0946688513.486315) can0 19B50600#FFFF0CE099990000
(0946688513.486905) can0 19B50009#C6D0C90000968A00
(0946688513.492503) can0 00000103#0101010101010101
(0946688513.497934) can0 19B50806#7F7F7F7F7FFFFFFF
(0946688513.502507) can0 00000103#0101010101010101
(0946688513.512476) can0 00000103#0101010101010101
(0946688513.522508) can0 00000103#0101010101010101
(0946688513.524889) can0 19B50807#FFFFFFFFFFFFFFFF
(0946688513.532508) can0 00000103#0101010101010101
(0946688513.540541) can0 19B50808#7E7E7E7E7EFFFFFF
(0946688513.542496) can0 00000103#0101010101010101
(0946688513.552500) can0 00000103#0101010101010101
(0946688513.554603) can0 19B50809#FFFFFFFFFFFFFFFF
(0946688513.556693) can0 18FF1515#0000000100010000
(0946688513.562534) can0 00000103#0101010101010101
(0946688513.568623) can0 19B5080A#7E7F7E7E7EFFFFFF
(0946688513.572499) can0 00000103#0101010101010101
(0946688513.581014) can0 19B5080B#FFFFFFFFFFFFFFFF
(0946688513.582475) can0 00000103#0101010101010101
(0946688513.592534) can0 00000103#0101010101010101
(0946688513.600450) can0 00000007#5803810091A10000
(0946688513.602484) can0 00000103#0101010101010101
(0946688513.612519) can0 00000103#0101010101010101
(0946688513.622504) can0 00000103#0101010101010101
(0946688513.632518) can0 00000103#0101010101010101
(0946688513.642493) can0 00000103#0101010101010101
(0946688513.652471) can0 00000103#0101010101010101
(0946688513.656702) can0 18FF1515#0000000100010000
(0946688513.662489) can0 00000103#0101010101010101
(0946688513.672545) can0 00000103#0101010101010101
(0946688513.682488) can0 00000103#0101010101010101
(0946688513.692503) can0 00000103#0101010101010101
(0946688513.694661) can0 19B50000#0004000000020060
(0946688513.695511) can0 19B50007#0000002700000000
(0946688513.696079) can0 19B50001#C6D0C9968A000000
(0946688513.696669) can0 19B50002#7E807E0000000000
(0946688513.697272) can0 19B50003#0000000000000000
(0946688513.697848) can0 19B50008#7E7F7E0000000000
(0946688513.698664) can0 19B50500#FFFC03E800006464
(0946688513.699750) can0 19B50600#FFFF0CE099990000
(0946688513.700325) can0 19B50009#C6D0C90000968A00
(0946688513.702494) can0 00000103#0101010101010101
(0946688513.704550) can0 00000008#58FF
(0946688513.705024) can0 00000009#5800CCC9C9C9CAC9
(0946688513.707883) can0 00000008#58FF
(0946688513.708361) can0 00000009#5806C9C9C9C9CAC9
(0946688513.711581) can0 00000008#58FF
(0946688513.712197) can0 00000009#580CC9C9C9C9
(0946688513.712506) can0 00000103#0101010101010101
(0946688513.715504) can0 0000000C#58FF
(0946688513.716249) can0 0000000D#5800C9CAC9C9CACE
(0946688513.720624) can0 0000000C#58FF
(0946688513.721097) can0 0000000D#5806C9C9C9CBCAC9
(0946688513.722510) can0 00000103#0101010101010101
(0946688513.724394) can0 0000000C#58FF
(0946688513.724869) can0 0000000D#580CCDC9CACA
(0946688513.729393) can0 00000010#58FF
(0946688513.729876) can0 00000011#5800CAC9C9C9C9C9
(0946688513.732505) can0 00000103#0101010101010101
(0946688513.735987) can0 00000010#58FF
(0946688513.736456) can0 00000011#5806C8C9C9C9C9C9
(0946688513.741088) can0 00000010#58FF
(0946688513.741528) can0 00000011#580CC9C9C9C9
(0946688513.742503) can0 00000103#0101010101010101
(0946688513.745198) can0 00000014#58FF
(0946688513.745667) can0 00000015#5800C9C9C9C9C9C9
(0946688513.752542) can0 00000103#0101010101010101
(0946688513.756696) can0 18FF1515#0000000100010000
(0946688513.761689) can0 00000014#58FF
(0946688513.762483) can0 00000015#5806C9C9C9C9C9C9
(0946688513.762756) can0 00000103#0101010101010101
(0946688513.766476) can0 00000014#58FF
(0946688513.766911) can0 00000015#580CC9C9C9C9
(0946688513.771607) can0 00000018#58FF
(0946688513.772097) can0 00000019#5800C6C8C9C9CCCB
(0946688513.772570) can0 00000103#0101010101010101
(0946688513.775750) can0 00000018#58FF
(0946688513.776231) can0 00000019#5806C8C9CDC9C9CC
(0946688513.780940) can0 00000018#58FF
(0946688513.781393) can0 00000019#580CC8C9C9C9
(0946688513.782494) can0 00000103#0101010101010101
(0946688513.784725) can0 0000001C#58FF
(0946688513.785192) can0 0000001D#5800CAC9C9C9C9C9
(0946688513.790139) can0 0000001C#58FF
(0946688513.790603) can0 0000001D#5806C9C9C9C9C9D0
(0946688513.792496) can0 00000103#0101010101010101
(0946688513.794038) can0 0000001C#58FF
(0946688513.794479) can0 0000001D#580CCFC9C8CA
(0946688513.802507) can0 00000103#0101010101010101
(0946688513.812498) can0 00000103#0101010101010101
(0946688513.822507) can0 00000103#0101010101010101
(0946688513.832496) can0 00000103#0101010101010101
(0946688513.842540) can0 00000103#0101010101010101
(0946688513.852506) can0 00000103#0101010101010101
(0946688513.855796) can0 19B50100#00
(0946688513.856321) can0 19B50100#CCC9C9C9CAC9C9C9
(0946688513.856743) can0 18FF1515#0000000100010000
(0946688513.862513) can0 00000103#0101010101010101
(0946688513.869814) can0 19B50101#C9C9CAC9C9C9C9C9
(0946688513.872505) can0 00000103#0101010101010101
(0946688513.877841) can0 19B50000#0004000000020060
(0946688513.878431) can0 19B50007#0000002700000000
(0946688513.879029) can0 19B50001#C6D0C99689000000
(0946688513.879598) can0 19B50002#7E807E0000000000
(0946688513.880127) can0 19B50003#0000000000000000
(0946688513.880733) can0 19B50008#7E7F7E0000000000
(0946688513.881589) can0 19B50500#FFFB03E800006464
(0946688513.882541) can0 00000103#0101010101010101
(0946688513.882857) can0 19B50600#FFFF0CE099990000
(0946688513.883439) can0 19B50009#C6D0C90000968900
(0946688513.892537) can0 00000103#0101010101010101
(0946688513.895358) can0 19B50102#C9CAC9C9CACEC9C9
(0946688513.902521) can0 00000103#0101010101010101
(0946688513.912502) can0 00000103#0101010101010101
(0946688513.919828) can0 19B50103#C9CBCAC9CDC9CACA
(0946688513.922552) can0 00000103#0101010101010101
(0946688513.932543) can0 00000103#0101010101010101
(0946688513.933843) can0 19B50104#CAC9C9C9C9C9C8C9
(0946688513.942528) can0 00000103#0101010101010101
(0946688513.948998) can0 19B50105#C9C9C9C9C9C9C9C9
(0946688513.952553) can0 00000103#0101010101010101
(0946688513.956728) can0 18FF1515#0000000100010000
(0946688513.962256) can0 19B50106#C9C9C9C9C9C9C9C9
(0946688513.962557) can0 00000103#0101010101010101
(0946688513.972492) can0 00000103#0101010101010101
(0946688513.977122) can0 19B50107#C9C9C9C9C9C9C9C9
(0946688513.982496) can0 00000103#0101010101010101
(0946688513.992487) can0 00000103#0101010101010101
(0946688514.001170) can0 19B50108#C6C8C9C9CCCBC8C9
(0946688514.002514) can0 00000103#0101010101010101
(0946688514.012535) can0 00000103#0101010101010101
(0946688514.015837) can0 19B50109#CDC9C9CCC8C9C9C9
(0946688514.022564) can0 00000103#0101010101010101
(0946688514.028598) can0 19B5010A#CAC9C9C9C9C9C9C9
(0946688514.032554) can0 00000103#0101010101010101
(0946688514.041467) can0 19B5010B#C9C9C9D0CFC9C8CA
(0946688514.042495) can0 00000103#0101010101010101
(0946688514.051708) can0 00000007#5903840094A40000
(0946688514.052500) can0 00000103#0101010101010101
(0946688514.056740) can0 18FF1515#0000000100010000
(0946688514.062472) can0 00000103#0101010101010101
(0946688514.072618) can0 00000103#0101010101010101
(0946688514.077424) can0 19B50000#0004000000020060
(0946688514.077988) can0 19B50007#0000002700000000
(0946688514.078515) can0 19B50001#C6D0C99689000000
(0946688514.079093) can0 19B50002#7E807E0000000000
(0946688514.079660) can0 19B50003#0000000000000000
(0946688514.080267) can0 19B50008#7E7F7E0000000000
(0946688514.081116) can0 19B50500#FFFB03E800006464
(0946688514.082206) can0 19B50600#FFFF0CE099990000
(0946688514.082564) can0 00000103#0101010101010101
(0946688514.082831) can0 19B50009#C6D0C90000968900
(0946688514.092611) can0 00000103#0101010101010101
(0946688514.102758) can0 00000103#0101010101010101
(0946688514.112558) can0 00000103#0101010101010101
(0946688514.122528) can0 00000103#0101010101010101
(0946688514.132548) can0 00000103#0101010101010101
(0946688514.142544) can0 00000103#0101010101010101
(0946688514.150519) can0 00000008#59FF
(0946688514.150937) can0 00000009#59007E7E7E7E7E7E
(0946688514.152528) can0 00000103#0101010101010101
(0946688514.153640) can0 00000008#59FF
(0946688514.154122) can0 00000009#59067E7E7E7E7E7E
(0946688514.156727) can0 18FF1515#0000000100010000
(0946688514.158646) can0 00000008#59FF
(0946688514.159176) can0 00000009#590C7E7E7E7E
(0946688514.162481) can0 00000103#0101010101010101
(0946688514.163018) can0 0000000C#59FF
(0946688514.163549) can0 0000000D#59007F7F7F7F7F7F
(0946688514.168245) can0 0000000C#59FF
(0946688514.168691) can0 0000000D#59067F7F7F7F7F7F
(0946688514.172339) can0 0000000C#59FF
(0946688514.172582) can0 00000103#0101010101010101
(0946688514.172813) can0 0000000D#590C7F7F7F7F
(0946688514.177325) can0 00000010#59FF
(0946688514.177821) can0 00000011#59007F7F7F7F7F7F
(0946688514.181371) can0 00000010#59FF
(0946688514.182087) can0 00000011#59067F7F7F7F7F7F
(0946688514.182505) can0 00000103#0101010101010101
(0946688514.185427) can0 00000010#59FF
(0946688514.185851) can0 00000011#590C7F7F7F7F
(0946688514.192538) can0 00000103#0101010101010101
(0946688514.201733) can0 00000014#59FF
(0946688514.202519) can0 00000103#0101010101010101
(0946688514.202804) can0 00000015#5900808080808080
(0946688514.207161) can0 00000014#59FF
(0946688514.207663) can0 00000015#5906808080808080
(0946688514.211197) can0 00000014#59FF
(0946688514.211645) can0 00000015#590C80808080
(0946688514.212509) can0 00000103#0101010101010101
(0946688514.215229) can0 00000018#59FF
(0946688514.215689) can0 00000019#59007E7E7E7E7E7E
(0946688514.220326) can0 00000018#59FF
(0946688514.220865) can0 00000019#59067E7E7E7E7E7E
(0946688514.222503) can0 00000103#0101010101010101
(0946688514.224419) can0 00000018#59FF
(0946688514.224928) can0 00000019#590C7E7E7E7E
(0946688514.229536) can0 0000001C#59FF
(0946688514.230063) can0 0000001D#59007F7F7F7F7F7F
(0946688514.232503) can0 00000103#0101010101010101
(0946688514.233417) can0 0000001C#59FF
(0946688514.233947) can0 0000001D#59067F7F7F7F7F7F
(0946688514.238450) can0 0000001C#59FF
(0946688514.238825) can0 0000001D#590C7F7F7F7F
(0946688514.242504) can0 00000103#0101010101010101
(0946688514.252496) can0 00000103#0101010101010101
(0946688514.256702) can0 18FF1515#0000000100010000
(0946688514.262519) can0 00000103#0101010101010101
(0946688514.269684) can0 19B50000#0004000000020060
(0946688514.270299) can0 19B50007#0000002700000000
(0946688514.270855) can0 19B50001#C6D0C99689000000
(0946688514.271462) can0 19B50002#7E807E0000000000
(0946688514.272098) can0 19B50003#0000000000000000
(0946688514.272545) can0 00000103#0101010101010101
(0946688514.272793) can0 19B50008#7E7F7E0000000000
(0946688514.273611) can0 19B50500#FFFB03E800006464
(0946688514.274856) can0 19B50600#FFFF0CE099990000
(0946688514.275498) can0 19B50009#C6D0C90000968900
(0946688514.282531) can0 00000103#0101010101010101
(0946688514.292489) can0 00000103#0101010101010101
(0946688514.302465) can0 00000103#0101010101010101
(0946688514.304474) can0 19B50200#00
(0946688514.304962) can0 19B50200#7E7E7E7E7E7E7E7E
(0946688514.312547) can0 00000103#0101010101010101
(0946688514.317838) can0 19B50201#7E7E7E7E7E7E7E7E
(0946688514.322519) can0 00000103#0101010101010101
(0946688514.330588) can0 19B50202#7F7F7F7F7F7F7F7F
(0946688514.332476) can0 00000103#0101010101010101
(0946688514.342484) can0 00000103#0101010101010101
(0946688514.352489) can0 00000103#0101010101010101
(0946688514.356173) can0 19B50203#7F7F7F7F7F7F7F7F
(0946688514.356723) can0 18FF1515#0000000100010000
(0946688514.362469) can0 00000103#0101010101010101
(0946688514.372467) can0 00000103#0101010101010101
(0946688514.372853) can0 19B50204#7F7F7F7F7F7F7F7F
(0946688514.382501) can0 00000103#0101010101010101
(0946688514.385855) can0 19B50205#7F7F7F7F7F7F7F7F
(0946688514.392496) can0 00000103#0101010101010101
(0946688514.398784) can0 19B50206#8080808080808080
(0946688514.402511) can0 00000103#0101010101010101
(0946688514.412553) can0 00000103#0101010101010101
(0946688514.412884) can0 19B50207#8080808080808080
(0946688514.422511) can0 00000103#0101010101010101
(0946688514.426127) can0 19B50208#7E7E7E7E7E7E7E7E
(0946688514.432500) can0 00000103#0101010101010101
(0946688514.442549) can0 00000103#0101010101010101
(0946688514.450091) can0 19B50209#7E7E7E7E7E7E7E7E
(0946688514.452510) can0 00000103#0101010101010101
(0946688514.456710) can0 18FF1515#0000000100010000
(0946688514.462561) can0 00000103#0101010101010101
(0946688514.465179) can0 19B5020A#7F7F7F7F7F7F7F7F
(0946688514.472487) can0 00000103#0101010101010101
(0946688514.477653) can0 19B50000#0004000000020060
(0946688514.478223) can0 19B50007#0000002700000000
(0946688514.478801) can0 19B50001#C6D0C99689000000
(0946688514.479419) can0 19B50002#7E807E0000000000
(0946688514.480009) can0 19B50003#0000000000000000
(0946688514.480565) can0 19B50008#7E7F7E0000000000
(0946688514.481419) can0 19B50500#FFFA03E800006464
(0946688514.482553) can0 00000103#0101010101010101
(0946688514.482777) can0 19B50600#FFFF0CE099990000
(0946688514.483352) can0 19B50009#C6D0C90000968900
(0946688514.492547) can0 00000103#0101010101010101
(0946688514.492814) can0 19B5020B#7F7F7F7F7F7F7F7F
(0946688514.499746) can0 00000007#5A03830093A30000
(0946688514.502503) can0 00000103#0101010101010101
(0946688514.512487) can0 00000103#0101010101010101
(0946688514.522511) can0 00000103#0101010101010101
(0946688514.532512) can0 00000103#0101010101010101
(0946688514.542506) can0 00000103#0101010101010101
(0946688514.552481) can0 00000103#0101010101010101
(0946688514.556743) can0 18FF1515#0000000100010000
(0946688514.562488) can0 00000103#0101010101010101
(0946688514.572514) can0 00000103#0101010101010101
(0946688514.582499) can0 00000103#0101010101010101
(0946688514.592590) can0 00000103#0101010101010101
(0946688514.597767) can0 00000008#5AFF
(0946688514.598251) can0 00000009#5A00000000000000
(0946688514.599500) can0 00000008#5AFF
(0946688514.600027) can0 00000009#5A06000000000000
(0946688514.602476) can0 00000103#0101010101010101
(0946688514.603248) can0 00000008#5AFF
(0946688514.603703) can0 00000009#5A0C00000000
(0946688514.608141) can0 0000000C#5AFF
(0946688514.608626) can0 0000000D#5A00000000000000
(0946688514.612191) can0 0000000C#5AFF
(0946688514.612578) can0 00000103#0101010101010101
(0946688514.612875) can0 0000000D#5A06000000000000
(0946688514.617270) can0 0000000C#5AFF
(0946688514.617757) can0 0000000D#5A0C00000000
(0946688514.621322) can0 00000010#5AFF
(0946688514.621849) can0 00000011#5A00000000000000
(0946688514.622775) can0 00000103#0101010101010101
(0946688514.626186) can0 00000010#5AFF
(0946688514.626695) can0 00000011#5A06000000000000
(0946688514.630527) can0 00000010#5AFF
(0946688514.631034) can0 00000011#5A0C00000000
(0946688514.632542) can0 00000103#0101010101010101
(0946688514.634457) can0 00000014#5AFF
(0946688514.634977) can0 00000015#5A00000000000000
(0946688514.642506) can0 00000103#0101010101010101
(0946688514.650790) can0 00000014#5AFF
(0946688514.651275) can0 00000015#5A06000000000000
(0946688514.652625) can0 00000103#0101010101010101
(0946688514.656111) can0 00000014#5AFF
(0946688514.656548) can0 00000015#5A0C00000000
(0946688514.656808) can0 18FF1515#0000000100010000
(0946688514.660468) can0 00000018#5AFF
(0946688514.660945) can0 00000019#5A00000000000000
(0946688514.662563) can0 00000103#0101010101010101
(0946688514.665365) can0 00000018#5AFF
(0946688514.665851) can0 00000019#5A06000000000000
(0946688514.670827) can0 19B50000#0004000000020060
(0946688514.671401) can0 19B50007#0000002700000000
(0946688514.671978) can0 19B50001#C6D0C99689000000
(0946688514.672552) can0 19B50002#7E807E0000000000
(0946688514.672834) can0 00000103#0101010101010101
(0946688514.673164) can0 19B50003#0000000000000000
(0946688514.673977) can0 19B50008#7E7F7E0000000000
(0946688514.674819) can0 19B50500#FFFD03E800006464
(0946688514.675916) can0 19B50600#FFFF0CE099990000
(0946688514.676482) can0 19B50009#C6D0C90000968900
(0946688514.682574) can0 00000103#0101010101010101
(0946688514.684475) can0 00000018#5AFF
(0946688514.684936) can0 00000019#5A0C00000000
(0946688514.689840) can0 0000001C#5AFF
(0946688514.690375) can0 0000001D#5A00000000000000
(0946688514.692616) can0 00000103#0101010101010101
(0946688514.694030) can0 0000001C#5AFF
(0946688514.694502) can0 0000001D#5A06000000000000
(0946688514.699350) can0 0000001C#5AFF
(0946688514.699727) can0 0000001D#5A0C00000000
(0946688514.702611) can0 00000103#0101010101010101
(0946688514.712490) can0 00000103#0101010101010101
(0946688514.722590) can0 00000103#0101010101010101
(0946688514.732506) can0 00000103#0101010101010101
(0946688514.742545) can0 00000103#0101010101010101
(0946688514.752544) can0 00000103#0101010101010101
(0946688514.756714) can0 18FF1515#0000000100010000
(0946688514.762549) can0 00000103#0101010101010101
(0946688514.764187) can0 19B50300#00
(0946688514.764743) can0 19B50300#0000000000000000
(0946688514.772595) can0 00000103#0101010101010101
(0946688514.777827) can0 19B50301#0000000000000000
(0946688514.782509) can0 00000103#0101010101010101
(0946688514.792567) can0 00000103#0101010101010101
(0946688514.793862) can0 19B50302#0000000000000000
(0946688514.802577) can0 00000103#0101010101010101
(0946688514.806931) can0 19B50303#0000000000000000
(0946688514.812585) can0 00000103#0101010101010101
(0946688514.819836) can0 19B50304#0000000000000000
(0946688514.822508) can0 00000103#0101010101010101
(0946688514.832513) can0 00000103#0101010101010101
(0946688514.842590) can0 00000103#0101010101010101
(0946688514.845282) can0 19B50305#0000000000000000
(0946688514.852519) can0 00000103#0101010101010101
(0946688514.856719) can0 18FF1515#0000000100010000
(0946688514.858481) can0 19B50306#0000000000000000
(0946688514.862517) can0 00000103#0101010101010101
(0946688514.872585) can0 00000103#0101010101010101
(0946688514.873490) can0 19B50307#0000000000000000
(0946688514.882445) can0 19B50000#0004000000020060
(0946688514.882709) can0 00000103#0101010101010101
(0946688514.883084) can0 19B50007#0000002700000000
(0946688514.883852) can0 19B50001#C6D0C99689000000
(0946688514.884473) can0 19B50002#7E807E0000000000
(0946688514.885102) can0 19B50003#0000000000000000
(0946688514.885691) can0 19B50008#7E7F7E0000000000
(0946688514.886467) can0 19B50500#FFFB03E800006464
(0946688514.887591) can0 19B50600#FFFF0CE099990000
(0946688514.888195) can0 19B50009#C6D0C90000968900
(0946688514.892505) can0 00000103#0101010101010101
(0946688514.898862) can0 19B50308#0000000000000000
(0946688514.902544) can0 00000103#0101010101010101
(0946688514.912490) can0 00000103#0101010101010101
(0946688514.915483) can0 19B50309#0000000000000000
(0946688514.922583) can0 00000103#0101010101010101
(0946688514.932552) can0 00000103#0101010101010101
(0946688514.939576) can0 19B5030A#0000000000000000
(0946688514.942652) can0 00000103#0101010101010101
(0946688514.952636) can0 00000103#0101010101010101
(0946688514.954106) can0 19B5030B#0000000000000000
(0946688514.956712) can0 18FF1515#0000000100010000
(0946688514.961169) can0 00000007#5B03860096A60000
(0946688514.962618) can0 00000103#0101010101010101
(0946688514.972556) can0 00000103#0101010101010101
(0946688514.982615) can0 00000103#0101010101010101
(0946688514.992548) can0 00000103#0101010101010101
(0946688515.002697) can0 00000103#0101010101010101
(0946688515.012632) can0 00000103#0101010101010101
(0946688515.022659) can0 00000103#0101010101010101
(0946688515.032588) can0 00000103#0101010101010101
(0946688515.042553) can0 00000103#0101010101010101
(0946688515.052501) can0 00000103#0101010101010101
(0946688515.056707) can0 18FF1515#0000000100010000
(0946688515.061571) can0 00000008#5BFF
(0946688515.062230) can0 00000009#5B007E7E7E7E7EFF
(0946688515.062499) can0 00000103#0101010101010101
(0946688515.066593) can0 00000008#5BFF
(0946688515.067189) can0 00000009#5B06FFFFFFFFFFFF
(0946688515.072068) can0 19B50000#0004000000020060
(0946688515.072552) can0 00000103#0101010101010101
(0946688515.072910) can0 19B50007#0000002700000000
(0946688515.073633) can0 19B50001#C6D0C99689000000
(0946688515.074224) can0 19B50002#7E807E0000000000
(0946688515.074812) can0 19B50003#0000000000000000
(0946688515.075379) can0 19B50008#7E7F7E0000000000
(0946688515.076229) can0 19B50500#FFFC03E800006464
(0946688515.077314) can0 19B50600#FFFF0CE099990000
(0946688515.077892) can0 19B50009#C6D0C90000968900
(0946688515.082513) can0 00000103#0101010101010101
(0946688515.083569) can0 00000008#5BFF
(0946688515.083991) can0 00000009#5B0CFFFFFFFF
(0946688515.088857) can0 0000000C#5BFF
(0946688515.089384) can0 0000000D#5B007E7E7E7F7EFF
(0946688515.092506) can0 00000103#0101010101010101
(0946688515.092694) can0 0000000C#5BFF
(0946688515.093169) can0 0000000D#5B06FFFFFFFFFFFF
(0946688515.097518) can0 0000000C#5BFF
(0946688515.097982) can0 0000000D#5B0CFFFFFFFF
(0946688515.101508) can0 00000010#5BFF
(0946688515.102230) can0 00000011#5B007F7F7F7F7FFF
(0946688515.102478) can0 00000103#0101010101010101
(0946688515.106335) can0 00000010#5BFF
(0946688515.107142) can0 00000011#5B06FFFFFFFFFFFF
(0946688515.112481) can0 00000103#0101010101010101
(0946688515.113102) can0 00000010#5BFF
(0946688515.113521) can0 00000011#5B0CFFFFFFFF
(0946688515.122505) can0 00000103#0101010101010101
(0946688515.129408) can0 00000014#5BFF
(0946688515.129942) can0 00000015#5B007F7F7F7F7FFF
(0946688515.132481) can0 00000103#0101010101010101
(0946688515.133746) can0 00000014#5BFF
(0946688515.134219) can0 00000015#5B06FFFFFFFFFFFF
(0946688515.138791) can0 00000014#5BFF
(0946688515.139222) can0 00000015#5B0CFFFFFFFF
(0946688515.142542) can0 00000103#0101010101010101
(0946688515.142697) can0 00000018#5BFF
(0946688515.143192) can0 00000019#5B007E7E7E7E7EFF
(0946688515.147565) can0 00000018#5BFF
(0946688515.148068) can0 00000019#5B06FFFFFFFFFFFF
(0946688515.151604) can0 00000018#5BFF
(0946688515.152089) can0 00000019#5B0CFFFFFFFF
(0946688515.152599) can0 00000103#0101010101010101
(0946688515.156737) can0 18FF1515#0000000100010000
(0946688515.160149) can0 0000001C#5BFF
(0946688515.160647) can0 0000001D#5B007E7F7E7E7EFF
(0946688515.162533) can0 00000103#0101010101010101
(0946688515.166453) can0 0000001C#5BFF
(0946688515.166950) can0 0000001D#5B06FFFFFFFFFFFF
(0946688515.170841) can0 0000001C#5BFF
(0946688515.171278) can0 0000001D#5B0CFFFFFFFF
(0946688515.172553) can0 00000103#0101010101010101
(0946688515.182540) can0 00000103#0101010101010101
(0946688515.192507) can0 00000103#0101010101010101
(0946688515.202599) can0 00000103#0101010101010101
(0946688515.212556) can0 00000103#0101010101010101
(0946688515.222528) can0 00000103#0101010101010101
(0946688515.232530) can0 00000103#0101010101010101
(0946688515.236537) can0 00000007#5C08C200CD
(0946688515.242556) can0 00000103#0101010101010101
(0946688515.252539) can0 00000103#0101010101010101
(0946688515.256731) can0 18FF1515#0000000100010000
(0946688515.262523) can0 00000103#0101010101010101
(0946688515.271533) can0 19B50000#0004000000020060
(0946688515.272143) can0 19B50007#0000002700000000
(0946688515.272542) can0 00000103#0101010101010101
(0946688515.272873) can0 19B50001#C6D0C99689000000
(0946688515.273455) can0 19B50002#7E807E0000000000
(0946688515.274072) can0 19B50003#0000000000000000
(0946688515.274643) can0 19B50008#7E7F7E0000000000
(0946688515.275441) can0 19B50500#FFFC03E800006464
(0946688515.276536) can0 19B50600#FFFF0CE099990000
(0946688515.277102) can0 19B50009#C6D0C90000968900
(0946688515.282558) can0 00000103#0101010101010101
(0946688515.292564) can0 00000103#0101010101010101
(0946688515.302575) can0 00000103#0101010101010101
(0946688515.312578) can0 00000103#0101010101010101
(0946688515.322485) can0 00000103#0101010101010101
(0946688515.332456) can0 00000103#0101010101010101
(0946688515.336403) can0 00000008#5CFF
(0946688515.336733) can0 00000009#5C
(0946688515.339217) can0 0000000C#5CFF
(0946688515.339569) can0 0000000D#5C
(0946688515.342503) can0 00000103#0101010101010101
(0946688515.342834) can0 00000010#5CFF
(0946688515.343123) can0 00000011#5C
(0946688515.347853) can0 00000014#5CFF
(0946688515.348181) can0 00000015#5C
(0946688515.351324) can0 00000018#5CFF
(0946688515.351638) can0 00000019#5C
(0946688515.352520) can0 00000103#0101010101010101
(0946688515.355901) can0 0000001C#5CFF
(0946688515.356264) can0 0000001D#5C
(0946688515.356680) can0 18FF1515#0000000100010000
(0946688515.362497) can0 00000103#0101010101010101
(0946688515.372475) can0 00000103#0101010101010101
(0946688515.382496) can0 00000103#0101010101010101
(0946688515.392509) can0 00000103#0101010101010101
(0946688515.402510) can0 00000103#0101010101010101
(0946688515.412511) can0 00000103#0101010101010101
(0946688515.416657) can0 00000007#5D08C30000
(0946688515.422456) can0 00000103#0101010101010101
(0946688515.432563) can0 00000103#0101010101010101
(0946688515.442564) can0 00000103#0101010101010101
(0946688515.452560) can0 00000103#0101010101010101
(0946688515.456714) can0 18FF1515#0000000100010000
(0946688515.462511) can0 00000103#0101010101010101
(0946688515.467773) can0 19B50000#0004000000020060
(0946688515.468379) can0 19B50007#0000002700000000
(0946688515.468979) can0 19B50001#C6D0C99689000000
(0946688515.469541) can0 19B50002#7E807E0000000000
(0946688515.470107) can0 19B50003#0000000000000000
(0946688515.470674) can0 19B50008#7E7F7E0000000000
(0946688515.471536) can0 19B50500#FFFB03E800006464
(0946688515.472495) can0 00000103#0101010101010101
(0946688515.472840) can0 19B50600#FFFF0CE099990000
(0946688515.473411) can0 19B50009#C6D0C90000968900
(0946688515.482541) can0 00000103#0101010101010101
(0946688515.492522) can0 00000103#0101010101010101
(0946688515.502564) can0 00000103#0101010101010101
(0946688515.512514) can0 00000103#0101010101010101
(0946688515.517202) can0 00000008#5DFF
(0946688515.517532) can0 00000009#5D
(0946688515.520894) can0 0000000C#5DFF
(0946688515.521234) can0 0000000D#5D
(0946688515.522496) can0 00000103#0101010101010101
(0946688515.525492) can0 00000010#5DFF
(0946688515.525830) can0 00000011#5D
(0946688515.529624) can0 00000014#5DFF
(0946688515.529951) can0 00000015#5D
(0946688515.532518) can0 00000103#0101010101010101
(0946688515.534252) can0 00000018#5DFF
(0946688515.534619) can0 00000019#5D
(0946688515.538394) can0 0000001C#5DFF
(0946688515.538727) can0 0000001D#5D
(0946688515.542475) can0 00000103#0101010101010101
(0946688515.552500) can0 00000103#0101010101010101
(0946688515.556767) can0 18FF1515#0000000100010000
(0946688515.562507) can0 00000103#0101010101010101
(0946688515.572559) can0 00000103#0101010101010101
(0946688515.582525) can0 00000103#0101010101010101
(0946688515.592553) can0 00000103#0101010101010101
(0946688515.596261) can0 00000007#5E08C5009B
(0946688515.602554) can0 00000103#0101010101010101
(0946688515.612534) can0 00000103#0101010101010101
(0946688515.622504) can0 00000103#0101010101010101
(0946688515.632493) can0 00000103#0101010101010101
(0946688515.642514) can0 00000103#0101010101010101
(0946688515.652486) can0 00000103#0101010101010101
(0946688515.656738) can0 18FF1515#0000000100010000
(0946688515.662513) can0 00000103#0101010101010101
(0946688515.671033) can0 19B50000#0004000000020060
(0946688515.671608) can0 19B50007#0000002700000000
(0946688515.672419) can0 19B50001#C6D0C99689000000
(0946688515.672696) can0 00000103#0101010101010101
(0946688515.672980) can0 19B50002#7E807E0000000000
(0946688515.673604) can0 19B50003#0000000000000000
(0946688515.674174) can0 19B50008#7E7F7E0000000000
(0946688515.675018) can0 19B50500#FFFC03E800006464
(0946688515.676089) can0 19B50600#FFFF0CE099990000
(0946688515.676715) can0 19B50009#C6D0C90000968900
(0946688515.682479) can0 00000103#0101010101010101
(0946688515.692500) can0 00000103#0101010101010101
(0946688515.702515) can0 00000103#0101010101010101
(0946688515.712515) can0 00000103#0101010101010101
(0946688515.722499) can0 00000103#0101010101010101
(0946688515.728138) can0 00000008#5EFF
(0946688515.728436) can0 00000009#5E
(0946688515.731395) can0 0000000C#5EFF
(0946688515.731735) can0 0000000D#5E
(0946688515.732514) can0 00000103#0101010101010101
(0946688515.736109) can0 00000010#5EFF
(0946688515.736419) can0 00000011#5E
(0946688515.740188) can0 00000014#5EFF
(0946688515.740524) can0 00000015#5E
(0946688515.742467) can0 00000103#0101010101010101
(0946688515.744835) can0 00000018#5EFF
(0946688515.745180) can0 00000019#5E
(0946688515.748977) can0 0000001C#5EFF
(0946688515.749281) can0 0000001D#5E
(0946688515.752554) can0 00000103#0101010101010101
(0946688515.756685) can0 18FF1515#0000000100010000
(0946688515.762512) can0 00000103#0101010101010101
(0946688515.772512) can0 00000103#0101010101010101
(0946688515.782523) can0 00000103#0101010101010101
(0946688515.792525) can0 00000103#0101010101010101
(0946688515.802514) can0 00000103#0101010101010101
(0946688515.805913) can0 00000007#5F08C10000
(0946688515.812534) can0 00000103#0101010101010101
(0946688515.822529) can0 00000103#0101010101010101
(0946688515.832528) can0 00000103#0101010101010101
(0946688515.842534) can0 00000103#0101010101010101
(0946688515.852527) can0 00000103#0101010101010101
(0946688515.856738) can0 18FF1515#0000000100010000
(0946688515.862518) can0 00000103#0101010101010101
(0946688515.867374) can0 19B50000#0004000000020060
(0946688515.867968) can0 19B50007#0000002700000000
(0946688515.868466) can0 19B50001#C6D0C99689000000
(0946688515.869082) can0 19B50002#7E807E0000000000
(0946688515.869646) can0 19B50003#0000000000000000
(0946688515.870247) can0 19B50008#7E7F7E0000000000
(0946688515.871062) can0 19B50500#FFFD03E800006464
(0946688515.872369) can0 19B50600#FFFF0CE099990000
(0946688515.872617) can0 00000103#0101010101010101
(0946688515.872945) can0 19B50009#C6D0C90000968900
(0946688515.882497) can0 00000103#0101010101010101
(0946688515.892527) can0 00000103#0101010101010101
(0946688515.902530) can0 00000103#0101010101010101
(0946688515.905923) can0 00000008#5FFF
(0946688515.906244) can0 00000009#5F
(0946688515.912549) can0 00000103#0101010101010101
(0946688515.920915) can0 0000000C#5FFF
(0946688515.921198) can0 0000000D#5F
(0946688515.922507) can0 00000103#0101010101010101
(0946688515.928380) can0 00000010#5FFF
(0946688515.928727) can0 00000011#5F
(0946688515.932271) can0 00000014#5FFF
(0946688515.932512) can0 00000103#0101010101010101
(0946688515.932741) can0 00000015#5F
(0946688515.937313) can0 00000018#5FFF
(0946688515.937713) can0 00000019#5F
(0946688515.940783) can0 0000001C#5FFF
(0946688515.941172) can0 0000001D#5F
(0946688515.942523) can0 00000103#0101010101010101
(0946688515.952516) can0 00000103#0101010101010101
(0946688515.956732) can0 18FF1515#0000000100010000
(0946688515.962523) can0 00000103#0101010101010101
(0946688515.972512) can0 00000103#0101010101010101
(0946688515.982509) can0 00000103#0101010101010101
(0946688515.992547) can0 00000103#0101010101010101
(0946688516.002106) can0 19B50800#00
(0946688516.002562) can0 00000103#0101010101010101
(0946688516.002817) can0 19B50800#7E7E7E7E7EFFFFFF
(0946688516.012574) can0 00000103#0101010101010101
(0946688516.015656) can0 19B50801#FFFFFFFFFFFFFFFF
(0946688516.022507) can0 00000103#0101010101010101
(0946688516.028547) can0 19B50802#7E7E7E7F7EFFFFFF
(0946688516.032712) can0 00000103#0101010101010101
(0946688516.042586) can0 00000103#0101010101010101
(0946688516.044915) can0 19B50803#FFFFFFFFFFFFFFFF
(0946688516.052695) can0 00000103#0101010101010101
(0946688516.056685) can0 18FF1515#0000000100010000
(0946688516.062560) can0 00000103#0101010101010101
(0946688516.069390) can0 19B50804#7F7F7F7F7FFFFFFF
(0946688516.072557) can0 00000103#0101010101010101
(0946688516.080587) can0 19B50000#0004000000020060
(0946688516.081120) can0 19B50007#0000002700000000
(0946688516.081937) can0 19B50001#C6D0C99689000000
(0946688516.082535) can0 19B50002#7E807E0000000000
(0946688516.082797) can0 00000103#0101010101010101
(0946688516.083099) can0 19B50003#0000000000000000
(0946688516.083680) can0 19B50008#7E7F7E0000000000
(0946688516.084541) can0 19B50500#FFFA03E800006464
(0946688516.085621) can0 19B50600#FFFF0CE099990000
(0946688516.086192) can0 19B50009#C6D0C90000968900
(0946688516.092546) can0 00000103#0101010101010101
(0946688516.095502) can0 19B50805#FFFFFFFFFFFFFFFF
(0946688516.102513) can0 00000103#0101010101010101
(0946688516.108861) can0 19B50806#7F7F7F7F7FFFFFFF
(0946688516.112565) can0 00000103#0101010101010101
(0946688516.122597) can0 00000103#0101010101010101
(0946688516.123254) can0 19B50807#FFFFFFFFFFFFFFFF
(0946688516.132513) can0 00000103#0101010101010101
(0946688516.136141) can0 19B50808#7E7E7E7E7EFFFFFF
(0946688516.142578) can0 00000103#0101010101010101
(0946688516.152542) can0 00000103#0101010101010101
(0946688516.156676) can0 18FF1515#0000000100010000
(0946688516.162560) can0 00000103#0101010101010101
(0946688516.164043) can0 19B50809#FFFFFFFFFFFFFFFF
(0946688516.172642) can0 00000103#0101010101010101
(0946688516.177519) can0 19B5080A#7E7F7E7E7EFFFFFF
(0946688516.182590) can0 00000103#0101010101010101
(0946688516.191724) can0 19B5080B#FFFFFFFFFFFFFFFF
(0946688516.192571) can0 00000103#0101010101010101
(0946688516.198576) can0 00000007#6003810091A10000
(0946688516.202546) can0 00000103#0101010101010101
(0946688516.212572) can0 00000103#0101010101010101
(0946688516.222615) can0 00000103#0101010101010101
(0946688516.232601) can0 00000103#0101010101010101
(0946688516.242616) can0 00000103#0101010101010101
(0946688516.252512) can0 00000103#0101010101010101
(0946688516.256691) can0 18FF1515#0000000100010000
(0946688516.262542) can0 00000103#0101010101010101
(0946688516.269862) can0 19B50000#0004000000020060
(0946688516.270461) can0 19B50007#0000002700000000
(0946688516.271291) can0 19B50001#C6D0C99689000000
(0946688516.271922) can0 19B50002#7E807E0000000000
(0946688516.272495) can0 19B50003#0000000000000000
(0946688516.272803) can0 00000103#0101010101010101
(0946688516.273028) can0 19B50008#7E7F7E0000000000
(0946688516.273940) can0 19B50500#FFFB03E800006464
(0946688516.274918) can0 19B50600#FFFF0CE099990000
(0946688516.275515) can0 19B50009#C6D0C90000968900
(0946688516.282578) can0 00000103#0101010101010101
(0946688516.292593) can0 00000103#0101010101010101
(0946688516.299849) can0 00000008#60FF
(0946688516.300359) can0 00000009#6000CCC9C9C9CAC9
(0946688516.302532) can0 00000103#0101010101010101
(0946688516.304662) can0 00000008#60FF
(0946688516.305189) can0 00000009#6006C9C9C9C9CAC9
(0946688516.308935) can0 00000008#60FF
(0946688516.309336) can0 00000009#600CC9C9C9C9
(0946688516.312566) can0 00000103#0101010101010101
(0946688516.313755) can0 0000000C#60FF
(0946688516.314264) can0 0000000D#6000C9CAC9C9CACE
(0946688516.318039) can0 0000000C#60FF
(0946688516.318484) can0 0000000D#6006C9C9C9CBCAC9
(0946688516.321743) can0 0000000C#60FF
(0946688516.322223) can0 0000000D#600CCDC9CACA
(0946688516.322491) can0 00000103#0101010101010101
(0946688516.326822) can0 00000010#60FF
(0946688516.327343) can0 00000011#6000CAC9C9C9C9C9
(0946688516.331000) can0 00000010#60FF
(0946688516.331464) can0 00000011#6006C8C9C9C9C9C9
(0946688516.332568) can0 00000103#0101010101010101
(0946688516.335957) can0 00000010#60FF
(0946688516.336423) can0 00000011#600CC9C9C9C9
(0946688516.339884) can0 00000014#60FF
(0946688516.340375) can0 00000015#6000C9C9C9C9C9C9
(0946688516.342567) can0 00000103#0101010101010101
(0946688516.344814) can0 00000014#60FF
(0946688516.345240) can0 00000015#6006C9C9C9C9C9C9
(0946688516.352538) can0 00000103#0101010101010101
(0946688516.356671) can0 18FF1515#0000000100010000
(0946688516.362531) can0 00000103#0101010101010101
(0946688516.364299) can0 00000014#60FF
(0946688516.364737) can0 00000015#600CC9C9C9C9
(0946688516.369130) can0 00000018#60FF
(0946688516.369600) can0 00000019#6000C6C8C9C9CCCB
(0946688516.372517) can0 00000103#0101010101010101
(0946688516.373995) can0 00000018#60FF
(0946688516.374495) can0 00000019#6006C8C9CDC9C9CC
(0946688516.378400) can0 00000018#60FF
(0946688516.378838) can0 00000019#600CC8C9C9C9
(0946688516.382495) can0 00000103#0101010101010101
(0946688516.383347) can0 0000001C#60FF
(0946688516.383769) can0 0000001D#6000CAC9C9C9C9C9
(0946688516.387744) can0 0000001C#60FF
(0946688516.388216) can0 0000001D#6006C9C9C9C9C9D0
(0946688516.391580) can0 0000001C#60FF
(0946688516.391990) can0 0000001D#600CCFC9C8CA
(0946688516.392493) can0 00000103#0101010101010101
(0946688516.402587) can0 00000103#0101010101010101
(0946688516.412541) can0 00000103#0101010101010101
(0946688516.422549) can0 00000103#0101010101010101
(0946688516.432501) can0 00000103#0101010101010101
(0946688516.442566) can0 00000103#0101010101010101
(0946688516.452585) can0 00000103#0101010101010101
(0946688516.456696) can0 18FF1515#0000000100010000
(0946688516.462497) can0 00000103#0101010101010101
(0946688516.466394) can0 19B50000#0004000000020060
(0946688516.466968) can0 19B50007#0000002700000000
(0946688516.467505) can0 19B50001#C6D0C99689000000
(0946688516.468135) can0 19B50002#7E807E0000000000
(0946688516.468704) can0 19B50003#0000000000000000
(0946688516.469314) can0 19B50008#7E7F7E0000000000
(0946688516.470172) can0 19B50500#FFFB03E800006464
(0946688516.471425) can0 19B50600#FFFF0CE099990000
(0946688516.471993) can0 19B50009#C6D0C90000968900
(0946688516.472511) can0 00000103#0101010101010101
(0946688516.482522) can0 00000103#0101010101010101
(0946688516.482687) can0 19B50100#00
(0946688516.483410) can0 19B50100#CCC9C9C9CAC9C9C9
(0946688516.492582) can0 00000103#0101010101010101
(0946688516.502589) can0 00000103#0101010101010101
(0946688516.508974) can0 19B50101#C9C9CAC9C9C9C9C9
(0946688516.512549) can0 00000103#0101010101010101
(0946688516.522072) can0 19B50102#C9CAC9C9CACEC9C9
(0946688516.522631) can0 00000103#0101010101010101
(0946688516.532481) can0 00000103#0101010101010101
(0946688516.535203) can0 19B50103#C9CBCAC9CDC9CACA
(0946688516.542511) can0 00000103#0101010101010101
(0946688516.548943) can0 19B50104#CAC9C9C9C9C9C8C9
(0946688516.552499) can0 00000103#0101010101010101
(0946688516.556699) can0 18FF1515#0000000100010000
(0946688516.562478) can0 00000103#0101010101010101
(0946688516.564201) can0 19B50105#C9C9C9C9C9C9C9C9
(0946688516.572513) can0 00000103#0101010101010101
(0946688516.577491) can0 19B50106#C9C9C9C9C9C9C9C9
(0946688516.582526) can0 00000103#0101010101010101
(0946688516.592536) can0 00000103#0101010101010101
(0946688516.602552) can0 00000103#0101010101010101
(0946688516.602978) can0 19B50107#C9C9C9C9C9C9C9C9
(0946688516.612542) can0 00000103#0101010101010101
(0946688516.616396) can0 19B50108#C6C8C9C9CCCBC8C9
(0946688516.622533) can0 00000103#0101010101010101
(0946688516.630080) can0 19B50109#CDC9C9CCC8C9C9C9
(0946688516.632497) can0 00000103#0101010101010101
(0946688516.642509) can0 00000103#0101010101010101
(0946688516.643374) can0 19B5010A#CAC9C9C9C9C9C9C9
(0946688516.652518) can0 00000103#0101010101010101
(0946688516.656385) can0 19B5010B#C9C9C9D0CFC9C8CA
(0946688516.656710) can0 18FF1515#0000000100010000
(0946688516.662515) can0 00000103#0101010101010101
(0946688516.672535) can0 00000103#0101010101010101
(0946688516.682546) can0 00000103#0101010101010101
(0946688516.692552) can0 00000103#0101010101010101
(0946688516.702549) can0 00000103#0101010101010101
(0946688516.705554) can0 00000007#6103840094A40000
(0946688516.712491) can0 00000103#0101010101010101
(0946688516.712798) can0 19B50000#0004000000020060
(0946688516.713339) can0 19B50007#0000002700000000
(0946688516.713822) can0 19B50001#C6D0C99689000000
(0946688516.714413) can0 19B50002#7E807E0000000000
(0946688516.715013) can0 19B50003#0000000000000000
(0946688516.715599) can0 19B50008#7E7F7E0000000000
(0946688516.716396) can0 19B50500#FFFC03E800006464
(0946688516.717524) can0 19B50600#FFFF0CE099990000
(0946688516.718049) can0 19B50009#C6D0C90000968900
(0946688516.722534) can0 00000103#0101010101010101
(0946688516.732534) can0 00000103#0101010101010101
(0946688516.742517) can0 00000103#0101010101010101
(0946688516.752502) can0 00000103#0101010101010101
(0946688516.756673) can0 18FF1515#0000000100010000
(0946688516.762527) can0 00000103#0101010101010101
(0946688516.772538) can0 00000103#0101010101010101
(0946688516.782544) can0 00000103#0101010101010101
(0946688516.792552) can0 00000103#0101010101010101
(0946688516.802509) can0 00000103#0101010101010101
(0946688516.804122) can0 00000008#61FF
(0946688516.804642) can0 00000009#61007E7E7E7E7E7E
(0946688516.808030) can0 00000008#61FF
(0946688516.808525) can0 00000009#61067E7E7E7E7E7E
(0946688516.812546) can0 00000103#0101010101010101
(0946688516.812721) can0 00000008#61FF
(0946688516.813151) can0 00000009#610C7E7E7E7E
(0946688516.817047) can0 0000000C#61FF
(0946688516.817526) can0 0000000D#61007F7F7F7F7F7F
(0946688516.820784) can0 0000000C#61FF
(0946688516.821254) can0 0000000D#61067F7F7F7F7F7F
(0946688516.822494) can0 00000103#0101010101010101
(0946688516.832528) can0 00000103#0101010101010101
(0946688516.837032) can0 0000000C#61FF
(0946688516.837486) can0 0000000D#610C7F7F7F7F
(0946688516.842276) can0 00000010#61FF
(0946688516.842581) can0 00000103#0101010101010101
(0946688516.842831) can0 00000011#61007F7F7F7F7F7F
(0946688516.846724) can0 00000010#61FF
(0946688516.847340) can0 00000011#61067F7F7F7F7F7F
(0946688516.850502) can0 00000010#61FF
(0946688516.850970) can0 00000011#610C7F7F7F7F
(0946688516.852511) can0 00000103#0101010101010101
(0946688516.855572) can0 00000014#61FF
(0946688516.856024) can0 00000015#6100808080808080
(0946688516.856711) can0 18FF1515#0000000100010000
(0946688516.860322) can0 00000014#61FF
(0946688516.860795) can0 00000015#6106808080808080
(0946688516.862547) can0 00000103#0101010101010101
(0946688516.865968) can0 19B50000#0004000000020060
(0946688516.866588) can0 19B50007#0000002700000000
(0946688516.867113) can0 19B50001#C6D0C99689000000
(0946688516.867799) can0 19B50002#7E807E0000000000
(0946688516.868355) can0 19B50003#0000000000000000
(0946688516.868950) can0 19B50008#7E7F7E0000000000
(0946688516.869749) can0 19B50500#FFFA03E800006464
(0946688516.871046) can0 19B50600#FFFF0CE099990000
(0946688516.871628) can0 19B50009#C6D0C90000968900
(0946688516.872516) can0 00000103#0101010101010101
(0946688516.880744) can0 00000014#61FF
(0946688516.881223) can0 00000015#610C80808080
(0946688516.882466) can0 00000103#0101010101010101
(0946688516.886421) can0 00000018#61FF
(0946688516.886909) can0 00000019#61007E7E7E7E7E7E
(0946688516.890613) can0 00000018#61FF
(0946688516.891084) can0 00000019#61067E7E7E7E7E7E
(0946688516.892507) can0 00000103#0101010101010101
(0946688516.902536) can0 00000103#0101010101010101
(0946688516.906873) can0 00000018#61FF
(0946688516.907326) can0 00000019#610C7E7E7E7E
(0946688516.912289) can0 0000001C#61FF
(0946688516.912569) can0 00000103#0101010101010101
(0946688516.912822) can0 0000001D#61007F7F7F7F7F7F
(0946688516.916714) can0 0000001C#61FF
(0946688516.917281) can0 0000001D#61067F7F7F7F7F7F
(0946688516.920495) can0 0000001C#61FF
(0946688516.920965) can0 0000001D#610C7F7F7F7F
(0946688516.922486) can0 00000103#0101010101010101
(0946688516.932487) can0 00000103#0101010101010101
(0946688516.942510) can0 00000103#0101010101010101
(0946688516.952494) can0 00000103#0101010101010101
(0946688516.956652) can0 18FF1515#0000000100010000
(0946688516.962543) can0 00000103#0101010101010101
(0946688516.972567) can0 00000103#0101010101010101
(0946688516.982518) can0 00000103#0101010101010101
(0946688516.990246) can0 19B50200#00
(0946688516.990797) can0 19B50200#7E7E7E7E7E7E7E7E
(0946688516.992488) can0 00000103#0101010101010101
(0946688517.002506) can0 00000103#0101010101010101
(0946688517.004196) can0 19B50201#7E7E7E7E7E7E7E7E
(0946688517.012584) can0 00000103#0101010101010101
(0946688517.019068) can0 19B50202#7F7F7F7F7F7F7F7F
(0946688517.022516) can0 00000103#0101010101010101
(0946688517.032517) can0 00000103#0101010101010101
(0946688517.032832) can0 19B50203#7F7F7F7F7F7F7F7F
(0946688517.042490) can0 00000103#0101010101010101
(0946688517.052501) can0 00000103#0101010101010101
(0946688517.056692) can0 19B50204#7F7F7F7F7F7F7F7F
(0946688517.056983) can0 18FF1515#0000000100010000
(0946688517.062481) can0 00000103#0101010101010101
(0946688517.070600) can0 19B50000#0004000000020060
(0946688517.071196) can0 19B50007#0000002700000000
(0946688517.071755) can0 19B50001#C6D0C99689000000
(0946688517.072362) can0 19B50002#7E807E0000000000
(0946688517.072645) can0 00000103#0101010101010101
(0946688517.072956) can0 19B50003#0000000000000000
(0946688517.073537) can0 19B50008#7E7F7E0000000000
(0946688517.074364) can0 19B50500#FFFB03E800006464
(0946688517.075419) can0 19B50600#FFFF0CE099990000
(0946688517.076050) can0 19B50009#C6D0C90000968900
(0946688517.082451) can0 00000103#0101010101010101
(0946688517.086410) can0 19B50205#7F7F7F7F7F7F7F7F
(0946688517.092532) can0 00000103#0101010101010101
(0946688517.102487) can0 00000103#0101010101010101
(0946688517.103333) can0 19B50206#8080808080808080
(0946688517.112514) can0 00000103#0101010101010101
(0946688517.116200) can0 19B50207#8080808080808080
(0946688517.122531) can0 00000103#0101010101010101
(0946688517.130400) can0 19B50208#7E7E7E7E7E7E7E7E
(0946688517.132562) can0 00000103#0101010101010101
(0946688517.142525) can0 00000103#0101010101010101
(0946688517.152507) can0 00000103#0101010101010101
(0946688517.156158) can0 19B50209#7E7E7E7E7E7E7E7E
(0946688517.156658) can0 18FF1515#0000000100010000
(0946688517.162538) can0 00000103#0101010101010101
(0946688517.170999) can0 19B5020A#7F7F7F7F7F7F7F7F
(0946688517.172506) can0 00000103#0101010101010101
(0946688517.182493) can0 00000103#0101010101010101
(0946688517.184089) can0 19B5020B#7F7F7F7F7F7F7F7F
(0946688517.192515) can0 00000103#0101010101010101
(0946688517.194209) can0 00000007#6203830093A30000
(0946688517.202518) can0 00000103#0101010101010101
(0946688517.212550) can0 00000103#0101010101010101
(0946688517.222501) can0 00000103#0101010101010101
(0946688517.232556) can0 00000103#0101010101010101
(0946688517.242518) can0 00000103#0101010101010101
(0946688517.252517) can0 00000103#0101010101010101
(0946688517.256662) can0 18FF1515#0000000100010000
(0946688517.262536) can0 00000103#0101010101010101
(0946688517.266511) can0 19B50000#0004000000020060
(0946688517.267073) can0 19B50007#0000002700000000
(0946688517.267658) can0 19B50001#C6D0C99689000000
(0946688517.268219) can0 19B50002#7E807E0000000000
(0946688517.268814) can0 19B50003#0000000000000000
(0946688517.269682) can0 19B50008#7E7F7E0000000000
(0946688517.270532) can0 19B50500#FFFE03E800006464
(0946688517.271551) can0 19B50600#FFFF0CE099990000
(0946688517.272150) can0 19B50009#C6D0C90000968900
(0946688517.272495) can0 00000103#0101010101010101
(0946688517.282497) can0 00000103#0101010101010101
(0946688517.292512) can0 00000103#0101010101010101
(0946688517.300985) can0 00000008#62FF
(0946688517.301448) can0 00000009#6200000000000000
(0946688517.302532) can0 00000103#0101010101010101
(0946688517.305766) can0 00000008#62FF
(0946688517.306259) can0 00000009#6206000000000000
(0946688517.310201) can0 00000008#62FF
(0946688517.310645) can0 00000009#620C00000000
(0946688517.312505) can0 00000103#0101010101010101
(0946688517.315199) can0 0000000C#62FF
(0946688517.316180) can0 0000000D#6200000000000000
(0946688517.319344) can0 0000000C#62FF
(0946688517.319841) can0 0000000D#6206000000000000
(0946688517.322495) can0 00000103#0101010101010101
(0946688517.324290) can0 0000000C#62FF
(0946688517.324763) can0 0000000D#620C00000000
(0946688517.328100) can0 00000010#62FF
(0946688517.328637) can0 00000011#6200000000000000
(0946688517.332488) can0 00000103#0101010101010101
(0946688517.332994) can0 00000010#62FF
(0946688517.333492) can0 00000011#6206000000000000
(0946688517.337242) can0 00000010#62FF
(0946688517.337700) can0 00000011#620C00000000
(0946688517.341944) can0 00000014#62FF
(0946688517.342514) can0 00000103#0101010101010101
(0946688517.342765) can0 00000015#6200000000000000
(0946688517.352557) can0 00000103#0101010101010101
(0946688517.356714) can0 18FF1515#0000000100010000
(0946688517.357894) can0 00000014#62FF
(0946688517.358395) can0 00000015#6206000000000000
(0946688517.362495) can0 00000103#0101010101010101
(0946688517.363599) can0 00000014#62FF
(0946688517.364151) can0 00000015#620C00000000
(0946688517.367851) can0 00000018#62FF
(0946688517.368378) can0 00000019#6200000000000000
(0946688517.372492) can0 00000103#0101010101010101
(0946688517.373605) can0 00000018#62FF
(0946688517.374195) can0 00000019#6206000000000000
(0946688517.380200) can0 00000018#62FF
(0946688517.380684) can0 00000019#620C00000000
(0946688517.382509) can0 00000103#0101010101010101
(0946688517.385265) can0 0000001C#62FF
(0946688517.385714) can0 0000001D#6200000000000000
(0946688517.389437) can0 0000001C#62FF
(0946688517.389962) can0 0000001D#6206000000000000
(0946688517.392529) can0 00000103#0101010101010101
(0946688517.394521) can0 0000001C#62FF
(0946688517.394969) can0 0000001D#620C00000000
(0946688517.402453) can0 00000103#0101010101010101
(0946688517.412498) can0 00000103#0101010101010101
(0946688517.422525) can0 00000103#0101010101010101
(0946688517.432545) can0 00000103#0101010101010101
(0946688517.442512) can0 00000103#0101010101010101
(0946688517.452477) can0 00000103#0101010101010101
(0946688517.456667) can0 18FF1515#0000000100010000
(0946688517.459888) can0 19B50300#00
(0946688517.460419) can0 19B50300#0000000000000000
(0946688517.462550) can0 00000103#0101010101010101
(0946688517.469288) can0 19B50000#0004000000020060
(0946688517.469838) can0 19B50007#0000002700000000
(0946688517.470456) can0 19B50001#C6D0C99689000000
(0946688517.471052) can0 19B50002#7E807E0000000000
(0946688517.471591) can0 19B50003#0000000000000000
(0946688517.472213) can0 19B50008#7E7F7E0000000000
(0946688517.472524) can0 00000103#0101010101010101
(0946688517.473265) can0 19B50500#FFFC03E800006464
(0946688517.474322) can0 19B50600#FFFF0CE099990000
(0946688517.474846) can0 19B50009#C6D0C90000968900
(0946688517.482548) can0 00000103#0101010101010101
(0946688517.486267) can0 19B50301#0000000000000000
(0946688517.492660) can0 00000103#0101010101010101
(0946688517.502509) can0 00000103#0101010101010101
(0946688517.512591) can0 19B50302#0000000000000000
(0946688517.512835) can0 00000103#0101010101010101
(0946688517.522550) can0 00000103#0101010101010101
(0946688517.528701) can0 19B50303#0000000000000000
(0946688517.532512) can0 00000103#0101010101010101
(0946688517.542042) can0 19B50304#0000000000000000
(0946688517.542527) can0 00000103#0101010101010101
(0946688517.552562) can0 00000103#0101010101010101
(0946688517.556248) can0 19B50305#0000000000000000
(0946688517.556654) can0 18FF1515#0000000100010000
(0946688517.562536) can0 00000103#0101010101010101
(0946688517.571129) can0 19B50306#0000000000000000
(0946688517.572503) can0 00000103#0101010101010101
(0946688517.582544) can0 00000103#0101010101010101
(0946688517.592570) can0 00000103#0101010101010101
(0946688517.597176) can0 19B50307#0000000000000000
(0946688517.602567) can0 00000103#0101010101010101
(0946688517.610515) can0 19B50308#0000000000000000
(0946688517.612519) can0 00000103#0101010101010101
(0946688517.622493) can0 00000103#0101010101010101
(0946688517.625845) can0 19B50309#0000000000000000
(0946688517.632547) can0 00000103#0101010101010101
(0946688517.639762) can0 19B5030A#0000000000000000
(0946688517.642503) can0 00000103#0101010101010101
(0946688517.652515) can0 00000103#0101010101010101
(0946688517.654218) can0 19B5030B#0000000000000000
(0946688517.656760) can0 18FF1515#0000000100010000
(0946688517.662542) can0 00000103#0101010101010101
(0946688517.672500) can0 00000103#0101010101010101
(0946688517.682540) can0 00000103#0101010101010101
(0946688517.692488) can0 00000103#0101010101010101
(0946688517.701972) can0 00000007#6303860096A60000
(0946688517.702534) can0 00000103#0101010101010101
(0946688517.709251) can0 19B50000#0004000000020060
(0946688517.709833) can0 19B50007#0000002700000000
(0946688517.710457) can0 19B50001#C6D0C99689000000
(0946688517.710972) can0 19B50002#7E807E0000000000
(0946688517.711582) can0 19B50003#0000000000000000
(0946688517.712136) can0 19B50008#7E7F7E0000000000
(0946688517.712519) can0 00000103#0101010101010101
(0946688517.713191) can0 19B50500#FFFC03E800006464
(0946688517.714261) can0 19B50600#FFFF0CE099990000
(0946688517.714850) can0 19B50009#C6D0C90000968900
(0946688517.722491) can0 00000103#0101010101010101
(0946688517.732545) can0 00000103#0101010101010101
(0946688517.742497) can0 00000103#0101010101010101
(0946688517.752517) can0 00000103#0101010101010101
(0946688517.756695) can0 18FF1515#0000000100010000
(0946688517.762517) can0 00000103#0101010101010101
(0946688517.772504) can0 00000103#0101010101010101
(0946688517.782547) can0 00000103#0101010101010101
(0946688517.792530) can0 00000103#0101010101010101
(0946688517.801484) can0 00000008#63FF
(0946688517.802252) can0 00000009#63007E7E7E7E7EFF
(0946688517.802555) can0 00000103#0101010101010101
(0946688517.805555) can0 00000008#63FF
(0946688517.806042) can0 00000009#6306FFFFFFFFFFFF
(0946688517.807385) can0 00000001#ECFF0000ECFF0000
(0946688517.807717) can0 00000002#2FFC00009600FDFF
(0946688517.810779) can0 00000008#63FF
(0946688517.811244) can0 00000009#630CFFFFFFFF
(0946688517.812535) can0 00000103#0101010101010101
(0946688517.815571) can0 0000000C#63FF
(0946688517.816086) can0 0000000D#63007E7E7E7F7EFF
(0946688517.817510) can0 00000001#ECFF0000ECFF0000
(0946688517.817776) can0 00000002#2FFC00009600FDFF
(0946688517.822498) can0 00000103#0101010101010101
(0946688517.827603) can0 00000001#EBFF0000ECFF0000
(0946688517.827893) can0 00000002#2FFC00009600FDFF
(0946688517.832498) can0 00000103#0101010101010101
(0946688517.836463) can0 0000000C#63FF
(0946688517.836976) can0 0000000D#6306FFFFFFFFFFFF
(0946688517.837716) can0 00000001#ECFF0000EBFF0000
(0946688517.838016) can0 00000002#2FFC00009600FDFF
(0946688517.842487) can0 00000103#0101010101010101
(0946688517.843528) can0 0000000C#63FF
(0946688517.843991) can0 0000000D#630CFFFFFFFF
(0946688517.847863) can0 00000001#ECFF0000EBFF0000
(0946688517.848154) can0 00000002#2FFC00009600FDFF
(0946688517.848345) can0 00000010#63FF
(0946688517.848829) can0 00000011#63007F7F7F7F7FFF
(0946688517.852483) can0 00000103#0101010101010101
(0946688517.853437) can0 00000010#63FF
(0946688517.854005) can0 00000011#6306FFFFFFFFFFFF
(0946688517.856686) can0 18FF1515#0000000100010000
(0946688517.857939) can0 00000001#EDFF0000EBFF0000
(0946688517.858258) can0 00000002#2FFC00009600FDFF
(0946688517.858428) can0 00000010#63FF
(0946688517.858913) can0 00000011#630CFFFFFFFF
(0946688517.862521) can0 00000103#0101010101010101
(0946688517.863983) can0 00000014#63FF
(0946688517.864430) can0 00000015#63007F7F7F7F7FFF
(0946688517.868123) can0 00000001#ECFF0000EBFF0000
(0946688517.868373) can0 00000002#2FFC00009600FDFF
(0946688517.869687) can0 19B50000#0004000000020060
(0946688517.870294) can0 19B50007#0000002700000000
(0946688517.870849) can0 19B50001#C6D0C99689000000
(0946688517.871461) can0 19B50002#7E807E0000000000
(0946688517.872036) can0 19B50003#0000000000000000
(0946688517.872511) can0 00000103#0101010101010101
(0946688517.872847) can0 19B50008#7E7F7E0000000000
(0946688517.873600) can0 19B50500#FFFB03E800006464
(0946688517.874695) can0 19B50600#FFFF0CE099990000
(0946688517.875278) can0 19B50009#C6D0C90000968900
(0946688517.878249) can0 00000001#ECFF0000EBFF0000
(0946688517.878567) can0 00000002#2FFC00009600FDFF
(0946688517.882474) can0 00000103#0101010101010101
(0946688517.883404) can0 00000014#63FF
(0946688517.883883) can0 00000015#6306FFFFFFFFFFFF
(0946688517.888376) can0 00000001#ECFF0000EBFF0000
(0946688517.889225) can0 00000014#63FF
(0946688517.889525) can0 00000002#2FFC00009600FDFF
(0946688517.889774) can0 00000015#630CFFFFFFFF
(0946688517.892550) can0 00000103#0101010101010101
(0946688517.898442) can0 00000001#ECFF0000EBFF0000
(0946688517.898758) can0 00000002#2FFC00009600FDFF
(0946688517.902535) can0 00000103#0101010101010101
(0946688517.906512) can0 00000018#63FF
(0946688517.906992) can0 00000019#63007E7E7E7E7EFF
(0946688517.909478) can0 00000001#ECFF0000EBFF0000
(0946688517.909717) can0 00000002#2FFC00009600FDFF
(0946688517.912482) can0 00000103#0101010101010101
(0946688517.912723) can0 00000018#63FF
(0946688517.913219) can0 00000019#6306FFFFFFFFFFFF
(0946688517.917546) can0 00000018#63FF
(0946688517.918040) can0 00000019#630CFFFFFFFF
(0946688517.919574) can0 00000001#ECFF0000EBFF0000
(0946688517.919863) can0 00000002#2FFC00009600FDFF
(0946688517.922492) can0 00000103#0101010101010101
(0946688517.922893) can0 0000001C#63FF
(0946688517.923391) can0 0000001D#63007E7F7E7E7EFF
(0946688517.929687) can0 00000001#ECFF0000EBFF0000
(0946688517.929964) can0 00000002#2FFC00009600FDFF
(0946688517.932496) can0 00000103#0101010101010101
(0946688517.933991) can0 0000001C#63FF
(0946688517.934508) can0 0000001D#6306FFFFFFFFFFFF
(0946688517.938598) can0 0000001C#63FF
(0946688517.939051) can0 0000001D#630CFFFFFFFF
(0946688517.939788) can0 00000001#ECFF0000EBFF0000
(0946688517.940104) can0 00000002#2FFC00009600FDFF
(0946688517.942586) can0 00000103#0101010101010101
(0946688517.949978) can0 00000001#ECFF0000EBFF0000
(0946688517.950245) can0 00000002#2FFC00009600FDFF
(0946688517.952533) can0 00000103#0101010101010101
(0946688517.956716) can0 18FF1515#0000000100010000
(0946688517.960027) can0 00000001#ECFF0000ECFF0000
(0946688517.960348) can0 00000002#2FFC00009600FDFF
(0946688517.962533) can0 00000103#0101010101010101
(0946688517.970160) can0 00000001#ECFF0000ECFF0000
(0946688517.970445) can0 00000002#2FFC00009600FDFF
(0946688517.972490) can0 00000103#0101010101010101
(0946688517.980269) can0 00000001#ECFF0000ECFF0000
(0946688517.980550) can0 00000002#2FFC00009600FDFF
(0946688517.982530) can0 00000103#0101010101010101
(0946688517.990390) can0 00000001#ECFF0000ECFF0000
(0946688517.990702) can0 00000002#2FFC00009600FDFF
(0946688517.992530) can0 00000103#0101010101010101
(0946688518.000565) can0 00000001#ECFF0000EBFF0000
(0946688518.000794) can0 00000002#2FFC00009600FDFF
(0946688518.002521) can0 00000103#0101010101010101
(0946688518.008613) can0 19B50800#00
(0946688518.009146) can0 19B50800#7E7E7E7E7EFFFFFF
(0946688518.010646) can0 00000001#ECFF0000ECFF0000
(0946688518.010932) can0 00000002#2FFC00009600FDFF
(0946688518.012497) can0 00000103#0101010101010101
(0946688518.020773) can0 00000001#ECFF0000EBFF0000
(0946688518.021053) can0 00000002#2FFC00009600FDFF
(0946688518.022499) can0 00000103#0101010101010101
(0946688518.023731) can0 19B50801#FFFFFFFFFFFFFFFF
(0946688518.031780) can0 00000001#ECFF0000EBFF0000
(0946688518.032070) can0 00000002#2FFC00009700FDFF
(0946688518.032516) can0 00000103#0101010101010101
(0946688518.038401) can0 19B50802#7E7E7E7F7EFFFFFF
(0946688518.041987) can0 00000001#ECFF0000EBFF0000
(0946688518.042272) can0 00000002#2FFC00009700FDFF
(0946688518.042584) can0 00000103#0101010101010101
(0946688518.052050) can0 00000001#ECFF0000EBFF0000
(0946688518.052356) can0 00000002#30FC00009700FDFF
(0946688518.052658) can0 00000103#0101010101010101
(0946688518.056689) can0 18FF1515#0000000100010000
(0946688518.062272) can0 00000001#ECFF0000EBFF0000
(0946688518.062543) can0 00000002#2FFC00009700FDFF
(0946688518.062861) can0 00000103#0101010101010101
(0946688518.070197) can0 19B50803#FFFFFFFFFFFFFFFF
(0946688518.072394) can0 00000001#ECFF0000EBFF0000
(0946688518.072798) can0 00000002#2FFC00009700FDFF
(0946688518.072940) can0 00000103#0101010101010101
(0946688518.082491) can0 00000001#ECFF0000EBFF0000
(0946688518.082734) can0 00000103#0101010101010101
(0946688518.083063) can0 00000002#2FFC00009700FDFF
(0946688518.083388) can0 19B50000#0004000000020060
(0946688518.083840) can0 19B50007#0000002700000000
(0946688518.084420) can0 19B50001#C6D0C99689000000
(0946688518.084976) can0 19B50002#7E807E0000000000
(0946688518.085633) can0 19B50003#0000000000000000
(0946688518.086208) can0 19B50008#7E7F7E0000000000
(0946688518.087066) can0 19B50500#FFFD03E800006464
(0946688518.088297) can0 19B50600#FFFF0CE099990000
(0946688518.088855) can0 19B50009#C6D0C90000968900
(0946688518.092505) can0 00000103#0101010101010101
(0946688518.092810) can0 00000001#ECFF0000EBFF0000
(0946688518.093078) can0 00000002#2FFC00009700FDFF
(0946688518.099060) can0 19B50804#7F7F7F7F7FFFFFFF
(0946688518.102572) can0 00000103#0101010101010101
(0946688518.102806) can0 00000001#ECFF0000EBFF0000
(0946688518.103120) can0 00000002#2FFC00009700FDFF
(0946688518.112527) can0 00000103#0101010101010101
(0946688518.112826) can0 00000001#ECFF0000EBFF0000
(0946688518.113156) can0 00000002#2FFC00009700FDFF
(0946688518.115981) can0 19B50805#FFFFFFFFFFFFFFFF
(0946688518.122510) can0 00000103#0101010101010101
(0946688518.122946) can0 00000001#ECFF0000EBFF0000
(0946688518.123191) can0 00000002#2FFC00009700FDFF
(0946688518.130639) can0 19B50806#7F7F7F7F7FFFFFFF
(0946688518.132511) can0 00000103#0101010101010101
(0946688518.133006) can0 00000001#ECFF0000EBFF0000
(0946688518.133302) can0 00000002#2FFC00009700FDFF
(0946688518.142560) can0 00000103#0101010101010101
(0946688518.143138) can0 00000001#ECFF0000EBFF0000
(0946688518.143471) can0 00000002#2EFC00009700FDFF
(0946688518.145522) can0 19B50807#FFFFFFFFFFFFFFFF
(0946688518.152531) can0 00000103#0101010101010101
(0946688518.153279) can0 00000001#ECFF0000ECFF0000
(0946688518.153578) can0 00000002#2EFC00009700FDFF
(0946688518.156681) can0 18FF1515#0000000100010000
(0946688518.162500) can0 00000103#0101010101010101
(0946688518.163427) can0 00000001#ECFF0000ECFF0000
(0946688518.164697) can0 00000002#2FFC00009700FDFF
(0946688518.172539) can0 00000103#0101010101010101
(0946688518.173404) can0 00000001#ECFF0000ECFF0000
(0946688518.173718) can0 00000002#2FFC00009700FDFF
(0946688518.176515) can0 19B50808#7E7E7E7E7EFFFFFF
(0946688518.182545) can0 00000103#0101010101010101
(0946688518.184380) can0 00000001#ECFF0000ECFF0000
(0946688518.184634) can0 00000002#2FFC00009700FDFF
(0946688518.191997) can0 19B50809#FFFFFFFFFFFFFFFF
(0946688518.192510) can0 00000103#0101010101010101
(0946688518.194621) can0 00000001#ECFF0000EBFF0000
(0946688518.194867) can0 00000002#2FFC00009700FDFF
(0946688518.201451) can0 00000007#6403860096A60000
(0946688518.202512) can0 00000103#0101010101010101
(0946688518.204690) can0 00000001#ECFF0000EBFF0000
(0946688518.204965) can0 00000002#2FFC00009700FDFF
(0946688518.212568) can0 00000103#0101010101010101
(0946688518.214817) can0 00000001#ECFF0000EBFF0000
(0946688518.215090) can0 00000002#2FFC00009700FDFF
(0946688518.222565) can0 00000103#0101010101010101
(0946688518.224901) can0 00000001#ECFF0000EBFF0000
(0946688518.225227) can0 00000002#2FFC00009700FDFF
(0946688518.232541) can0 00000103#0101010101010101
(0946688518.235014) can0 00000001#ECFF0000EBFF0000
(0946688518.235329) can0 00000002#2FFC00009700FDFF
(0946688518.242498) can0 00000103#0101010101010101
(0946688518.245109) can0 00000001#ECFF0000EBFF0000
(0946688518.245400) can0 00000002#2FFC00009700FDFF
(0946688518.252494) can0 00000103#0101010101010101
(0946688518.255219) can0 00000001#ECFF0000EBFF0000
(0946688518.255498) can0 00000002#2FFC00009700FDFF
(0946688518.256640) can0 18FF1515#0000000100010000
(0946688518.262531) can0 00000103#0101010101010101
(0946688518.265268) can0 00000001#ECFF0000EBFF0000
(0946688518.265545) can0 00000002#2FFC00009700FDFF
(0946688518.266577) can0 19B50000#0004000000020060
(0946688518.267228) can0 19B50007#0000002700000000
(0946688518.267950) can0 19B50001#C6D0C99689000000
(0946688518.268567) can0 19B50002#7E807E0000000000
(0946688518.269155) can0 19B50003#0000000000000000
(0946688518.269746) can0 19B50008#7E7F7E0000000000
(0946688518.270600) can0 19B50500#FFFC03E800006464
(0946688518.271741) can0 19B50600#FFFF0CE099990000
(0946688518.272223) can0 19B50009#C6D0C90000968900
(0946688518.272567) can0 00000103#0101010101010101
(0946688518.275481) can0 00000001#ECFF0000EBFF0000
(0946688518.275658) can0 00000002#2FFC00009700FDFF
(0946688518.282543) can0 00000103#0101010101010101
(0946688518.285477) can0 00000001#ECFF0000EBFF0000
(0946688518.285757) can0 00000002#2FFC00009700FDFF
(0946688518.292491) can0 00000103#0101010101010101
(0946688518.295543) can0 00000001#ECFF0000EBFF0000
(0946688518.295819) can0 00000002#2FFC00009700FDFF
(0946688518.301482) can0 00000008#64FF
(0946688518.302404) can0 00000009#64007E7E7E7E7EFF
(0946688518.302710) can0 00000103#0101010101010101
(0946688518.305667) can0 00000001#ECFF0000ECFF0000
(0946688518.305923) can0 00000002#2FFC00009700FDFF
(0946688518.312496) can0 00000103#0101010101010101
(0946688518.315825) can0 00000001#ECFF0000ECFF0000
(0946688518.316078) can0 00000002#2FFC00009700FDFF
(0946688518.317663) can0 00000008#64FF
(0946688518.318143) can0 00000009#6406FFFFFFFFFFFF
(0946688518.322504) can0 00000103#0101010101010101
(0946688518.324030) can0 00000008#64FF
(0946688518.324443) can0 00000009#640CFFFFFFFF
(0946688518.325907) can0 00000001#ECFF0000ECFF0000
(0946688518.326173) can0 00000002#2FFC00009700FDFF
(0946688518.328328) can0 0000000C#64FF
(0946688518.328830) can0 0000000D#64007E7E7E7F7EFF
(0946688518.332494) can0 00000103#0101010101010101
(0946688518.333778) can0 0000000C#64FF
(0946688518.334254) can0 0000000D#6406FFFFFFFFFFFF
(0946688518.336705) can0 00000001#ECFF0000ECFF0000
(0946688518.336970) can0 00000002#2FFC00009700FDFF
(0946688518.338245) can0 0000000C#64FF
(0946688518.338699) can0 0000000D#640CFFFFFFFF
(0946688518.342532) can0 00000103#0101010101010101
(0946688518.346092) can0 00000010#64FF
(0946688518.346586) can0 00000011#64007F7F7F7F7FFF
(0946688518.346822) can0 00000001#ECFF0000EBFF0000
(0946688518.347146) can0 00000002#2EFC00009700FDFF
(0946688518.351544) can0 00000010#64FF
(0946688518.352110) can0 00000011#6406FFFFFFFFFFFF
(0946688518.352504) can0 00000103#0101010101010101
(0946688518.356666) can0 18FF1515#0000000100010000
(0946688518.356954) can0 00000001#ECFF0000ECFF0000
(0946688518.357227) can0 00000002#2FFC00009700FDFF
(0946688518.360106) can0 00000010#64FF
(0946688518.360527) can0 00000011#640CFFFFFFFF
(0946688518.362531) can0 00000103#0101010101010101
(0946688518.367003) can0 00000001#ECFF0000ECFF0000
(0946688518.367254) can0 00000002#2FFC00009700FDFF
(0946688518.372516) can0 00000103#0101010101010101
(0946688518.376739) can0 00000014#64FF
(0946688518.377071) can0 00000001#ECFF0000ECFF0000
(0946688518.377426) can0 00000002#2FFC00009700FDFF
(0946688518.382535) can0 00000103#0101010101010101
(0946688518.387204) can0 00000001#ECFF0000EBFF0000
(0946688518.387502) can0 00000002#2FFC00009700FDFF
(0946688518.392490) can0 00000103#0101010101010101
(0946688518.397323) can0 00000001#ECFF0000EBFF0000
(0946688518.397565) can0 00000002#2FFC00009700FDFF
(0946688518.402483) can0 00000103#0101010101010101
(0946688518.407392) can0 00000001#ECFF0000EBFF0000
(0946688518.407684) can0 00000002#2EFC00009700FDFF
(0946688518.412481) can0 00000103#0101010101010101
(0946688518.417524) can0 00000001#ECFF0000EBFF0000
(0946688518.417811) can0 00000002#2FFC00009700FDFF
(0946688518.422514) can0 00000103#0101010101010101
(0946688518.427605) can0 00000001#ECFF0000EBFF0000
(0946688518.427889) can0 00000002#2EFC00009700FDFF
(0946688518.432512) can0 00000103#0101010101010101
(0946688518.437729) can0 00000001#ECFF0000EBFF0000
(0946688518.437989) can0 00000002#2EFC00009700FDFF
(0946688518.442477) can0 00000103#0101010101010101
(0946688518.447816) can0 00000001#ECFF0000EBFF0000
(0946688518.448155) can0 00000002#2EFC00009700FDFF
(0946688518.452489) can0 00000103#0101010101010101
(0946688518.456674) can0 18FF1515#0000000100010000
(0946688518.457939) can0 00000001#ECFF0000EBFF0000
(0946688518.458244) can0 00000002#2FFC00009700FDFF
(0946688518.462486) can0 00000103#0101010101010101
(0946688518.463841) can0 19B50000#0004000000020060
(0946688518.464471) can0 19B50007#0000002700000000
(0946688518.465057) can0 19B50001#C6D0C99689000000
(0946688518.465713) can0 19B50002#7E807E0000000000
(0946688518.466297) can0 19B50003#0000000000000000
(0946688518.466832) can0 19B50008#7E7F7E0000000000
(0946688518.467833) can0 19B50500#FFFC03E800006464
(0946688518.468138) can0 00000001#ECFF0000EBFF0000
(0946688518.468440) can0 00000002#2EFC00009700FDFF
(0946688518.469375) can0 19B50600#FFFF0CE099990000
(0946688518.470088) can0 19B50009#C6D0C90000968900
(0946688518.472520) can0 00000103#0101010101010101
(0946688518.478153) can0 00000001#ECFF0000EBFF0000
(0946688518.478450) can0 00000002#2FFC00009700FDFF
(0946688518.482518) can0 00000103#0101010101010101
(0946688518.488254) can0 00000001#ECFF0000EBFF0000
(0946688518.488488) can0 00000002#2FFC00009700FDFF
(0946688518.492512) can0 00000103#0101010101010101
(0946688518.498335) can0 00000001#ECFF0000EBFF0000
(0946688518.498610) can0 00000002#2FFC00009700FDFF
(0946688518.502502) can0 00000103#0101010101010101
(0946688518.508417) can0 00000001#ECFF0000EBFF0000
(0946688518.508702) can0 00000002#30FC00009700FDFF
(0946688518.512578) can0 00000103#0101010101010101
(0946688518.519243) can0 00000001#ECFF0000ECFF0000
(0946688518.519463) can0 00000002#2FFC00009700FDFF
(0946688518.522558) can0 00000103#0101010101010101
(0946688518.529299) can0 00000001#ECFF0000EBFF0000
(0946688518.529574) can0 00000002#2FFC00009700FDFF
(0946688518.532625) can0 00000103#0101010101010101
(0946688518.539463) can0 00000001#ECFF0000ECFF0000
(0946688518.539674) can0 00000002#30FC00009700FDFF
(0946688518.542501) can0 00000103#0101010101010101
(0946688518.549509) can0 00000001#ECFF0000ECFF0000
(0946688518.549813) can0 00000002#2FFC00009700FDFF
(0946688518.552543) can0 00000103#0101010101010101
(0946688518.556677) can0 18FF1515#0000000100010000
(0946688518.559686) can0 00000001#ECFF0000EBFF0000
(0946688518.559946) can0 00000002#2FFC00009800FDFF
(0946688518.562498) can0 00000103#0101010101010101
(0946688518.569734) can0 00000001#ECFF0000EBFF0000
(0946688518.570058) can0 00000002#2FFC00009800FDFF
(0946688518.572512) can0 00000103#0101010101010101
(0946688518.579826) can0 00000001#ECFF0000EBFF0000
(0946688518.580101) can0 00000002#2FFC00009800FDFF
(0946688518.582510) can0 00000103#0101010101010101
(0946688518.589932) can0 00000001#ECFF0000EBFF0000
(0946688518.590217) can0 00000002#2FFC00009800FDFF
(0946688518.592517) can0 00000103#0101010101010101
(0946688518.600017) can0 00000001#EDFF0000EBFF0000
(0946688518.600293) can0 00000002#2FFC00009800FDFF
(0946688518.602495) can0 00000103#0101010101010101
(0946688518.610118) can0 00000001#EDFF0000EBFF0000
(0946688518.610415) can0 00000002#2FFC00009800FDFF
(0946688518.612493) can0 00000103#0101010101010101
(0946688518.620214) can0 00000001#EDFF0000EBFF0000
(0946688518.620533) can0 00000002#2FFC00009800FDFF
(0946688518.622532) can0 00000103#0101010101010101
(0946688518.630367) can0 00000001#ECFF0000ECFF0000
(0946688518.630678) can0 00000002#30FC00009800FDFF
(0946688518.632506) can0 00000103#0101010101010101
(0946688518.640448) can0 00000001#ECFF0000ECFF0000
(0946688518.640748) can0 00000002#2FFC00009800FDFF
(0946688518.642501) can0 00000103#0101010101010101
(0946688518.650554) can0 00000001#ECFF0000ECFF0000
(0946688518.650815) can0 00000002#30FC00009800FDFF
(0946688518.652572) can0 00000103#0101010101010101
(0946688518.656662) can0 18FF1515#0000000100010000
(0946688518.660695) can0 00000001#EDFF0000ECFF0000
(0946688518.660971) can0 00000002#2FFC00009800FDFF
(0946688518.662568) can0 00000103#0101010101010101
(0946688518.667666) can0 19B50000#0004000000020060
(0946688518.668164) can0 19B50007#0000002700000000
(0946688518.668785) can0 19B50001#C6D0C99689000000
(0946688518.669383) can0 19B50002#7E807E0000000000
(0946688518.670042) can0 19B50003#0000000000000000
(0946688518.670716) can0 19B50008#7E7F7E0000000000
(0946688518.670959) can0 00000001#EDFF0000ECFF0000
(0946688518.671264) can0 00000002#2FFC00009800FCFF
(0946688518.672022) can0 19B50500#FFFB03E800006464
(0946688518.672588) can0 00000103#0101010101010101
(0946688518.673223) can0 19B50600#FFFF0CE099990000
(0946688518.673814) can0 19B50009#C6D0C90000968900
(0946688518.680962) can0 00000001#ECFF0000EBFF0000
(0946688518.682047) can0 00000002#2EFC00009800FCFF
(0946688518.682579) can0 00000103#0101010101010101
(0946688518.691086) can0 00000001#ECFF0000EBFF0000
(0946688518.691348) can0 00000002#2EFC00009800FCFF
(0946688518.692554) can0 00000103#0101010101010101
(0946688518.701224) can0 00000001#EBFF0000EBFF0000
(0946688518.701499) can0 00000002#2EFC00009800FCFF
(0946688518.702516) can0 00000103#0101010101010101
(0946688518.711294) can0 00000001#ECFF0000EBFF0000
(0946688518.711554) can0 00000002#2FFC00009800FCFF
(0946688518.712522) can0 00000103#0101010101010101
(0946688518.721831) can0 00000001#ECFF0000EBFF0000
(0946688518.722086) can0 00000002#2FFC00009800FCFF
(0946688518.722486) can0 00000103#0101010101010101
(0946688518.731956) can0 00000001#ECFF0000ECFF0000
(0946688518.732216) can0 00000002#30FC00009800FCFF
(0946688518.732500) can0 00000103#0101010101010101
(0946688518.742013) can0 00000001#ECFF0000ECFF0000
(0946688518.742346) can0 00000002#2FFC00009800FCFF
(0946688518.742604) can0 00000103#0101010101010101
(0946688518.752153) can0 00000001#ECFF0000ECFF0000
(0946688518.752423) can0 00000002#2FFC00009800FCFF
(0946688518.752696) can0 00000103#0101010101010101
(0946688518.756650) can0 18FF1515#0000000100010000
(0946688518.762268) can0 00000001#ECFF0000ECFF0000
(0946688518.762530) can0 00000002#2FFC00009800FCFF
(0946688518.762824) can0 00000103#0101010101010101
(0946688518.772341) can0 00000001#ECFF0000ECFF0000
(0946688518.772639) can0 00000002#2FFC00009800FCFF
(0946688518.772972) can0 00000103#0101010101010101
(0946688518.782519) can0 00000001#EDFF0000ECFF0000
(0946688518.782793) can0 00000103#0101010101010101
(0946688518.783082) can0 00000002#2EFC00009800FCFF
(0946688518.792514) can0 00000103#0101010101010101
(0946688518.792839) can0 00000001#ECFF0000ECFF0000
(0946688518.793106) can0 00000002#2FFC00009800FCFF
(0946688518.802556) can0 00000103#0101010101010101
(0946688518.802822) can0 00000001#EDFF0000ECFF0000
(0946688518.803128) can0 00000002#2EFC00009800FCFF
(0946688518.812545) can0 00000103#0101010101010101
(0946688518.812801) can0 00000001#ECFF0000EBFF0000
(0946688518.813097) can0 00000002#2FFC00009800FCFF
(0946688518.822544) can0 00000103#0101010101010101
(0946688518.822861) can0 00000001#ECFF0000EBFF0000
(0946688518.823236) can0 00000002#2EFC00009800FCFF
(0946688518.831237) can0 00000007#6503860096A60000
(0946688518.832517) can0 00000103#0101010101010101
(0946688518.832965) can0 00000001#ECFF0000EBFF0000
(0946688518.833272) can0 00000002#2EFC00009800FCFF
(0946688518.842558) can0 00000103#0101010101010101
(0946688518.843138) can0 00000001#ECFF0000EBFF0000
(0946688518.843393) can0 00000002#2FFC00009800FCFF
(0946688518.852570) can0 00000103#0101010101010101
(0946688518.853284) can0 00000001#ECFF0000EBFF0000
(0946688518.853574) can0 00000002#2EFC00009800FCFF
(0946688518.856671) can0 18FF1515#0000000100010000
(0946688518.862492) can0 00000103#0101010101010101
(0946688518.863372) can0 00000001#ECFF0000EBFF0000
(0946688518.863658) can0 00000002#2FFC00009800FCFF
(0946688518.865572) can0 19B50000#0004000000020060
(0946688518.866165) can0 19B50007#0000002700000000
(0946688518.867087) can0 19B50001#C6D0C99689000000
(0946688518.867600) can0 19B50002#7E807E0000000000
(0946688518.868193) can0 19B50003#0000000000000000
(0946688518.868823) can0 19B50008#7E7F7E0000000000
(0946688518.869625) can0 19B50500#FFFC03E800006464
(0946688518.870764) can0 19B50600#FFFF0CE099990000
(0946688518.871249) can0 19B50009#C6D0C90000968900
(0946688518.872490) can0 00000103#0101010101010101
(0946688518.874401) can0 00000001#EDFF0000EBFF0000
(0946688518.874690) can0 00000002#2FFC00009800FCFF
(0946688518.882486) can0 00000103#0101010101010101
(0946688518.884526) can0 00000001#ECFF0000EBFF0000
(0946688518.884827) can0 00000002#2FFC00009800FCFF
(0946688518.892486) can0 00000103#0101010101010101
(0946688518.894591) can0 00000001#ECFF0000EBFF0000
(0946688518.894846) can0 00000002#2FFC00009800FCFF
(0946688518.902496) can0 00000103#0101010101010101
(0946688518.904685) can0 00000001#ECFF0000EBFF0000
(0946688518.904959) can0 00000002#30FC00009800FCFF
(0946688518.912507) can0 00000103#0101010101010101
(0946688518.914827) can0 00000001#ECFF0000EBFF0000
(0946688518.915105) can0 00000002#2EFC00009800FCFF
(0946688518.922534) can0 00000103#0101010101010101
(0946688518.924968) can0 00000001#ECFF0000EBFF0000
(0946688518.925200) can0 00000002#2FFC00009800FCFF
(0946688518.932488) can0 00000103#0101010101010101
(0946688518.935017) can0 00000001#ECFF0000EBFF0000
(0946688518.935295) can0 00000002#2EFC00009800FCFF
(0946688518.939680) can0 00000014#65FF
(0946688518.940162) can0 00000015#65007F7F7F7F7FFF
(0946688518.942485) can0 00000103#0101010101010101
(0946688518.942721) can0 00000014#65FF
(0946688518.943192) can0 00000015#6506FFFFFFFFFFFF
(0946688518.945131) can0 00000001#ECFF0000EBFF0000
(0946688518.945379) can0 00000002#2FFC00009800FCFF
(0946688518.947123) can0 00000014#65FF
(0946688518.947594) can0 00000015#650CFFFFFFFF
(0946688518.952378) can0 00000018#65FF
(0946688518.952695) can0 00000103#0101010101010101
(0946688518.952969) can0 00000019#65007E7E7E7E7EFF
(0946688518.955174) can0 00000001#EBFF0000EBFF0000
(0946688518.955508) can0 00000002#2FFC00009800FCFF
(0946688518.956701) can0 18FF1515#0000000100010000
(0946688518.957475) can0 00000018#65FF
(0946688518.957966) can0 00000019#6506FFFFFFFFFFFF
(0946688518.962478) can0 00000103#0101010101010101
(0946688518.963146) can0 00000018#65FF
(0946688518.963609) can0 00000019#650CFFFFFFFF
(0946688518.965307) can0 00000001#EBFF0000EBFF0000
(0946688518.965581) can0 00000002#2FFC00009800FCFF
(0946688518.967662) can0 0000001C#65FF
(0946688518.968165) can0 0000001D#65007E7F7E7E7EFF
(0946688518.972495) can0 00000103#0101010101010101
(0946688518.975275) can0 0000001C#65FF
(0946688518.975562) can0 00000001#ECFF0000EBFF0000
(0946688518.975832) can0 00000002#30FC00009800FCFF
(0946688518.982501) can0 00000103#0101010101010101
(0946688518.985560) can0 00000001#EDFF0000EBFF0000
(0946688518.985807) can0 00000002#30FC00009800FCFF
(0946688518.992493) can0 00000103#0101010101010101
(0946688518.995707) can0 00000001#EEFF0000EBFF0000
(0946688518.995981) can0 00000002#31FC00009800FCFF
(0946688519.002478) can0 00000103#0101010101010101
(0946688519.006680) can0 00000001#EEFF0000EBFF0000
(0946688519.006965) can0 00000002#30FC00009800FCFF
(0946688519.012507) can0 00000103#0101010101010101
(0946688519.016760) can0 00000001#EEFF0000ECFF0000
(0946688519.017038) can0 00000002#30FC00009800FCFF
(0946688519.022503) can0 00000103#0101010101010101
(0946688519.026828) can0 00000001#EDFF0000ECFF0000
(0946688519.027212) can0 00000002#2FFC00009800FCFF
(0946688519.032488) can0 00000103#0101010101010101
(0946688519.036959) can0 00000001#EDFF0000ECFF0000
(0946688519.037222) can0 00000002#2FFC00009800FCFF
(0946688519.042513) can0 00000103#0101010101010101
(0946688519.047023) can0 00000001#EDFF0000ECFF0000
(0946688519.047356) can0 00000002#2FFC00009800FCFF
(0946688519.052477) can0 00000103#0101010101010101
(0946688519.056644) can0 18FF1515#0000000100010000
(0946688519.057120) can0 00000001#ECFF0000ECFF0000
(0946688519.057433) can0 00000002#2EFC00009800FCFF
(0946688519.062497) can0 00000103#0101010101010101
(0946688519.063998) can0 19B50000#0004000000020060
(0946688519.064591) can0 19B50007#0000002700000000
(0946688519.065154) can0 19B50001#C6D0C99689000000
(0946688519.065757) can0 19B50002#7E807E0000000000
(0946688519.066541) can0 19B50003#0000000000000000
(0946688519.067190) can0 19B50008#7E7F7E0000000000
(0946688519.067500) can0 00000001#EBFF0000ECFF0000
(0946688519.067821) can0 00000002#2EFC00009800FCFF
(0946688519.068158) can0 19B50500#FFFD03E800006464
(0946688519.069248) can0 19B50600#FFFF0CE099990000
(0946688519.069832) can0 19B50009#C6D0C90000968900
(0946688519.072519) can0 00000103#0101010101010101
(0946688519.077503) can0 00000001#EBFF0000ECFF0000
(0946688519.077802) can0 00000002#2EFC00009800FCFF
(0946688519.082552) can0 00000103#0101010101010101
(0946688519.087592) can0 00000001#ECFF0000EBFF0000
(0946688519.087908) can0 00000002#30FC00009800FCFF
(0946688519.092528) can0 00000103#0101010101010101
(0946688519.097711) can0 00000001#EBFF0000EBFF0000
(0946688519.098007) can0 00000002#30FC00009900FCFF
(0946688519.102498) can0 00000103#0101010101010101
(0946688519.107769) can0 00000001#ECFF0000EBFF0000
(0946688519.108069) can0 00000002#30FC00009900FCFF
(0946688519.112520) can0 00000103#0101010101010101
(0946688519.117897) can0 00000001#ECFF0000EBFF0000
(0946688519.118188) can0 00000002#30FC00009900FCFF
(0946688519.122487) can0 00000103#0101010101010101
(0946688519.128016) can0 00000001#EDFF0000ECFF0000
(0946688519.128311) can0 00000002#30FC00009900FCFF
(0946688519.132481) can0 00000103#0101010101010101
(0946688519.138135) can0 00000001#EDFF0000ECFF0000
(0946688519.138417) can0 00000002#30FC00009900FCFF
(0946688519.142476) can0 00000103#0101010101010101
(0946688519.148176) can0 00000001#EEFF0000ECFF0000
(0946688519.148480) can0 00000002#2FFC00009900FCFF
(0946688519.152508) can0 00000103#0101010101010101
(0946688519.156650) can0 18FF1515#0000000100010000
(0946688519.159184) can0 00000001#EEFF0000EDFF0000
(0946688519.159416) can0 00000002#2FFC00009900FCFF
(0946688519.162484) can0 00000103#0101010101010101
(0946688519.169249) can0 00000001#EEFF0000ECFF0000
(0946688519.169540) can0 00000002#2FFC00009900FCFF
(0946688519.172515) can0 00000103#0101010101010101
(0946688519.179391) can0 00000001#EDFF0000EDFF0000
(0946688519.179645) can0 00000002#2EFC00009900FCFF
(0946688519.182533) can0 00000103#0101010101010101
(0946688519.189450) can0 00000001#ECFF0000EDFF0000
(0946688519.189737) can0 00000002#2EFC00009900FCFF
(0946688519.192479) can0 00000103#0101010101010101
(0946688519.199595) can0 00000001#ECFF0000ECFF0000
(0946688519.199815) can0 00000002#2EFC00009900FCFF
(0946688519.202509) can0 00000103#0101010101010101
(0946688519.209641) can0 00000001#EBFF0000ECFF0000
(0946688519.209932) can0 00000002#2FFC00009900FCFF
(0946688519.212521) can0 00000103#0101010101010101
(0946688519.219722) can0 00000001#EBFF0000EBFF0000
(0946688519.220024) can0 00000002#2FFC00009900FCFF
(0946688519.222508) can0 00000103#0101010101010101
(0946688519.229815) can0 00000001#ECFF0000EBFF0000
(0946688519.230125) can0 00000002#2FFC00009900FCFF
(0946688519.232484) can0 00000103#0101010101010101
(0946688519.239954) can0 00000001#ECFF0000EBFF0000
(0946688519.240219) can0 00000002#30FC00009900FCFF
(0946688519.242489) can0 00000103#0101010101010101
(0946688519.250024) can0 00000001#ECFF0000EAFF0000
(0946688519.250325) can0 00000002#30FC00009900FCFF
(0946688519.252479) can0 00000103#0101010101010101
(0946688519.256683) can0 18FF1515#0000000100010000
(0946688519.260133) can0 00000001#ECFF0000EAFF0000
(0946688519.260400) can0 00000002#30FC00009900FCFF
(0946688519.262498) can0 00000103#0101010101010101
(0946688519.264961) can0 19B50000#0004000000020060
(0946688519.265585) can0 19B50007#0000002700000000
(0946688519.266313) can0 19B50001#C6D0C99689000000
(0946688519.266969) can0 19B50002#7E807E0000000000
(0946688519.267508) can0 19B50003#0000000000000000
(0946688519.268120) can0 19B50008#7E7F7E0000000000
(0946688519.268969) can0 19B50500#FFFD03E800006464
(0946688519.270083) can0 19B50600#FFFF0CE099990000
(0946688519.270319) can0 00000001#EDFF0000ECFF0000
(0946688519.270625) can0 00000002#2FFC00009900FCFF
(0946688519.270934) can0 19B50009#C6D0C90000968900
(0946688519.272522) can0 00000103#0101010101010101
(0946688519.280337) can0 00000001#EDFF0000ECFF0000
(0946688519.280615) can0 00000002#2FFC00009900FCFF
(0946688519.282484) can0 00000103#0101010101010101
(0946688519.290445) can0 00000001#EDFF0000ECFF0000
(0946688519.290680) can0 00000002#2FFC00009900FCFF
(0946688519.292493) can0 00000103#0101010101010101
(0946688519.300521) can0 00000001#EDFF0000ECFF0000
(0946688519.300822) can0 00000002#30FC00009900FCFF
(0946688519.302511) can0 00000103#0101010101010101
(0946688519.310593) can0 00000001#ECFF0000ECFF0000
(0946688519.310893) can0 00000002#30FC00009900FCFF
(0946688519.312454) can0 00000103#0101010101010101
(0946688519.320700) can0 00000001#ECFF0000ECFF0000
(0946688519.321028) can0 00000002#30FC00009900FCFF
(0946688519.322508) can0 00000103#0101010101010101
(0946688519.331584) can0 00000001#ECFF0000ECFF0000
(0946688519.331857) can0 00000002#30FC00009900FCFF
(0946688519.332476) can0 00000103#0101010101010101
(0946688519.341741) can0 00000001#ECFF0000ECFF0000
(0946688519.342011) can0 00000002#30FC00009900FCFF
(0946688519.342481) can0 00000103#0101010101010101
(0946688519.351828) can0 00000001#ECFF0000ECFF0000
(0946688519.352121) can0 00000002#2FFC00009900FCFF
(0946688519.352470) can0 00000103#0101010101010101
(0946688519.356628) can0 18FF1515#0000000100010000
(0946688519.361965) can0 00000001#ECFF0000ECFF0000
(0946688519.362248) can0 00000002#2EFC00009900FCFF
(0946688519.362558) can0 00000103#0101010101010101
(0946688519.372065) can0 00000001#ECFF0000EBFF0000
(0946688519.372346) can0 00000002#2EFC00009900FCFF
(0946688519.372624) can0 00000103#0101010101010101
(0946688519.382188) can0 00000001#ECFF0000EBFF0000
(0946688519.382451) can0 00000002#2EFC00009900FCFF
(0946688519.382716) can0 00000103#0101010101010101
(0946688519.392311) can0 00000001#ECFF0000EBFF0000
(0946688519.392619) can0 00000002#2EFC00009900FCFF
(0946688519.392841) can0 00000103#0101010101010101
(0946688519.402422) can0 00000001#ECFF0000EBFF0000
(0946688519.402710) can0 00000103#0101010101010101
(0946688519.403004) can0 00000002#2FFC00009900FCFF
(0946688519.412485) can0 00000103#0101010101010101
(0946688519.412767) can0 00000001#ECFF0000EBFF0000
(0946688519.413089) can0 00000002#2FFC00009900FCFF
(0946688519.422579) can0 00000103#0101010101010101
(0946688519.422782) can0 00000001#ECFF0000EBFF0000
(0946688519.423080) can0 00000002#2FFC00009900FCFF
(0946688519.432499) can0 00000103#0101010101010101
(0946688519.432787) can0 00000001#ECFF0000EBFF0000
(0946688519.433100) can0 00000002#2FFC00009900FCFF
(0946688519.440035) can0 00000007#6603860096A60000
(0946688519.442568) can0 00000103#0101010101010101
(0946688519.442827) can0 00000001#EAFF0000F0FF0000
(0946688519.443139) can0 00000002#26FC00009900FCFF
(0946688519.452493) can0 00000103#0101010101010101
(0946688519.452967) can0 00000001#F1FF0000EEFF0000
(0946688519.453233) can0 00000002#38FC00009900FCFF
(0946688519.456693) can0 18FF1515#0000000100010000
(0946688519.462081) can0 19B50000#0004000000020060
(0946688519.462528) can0 00000103#0101010101010101
(0946688519.462830) can0 19B50007#0000002700000000
(0946688519.463085) can0 00000001#EFFF0000F0FF0000
(0946688519.463414) can0 00000002#2BFC00009900FCFF
(0946688519.463696) can0 19B50001#C6D0C99689000000
(0946688519.464300) can0 19B50002#7E807E0000000000
(0946688519.464897) can0 19B50003#0000000000000000
(0946688519.465460) can0 19B50008#7E7F7E0000000000
(0946688519.466548) can0 19B50500#FFFB03E800006464
(0946688519.467633) can0 19B50600#FFFF0CE099990000
(0946688519.468190) can0 19B50009#C6D0C90000968900
(0946688519.472503) can0 00000103#0101010101010101
(0946688519.473157) can0 00000001#E4FF0000EBFF0000
(0946688519.473450) can0 00000002#2CFC00009900FCFF
(0946688519.482498) can0 00000103#0101010101010101
(0946688519.483255) can0 00000001#EFFF0000F0FF0000
(0946688519.483534) can0 00000002#31FC00009900FCFF
(0946688519.492532) can0 00000103#0101010101010101
(0946688519.493360) can0 00000001#E4FF0000F0FF0000
(0946688519.493658) can0 00000002#28FC00009900FCFF
(0946688519.502537) can0 00000103#0101010101010101
(0946688519.503480) can0 00000001#EDFF0000E7FF0000
(0946688519.503770) can0 00000002#32FC00009A00FCFF
(0946688519.512519) can0 00000103#0101010101010101
(0946688519.513600) can0 00000001#EEFF0000EBFF0000
(0946688519.513855) can0 00000002#2BFC00009900FCFF
(0946688519.522529) can0 00000103#0101010101010101
(0946688519.523726) can0 00000001#E7FF0000EDFF0000
(0946688519.523993) can0 00000002#2CFC00009A00FCFF
(0946688519.532495) can0 00000103#0101010101010101
(0946688519.533803) can0 00000001#EFFF0000E9FF0000
(0946688519.534502) can0 00000002#2BFC00009A00FCFF
(0946688519.539181) can0 0000001C#66FF
(0946688519.539675) can0 0000001D#66007E7F7E7E7EFF
(0946688519.542215) can0 0000001C#66FF
(0946688519.542526) can0 00000103#0101010101010101
(0946688519.542804) can0 0000001D#6606FFFFFFFFFFFF
(0946688519.544446) can0 00000001#E9FF0000E9FF0000
(0946688519.544680) can0 00000002#2EFC00009A00FCFF
(0946688519.546785) can0 0000001C#66FF
(0946688519.547277) can0 0000001D#660CFFFFFFFF
(0946688519.552525) can0 00000103#0101010101010101
(0946688519.554525) can0 00000001#E9FF0000EAFF0000
(0946688519.554809) can0 00000002#2DFC00009A00FCFF
(0946688519.556641) can0 18FF1515#0000000100010000
(0946688519.562513) can0 00000103#0101010101010101
(0946688519.564641) can0 00000001#EBFF0000E8FF0000
(0946688519.564926) can0 00000002#30FC00009A00FCFF
(0946688519.572506) can0 00000103#0101010101010101
(0946688519.574764) can0 00000001#ECFF0000EBFF0000
(0946688519.575116) can0 00000002#30FC00009A00FCFF
(0946688519.582544) can0 00000103#0101010101010101
(0946688519.584845) can0 00000001#EDFF0000E9FF0000
(0946688519.585138) can0 00000002#30FC00009A00FCFF
(0946688519.592581) can0 00000103#0101010101010101
(0946688519.594978) can0 00000001#EEFF0000EBFF0000
(0946688519.595247) can0 00000002#32FC00009A00FCFF
(0946688519.602522) can0 00000103#0101010101010101
(0946688519.605053) can0 00000001#ECFF0000ECFF0000
(0946688519.605346) can0 00000002#30FC00009A00FCFF
(0946688519.612472) can0 00000103#0101010101010101
(0946688519.615181) can0 00000001#EEFF0000EBFF0000
(0946688519.615434) can0 00000002#33FC00009A00FCFF
(0946688519.622571) can0 00000103#0101010101010101
(0946688519.625294) can0 00000001#ECFF0000EAFF0000
(0946688519.625566) can0 00000002#2DFC00009A00FCFF
(0946688519.632502) can0 00000103#0101010101010101
(0946688519.632798) can0 19B5080A#7E7F7E7E7EFFFFFF
(0946688519.635373) can0 00000001#ECFF0000EAFF0000
(0946688519.635650) can0 00000002#2DFC00009A00FCFF
(0946688519.642525) can0 00000103#0101010101010101
(0946688519.645453) can0 00000001#EDFF0000EAFF0000
(0946688519.645753) can0 00000002#2DFC00009A00FCFF
(0946688519.648400) can0 19B5080B#FFFFFFFFFFFFFFFF
(0946688519.652487) can0 00000103#0101010101010101
(0946688519.655598) can0 00000001#ECFF0000EBFF0000
(0946688519.655836) can0 00000002#2DFC00009A00FCFF
(0946688519.656700) can0 18FF1515#0000000100010000
(0946688519.661594) can0 19B50000#0004000000020060
(0946688519.662180) can0 19B50007#0000002700000000
(0946688519.662464) can0 00000103#0101010101010101
(0946688519.662815) can0 19B50001#C6D0C99689000000
(0946688519.663486) can0 19B50002#7E807E0000000000
(0946688519.664083) can0 19B50003#0000000000000000
(0946688519.664727) can0 19B50008#7E7F7E0000000000
(0946688519.665676) can0 00000001#ECFF0000EBFF0000
(0946688519.665939) can0 00000002#2EFC00009A00FCFF
(0946688519.666247) can0 19B50500#FFFD03E800006464
(0946688519.667132) can0 19B50600#FFFF0CE099990000
(0946688519.667688) can0 19B50009#C6D0C90000968900
(0946688519.672514) can0 00000103#0101010101010101
(0946688519.675731) can0 00000001#EDFF0000EBFF0000
(0946688519.676851) can0 00000002#2EFC00009A00FCFF
(0946688519.682500) can0 00000103#0101010101010101
(0946688519.686574) can0 00000001#ECFF0000ECFF0000
(0946688519.686823) can0 00000002#2FFC00009A00FCFF
(0946688519.692525) can0 00000103#0101010101010101
(0946688519.696750) can0 00000001#ECFF0000ECFF0000
(0946688519.697034) can0 00000002#30FC00009A00FCFF
(0946688519.702509) can0 00000103#0101010101010101
(0946688519.706850) can0 00000001#EDFF0000EDFF0000
(0946688519.707152) can0 00000002#30FC00009A00FCFF
(0946688519.712507) can0 00000103#0101010101010101
(0946688519.716968) can0 00000001#ECFF0000EDFF0000
(0946688519.717227) can0 00000002#30FC00009A00FCFF
(0946688519.722505) can0 00000103#0101010101010101
(0946688519.727057) can0 00000001#ECFF0000ECFF0000
(0946688519.727326) can0 00000002#30FC00009A00FCFF
(0946688519.732492) can0 00000103#0101010101010101
(0946688519.737118) can0 00000001#ECFF0000ECFF0000
(0946688519.737451) can0 00000002#31FC00009A00FCFF
(0946688519.742518) can0 00000103#0101010101010101
(0946688519.747274) can0 00000001#ECFF0000ECFF0000
(0946688519.747494) can0 00000002#30FC00009A00FCFF
(0946688519.752487) can0 00000103#0101010101010101
(0946688519.756625) can0 18FF1515#0000000100010000
(0946688519.757340) can0 00000001#ECFF0000EBFF0000
(0946688519.757619) can0 00000002#31FC00009A00FCFF
(0946688519.762526) can0 00000103#0101010101010101
(0946688519.767433) can0 00000001#ECFF0000EBFF0000
(0946688519.767745) can0 00000002#30FC00009A00FCFF
(0946688519.772534) can0 00000103#0101010101010101
(0946688519.777510) can0 00000001#ECFF0000EBFF0000
(0946688519.777799) can0 00000002#30FC00009A00FCFF
(0946688519.782490) can0 00000103#0101010101010101
(0946688519.787641) can0 00000001#ECFF0000EBFF0000
(0946688519.787965) can0 00000002#2FFC00009A00FCFF
(0946688519.792492) can0 00000103#0101010101010101
(0946688519.797702) can0 00000001#ECFF0000ECFF0000
(0946688519.798016) can0 00000002#2FFC00009A00FCFF
(0946688519.802485) can0 00000103#0101010101010101
(0946688519.807814) can0 00000001#ECFF0000ECFF0000
(0946688519.808074) can0 00000002#2FFC00009A00FCFF
(0946688519.812480) can0 00000103#0101010101010101
(0946688519.817968) can0 00000001#EDFF0000ECFF0000
(0946688519.818194) can0 00000002#2FFC00009A00FCFF
(0946688519.822533) can0 00000103#0101010101010101
(0946688519.823951) can0 00000007#6703810091A10000
(0946688519.827993) can0 00000001#ECFF0000ECFF0000
(0946688519.828287) can0 00000002#30FC00009A00FCFF
(0946688519.832477) can0 00000103#0101010101010101
(0946688519.838141) can0 00000001#EDFF0000ECFF0000
(0946688519.838418) can0 00000002#31FC00009A00FCFF
(0946688519.842540) can0 00000103#0101010101010101
(0946688519.848266) can0 00000001#EDFF0000ECFF0000
(0946688519.849267) can0 00000002#30FC00009A00FCFF
(0946688519.852508) can0 00000103#0101010101010101
(0946688519.856702) can0 18FF1515#0000000100010000
(0946688519.859175) can0 00000001#ECFF0000ECFF0000
(0946688519.859432) can0 00000002#30FC00009A00FCFF
(0946688519.861855) can0 19B50000#0004000000020060
(0946688519.862467) can0 00000103#0101010101010101
(0946688519.862808) can0 19B50007#0000002700000000
(0946688519.863338) can0 19B50001#C6D0C99689000000
(0946688519.863918) can0 19B50002#7E807E0000000000
(0946688519.864494) can0 19B50003#0000000000000000
(0946688519.865287) can0 19B50008#7E7F7E0000000000
(0946688519.866087) can0 19B50500#FFFD03E800006464
(0946688519.867148) can0 19B50600#FFFF0CE099990000
(0946688519.867744) can0 19B50009#C6D0C90000968900
(0946688519.869240) can0 00000001#EDFF0000ECFF0000
(0946688519.869557) can0 00000002#30FC00009A00FCFF
(0946688519.872501) can0 00000103#0101010101010101
(0946688519.879335) can0 00000001#ECFF0000EBFF0000
(0946688519.879664) can0 00000002#30FC00009A00FBFF
(0946688519.882465) can0 00000103#0101010101010101
(0946688519.889465) can0 00000001#ECFF0000EBFF0000
(0946688519.889741) can0 00000002#2FFC00009A00FCFF
(0946688519.892514) can0 00000103#0101010101010101
(0946688519.899562) can0 00000001#ECFF0000EBFF0000
(0946688519.899843) can0 00000002#30FC00009A00FCFF
(0946688519.902499) can0 00000103#0101010101010101
(0946688519.909647) can0 00000001#EBFF0000EAFF0000
(0946688519.909950) can0 00000002#2FFC00009A00FCFF
(0946688519.912506) can0 00000103#0101010101010101
(0946688519.919730) can0 00000001#EBFF0000EAFF0000
(0946688519.920118) can0 00000002#2FFC00009A00FCFF
(0946688519.921265) can0 00000008#67FF
(0946688519.921665) can0 00000009#6700CCCAC9C9CAC9
(0946688519.922549) can0 00000103#0101010101010101
(0946688519.923751) can0 00000008#67FF
(0946688519.924178) can0 00000009#6706C9C9C9C9CAC9
(0946688519.929845) can0 00000001#EBFF0000EAFF0000
(0946688519.930157) can0 00000002#2FFC00009A00FCFF
(0946688519.930772) can0 00000008#67FF
(0946688519.931200) can0 00000009#670CC9C9C9C9
(0946688519.932500) can0 00000103#0101010101010101
(0946688519.935794) can0 0000000C#67FF
(0946688519.936237) can0 0000000D#6700C9CAC9C9CACE
(0946688519.939967) can0 00000001#ECFF0000EAFF0000
(0946688519.940237) can0 00000002#2EFC00009A00FCFF
(0946688519.941229) can0 0000000C#67FF
(0946688519.941680) can0 0000000D#6706C9C9C9CBCAC9
(0946688519.942480) can0 00000103#0101010101010101
(0946688519.945742) can0 0000000C#67FF
(0946688519.946112) can0 0000000D#670CCDC9CACA
(0946688519.950056) can0 00000001#ECFF0000E9FF0000
(0946688519.950340) can0 00000002#2EFC00009A00FCFF
(0946688519.951215) can0 00000010#67FF
(0946688519.951710) can0 00000011#6700CAC9C9C9C9C9
(0946688519.952521) can0 00000103#0101010101010101
(0946688519.955955) can0 00000010#67FF
(0946688519.956451) can0 00000011#6706C8C9C9C9C9C9
(0946688519.956741) can0 18FF1515#0000000100010000
(0946688519.960140) can0 00000001#EDFF0000EAFF0000
(0946688519.960431) can0 00000002#2DFC00009A00FCFF
(0946688519.962480) can0 00000103#0101010101010101
(0946688519.970194) can0 00000001#EDFF0000EAFF0000
(0946688519.970533) can0 00000002#2FFC00009A00FCFF
(0946688519.972473) can0 00000103#0101010101010101
(0946688519.973342) can0 00000010#67FF
(0946688519.973778) can0 00000011#670CC9C9C9C9
(0946688519.980173) can0 00000014#67FF
(0946688519.980483) can0 00000001#EDFF0000EDFF0000
(0946688519.980731) can0 00000002#30FC00009A00FBFF
(0946688519.982501) can0 00000103#0101010101010101
(0946688519.990424) can0 00000001#ECFF0000ECFF0000
(0946688519.990704) can0 00000002#30FC00009A00FBFF
(0946688519.992473) can0 00000103#0101010101010101
(0946688520.000532) can0 00000001#ECFF0000ECFF0000
(0946688520.000777) can0 00000002#30FC00009A00FBFF
(0946688520.002492) can0 00000103#0101010101010101
(0946688520.010616) can0 00000001#EBFF0000EBFF0000
(0946688520.010888) can0 00000002#2FFC00009A00FBFF
(0946688520.012484) can0 00000103#0101010101010101
(0946688520.020742) can0 00000001#EBFF0000EBFF0000
(0946688520.021642) can0 00000002#2FFC00009A00FBFF
(0946688520.022466) can0 00000103#0101010101010101
(0946688520.030819) can0 00000001#EBFF0000EAFF0000
(0946688520.031122) can0 00000002#2FFC00009A00FBFF
(0946688520.032479) can0 00000103#0101010101010101
(0946688520.041615) can0 00000001#EBFF0000EAFF0000
(0946688520.041933) can0 00000002#2EFC00009A00FBFF
(0946688520.042477) can0 00000103#0101010101010101
(0946688520.051858) can0 00000001#EBFF0000EAFF0000
(0946688520.052133) can0 00000002#2EFC00009B00FBFF
(0946688520.052494) can0 00000103#0101010101010101
(0946688520.056627) can0 18FF1515#0000000100010000
(0946688520.061941) can0 00000001#EBFF0000EAFF0000
(0946688520.062233) can0 00000002#2EFC00009B00FBFF
(0946688520.062516) can0 00000103#0101010101010101
(0946688520.063913) can0 19B50000#0004000000020060
(0946688520.064454) can0 19B50007#0000002700000000
(0946688520.065236) can0 19B50001#C6D0C99689000000
(0946688520.065823) can0 19B50002#7E807E0000000000
(0946688520.066400) can0 19B50003#0000000000000000
(0946688520.067011) can0 19B50008#7E7F7E0000000000
(0946688520.067790) can0 19B50500#FFFC03E800006464
(0946688520.068912) can0 19B50600#FFFF0CE099990000
(0946688520.069455) can0 19B50009#C6D0C90000968900
(0946688520.072025) can0 00000001#EBFF0000EAFF0000
(0946688520.072310) can0 00000002#2EFC00009B00FBFF
(0946688520.072588) can0 00000103#0101010101010101
(0946688520.082159) can0 00000001#ECFF0000EAFF0000
(0946688520.082417) can0 00000002#2EFC00009B00FCFF
(0946688520.082709) can0 00000103#0101010101010101
(0946688520.092189) can0 00000001#EDFF0000EAFF0000
(0946688520.092546) can0 00000002#2EFC00009B00FCFF
(0946688520.092796) can0 00000103#0101010101010101
(0946688520.102312) can0 00000001#EDFF0000EBFF0000
(0946688520.102626) can0 00000002#2EFC00009B00FCFF
(0946688520.102889) can0 00000103#0101010101010101
(0946688520.112412) can0 00000001#EDFF0000EAFF0000
(0946688520.112792) can0 00000002#2EFC00009B00FCFF
(0946688520.112999) can0 00000103#0101010101010101
(0946688520.122527) can0 00000103#0101010101010101
(0946688520.122831) can0 00000001#EDFF0000EAFF0000
(0946688520.123053) can0 00000002#2EFC00009B00FCFF
(0946688520.132491) can0 00000103#0101010101010101
(0946688520.132807) can0 00000001#EDFF0000EBFF0000
(0946688520.133071) can0 00000002#2FFC00009B00FCFF
