(0946688488.951707) can0 19B50000#0004000000020060
(0946688488.952268) can0 19B50007#0000002700000000
(0946688488.952844) can0 19B50001#C5CEC795C1000000
(0946688488.953436) can0 19B50002#7D7F7E0000000000
(0946688488.953936) can0 00000001#ECFF0000ECFF0000
(0946688488.954187) can0 00000002#2FFC00000B000300
(0946688488.954489) can0 19B50003#0000000000000000
(0946688488.955016) can0 19B50008#7D7F7D0000000000
(0946688488.955804) can0 19B50500#FFFD03E800006464
(0946688488.957099) can0 19B50600#FFFF0CE099990000
(0946688488.957643) can0 00000103#0101010101010101
(0946688488.957961) can0 19B50009#C5CEC7000095C100
(0946688488.964003) can0 00000001#ECFF0000ECFF0000
(0946688488.964307) can0 00000002#2FFC00000B000300
(0946688488.967667) can0 00000103#0101010101010101
(0946688488.974086) can0 00000001#ECFF0000ECFF0000
(0946688488.974365) can0 00000002#2EFC00000B000300
(0946688488.977655) can0 00000103#0101010101010101
(0946688488.984211) can0 00000001#ECFF0000ECFF0000
(0946688488.984487) can0 00000002#2FFC00000B000300
(0946688488.987676) can0 00000103#0101010101010101
(0946688488.994257) can0 00000001#ECFF0000ECFF0000
(0946688488.994552) can0 00000002#2FFC00000B000300
(0946688488.997667) can0 00000103#0101010101010101
(0946688489.004361) can0 00000001#ECFF0000ECFF0000
(0946688489.004663) can0 00000002#2FFC00000B000300
(0946688489.007686) can0 00000103#0101010101010101
(0946688489.014447) can0 00000001#ECFF0000ECFF0000
(0946688489.014739) can0 00000002#2EFC000009000200
(0946688489.017647) can0 00000103#0101010101010101
(0946688489.024561) can0 00000001#ECFF0000ECFF0000
(0946688489.024848) can0 00000002#2EFC000009000200
(0946688489.027650) can0 00000103#0101010101010101
(0946688489.034645) can0 00000001#ECFF0000ECFF0000
(0946688489.034937) can0 00000002#2FFC000009000200
(0946688489.035779) can0 18FF1515#0000000100010000
(0946688489.037673) can0 00000103#0101010101010101
(0946688489.040091) can0 00000008#80FF
(0946688489.040593) can0 00000009#80007D7D7D7D7DFF
(0946688489.042232) can0 00000008#80FF
(0946688489.042724) can0 00000009#8006FFFFFFFFFFFF
(0946688489.044802) can0 00000001#ECFF0000ECFF0000
(0946688489.045074) can0 00000002#2EFC000009000200
(0946688489.046148) can0 00000008#80FF
(0946688489.046597) can0 00000009#800CFFFFFFFF
(0946688489.047709) can0 00000103#0101010101010101
(0946688489.051768) can0 0000000C#80FF
(0946688489.052249) can0 0000000D#80007D7E7E7E7EFF
(0946688489.054889) can0 00000001#ECFF0000ECFF0000
(0946688489.055205) can0 00000002#2FFC000009000200
(0946688489.055926) can0 0000000C#80FF
(0946688489.056460) can0 0000000D#8006FFFFFFFFFFFF
(0946688489.057660) can0 00000103#0101010101010101
(0946688489.061183) can0 0000000C#80FF
(0946688489.061635) can0 0000000D#800CFFFFFFFF
(0946688489.064956) can0 00000001#ECFF0000ECFF0000
(0946688489.065249) can0 00000002#2EFC000009000200
(0946688489.067676) can0 00000103#0101010101010101
(0946688489.075046) can0 00000001#ECFF0000ECFF0000
(0946688489.075344) can0 00000002#2FFC000009000200
(0946688489.077683) can0 00000103#0101010101010101
(0946688489.078663) can0 00000010#80FF
(0946688489.079190) can0 00000011#80007E7E7F7E7EFF
(0946688489.085808) can0 00000001#ECFF0000ECFF0000
(0946688489.086111) can0 00000002#2FFC000009000200
(0946688489.086737) can0 00000010#80FF
(0946688489.087217) can0 00000011#8006FFFFFFFFFFFF
(0946688489.087677) can0 00000103#0101010101010101
(0946688489.092217) can0 00000010#80FF
(0946688489.092698) can0 00000011#800CFFFFFFFF
(0946688489.095883) can0 00000001#ECFF0000ECFF0000
(0946688489.096195) can0 00000002#2FFC000009000200
(0946688489.096365) can0 00000014#80FF
(0946688489.096860) can0 00000015#80007E7E7E7F7EFF
(0946688489.097677) can0 00000103#0101010101010101
(0946688489.101574) can0 00000014#80FF
(0946688489.102096) can0 00000015#8006FFFFFFFFFFFF
(0946688489.105886) can0 00000014#80FF
(0946688489.106149) can0 00000001#ECFF0000ECFF0000
(0946688489.106460) can0 00000002#2EFC000009000200
(0946688489.107643) can0 00000103#0101010101010101
(0946688489.116060) can0 00000001#ECFF0000ECFF0000
(0946688489.116370) can0 00000002#2FFC000009000200
(0946688489.117663) can0 00000103#0101010101010101
(0946688489.126166) can0 00000001#ECFF0000ECFF0000
(0946688489.126467) can0 00000002#2FFC000009000200
(0946688489.127683) can0 00000103#0101010101010101
(0946688489.135705) can0 18FF1515#0000000100010000
(0946688489.136255) can0 00000001#ECFF0000ECFF0000
(0946688489.136559) can0 00000002#2FFC000007000200
(0946688489.137679) can0 00000103#0101010101010101
(0946688489.140545) can0 19B50000#0004000000020060
(0946688489.141120) can0 19B50007#0000002700000000
(0946688489.141716) can0 19B50001#C5CEC795C1000000
(0946688489.142248) can0 19B50002#7D7F7E0000000000
(0946688489.142856) can0 19B50003#0000000000000000
(0946688489.143424) can0 19B50008#7D7F7D0000000000
(0946688489.144262) can0 19B50500#FFFB03E800006464
(0946688489.145369) can0 19B50600#FFFF0CE099990000
(0946688489.145953) can0 19B50009#C5CEC7000095C100
(0946688489.146460) can0 00000001#ECFF0000ECFF0000
(0946688489.146727) can0 00000002#2EFC000007000200
(0946688489.147707) can0 00000103#0101010101010101
(0946688489.156522) can0 00000001#ECFF0000ECFF0000
(0946688489.156833) can0 00000002#2EFC000007000200
(0946688489.157665) can0 00000103#0101010101010101
(0946688489.166640) can0 00000001#ECFF0000ECFF0000
(0946688489.166918) can0 00000002#2FFC000007000200
(0946688489.167719) can0 00000103#0101010101010101
(0946688489.176734) can0 00000001#ECFF0000ECFF0000
(0946688489.176999) can0 00000002#2FFC000007000200
(0946688489.177673) can0 00000103#0101010101010101
(0946688489.186810) can0 00000001#ECFF0000ECFF0000
(0946688489.187092) can0 00000002#2FFC000007000200
(0946688489.187686) can0 00000103#0101010101010101
(0946688489.196902) can0 00000001#ECFF0000ECFF0000
(0946688489.197215) can0 00000002#2FFC000006000100
(0946688489.197666) can0 00000103#0101010101010101
(0946688489.207001) can0 00000001#ECFF0000ECFF0000
(0946688489.207340) can0 00000002#2FFC000006000100
(0946688489.207660) can0 00000103#0101010101010101
(0946688489.217149) can0 00000001#ECFF0000ECFF0000
(0946688489.217437) can0 00000002#2FFC000006000100
(0946688489.217715) can0 00000103#0101010101010101
(0946688489.227223) can0 00000001#ECFF0000ECFF0000
(0946688489.227506) can0 00000002#2FFC000006000100
(0946688489.227838) can0 00000103#0101010101010101
(0946688489.235702) can0 18FF1515#0000000100010000
(0946688489.237312) can0 00000001#ECFF0000ECFF0000
(0946688489.237638) can0 00000002#2FFC000006000100
(0946688489.237895) can0 00000103#0101010101010101
(0946688489.247493) can0 00000001#ECFF0000ECFF0000
(0946688489.247712) can0 00000002#2FFC000006000100
(0946688489.248006) can0 00000103#0101010101010101
(0946688489.257665) can0 00000103#0101010101010101
(0946688489.258332) can0 00000001#ECFF0000ECFF0000
(0946688489.258635) can0 00000002#2FFC000006000100
(0946688489.267666) can0 00000103#0101010101010101
(0946688489.268445) can0 00000001#ECFF0000ECFF0000
(0946688489.268739) can0 00000002#2FFC000006000100
(0946688489.277694) can0 00000103#0101010101010101
(0946688489.278510) can0 00000001#ECFF0000ECFF0000
(0946688489.278836) can0 00000002#2FFC000006000100
(0946688489.287667) can0 00000103#0101010101010101
(0946688489.288660) can0 00000001#ECFF0000ECFF0000
(0946688489.288985) can0 00000002#2FFC000006000100
(0946688489.297675) can0 00000103#0101010101010101
(0946688489.298751) can0 00000001#ECFF0000ECFF0000
(0946688489.299077) can0 00000002#2FFC000006000100
(0946688489.307707) can0 00000103#0101010101010101
(0946688489.308867) can0 00000001#ECFF0000ECFF0000
(0946688489.309146) can0 00000002#2FFC000006000100
(0946688489.317671) can0 00000103#0101010101010101
(0946688489.318958) can0 00000001#ECFF0000ECFF0000
(0946688489.319230) can0 00000002#2EFC000006000100
(0946688489.327662) can0 00000103#0101010101010101
(0946688489.329022) can0 00000001#ECFF0000ECFF0000
(0946688489.329330) can0 00000002#2EFC000006000100
(0946688489.334093) can0 19B50000#0004000000020060
(0946688489.334654) can0 19B50007#0000002700000000
(0946688489.335221) can0 19B50001#C5CEC795C1000000
(0946688489.335704) can0 18FF1515#0000000100010000
(0946688489.336005) can0 19B50002#7D7F7E0000000000
(0946688489.336862) can0 19B50003#0000000000000000
(0946688489.337436) can0 19B50008#7D7F7D0000000000
(0946688489.337706) can0 00000103#0101010101010101
(0946688489.338390) can0 19B50500#FFFB03E800006464
(0946688489.339218) can0 00000001#ECFF0000ECFF0000
(0946688489.339474) can0 00000002#2FFC000006000100
(0946688489.339781) can0 19B50600#FFFF0CE099990000
(0946688489.340087) can0 19B50009#C5CEC7000095C100
(0946688489.347685) can0 00000103#0101010101010101
(0946688489.349288) can0 00000001#ECFF0000ECFF0000
(0946688489.349569) can0 00000002#2EFC000005000100
(0946688489.357667) can0 00000103#0101010101010101
(0946688489.359365) can0 00000001#ECFF0000ECFF0000
(0946688489.359646) can0 00000002#2FFC000005000100
(0946688489.367669) can0 00000103#0101010101010101
(0946688489.369457) can0 00000001#ECFF0000ECFF0000
(0946688489.369751) can0 00000002#2FFC000005000100
(0946688489.377665) can0 00000103#0101010101010101
(0946688489.379581) can0 00000001#ECFF0000ECFF0000
(0946688489.379841) can0 00000002#2FFC000005000100
(0946688489.387684) can0 00000103#0101010101010101
(0946688489.389650) can0 00000001#ECFF0000ECFF0000
(0946688489.389964) can0 00000002#2FFC000005000100
(0946688489.397672) can0 00000103#0101010101010101
(0946688489.399755) can0 00000001#ECFF0000EDFF0000
(0946688489.400070) can0 00000002#2FFC000005000100
(0946688489.407663) can0 00000103#0101010101010101
(0946688489.409848) can0 00000001#ECFF0000EDFF0000
(0946688489.410144) can0 00000002#2FFC000005000100
(0946688489.417702) can0 00000103#0101010101010101
(0946688489.419961) can0 00000001#ECFF0000ECFF0000
(0946688489.420243) can0 00000002#2EFC000005000100
(0946688489.427669) can0 00000103#0101010101010101
(0946688489.430082) can0 00000001#ECFF0000ECFF0000
(0946688489.430351) can0 00000002#2FFC000005000100
(0946688489.435729) can0 18FF1515#0000000100010000
(0946688489.437692) can0 00000103#0101010101010101
(0946688489.441469) can0 00000001#ECFF0000ECFF0000
(0946688489.441770) can0 00000002#2FFC000005000100
(0946688489.447685) can0 00000103#0101010101010101
(0946688489.451587) can0 00000001#ECFF0000ECFF0000
(0946688489.451899) can0 00000002#2FFC000005000100
(0946688489.457687) can0 00000103#0101010101010101
(0946688489.461669) can0 00000001#ECFF0000ECFF0000
(0946688489.461953) can0 00000002#2FFC000005000100
(0946688489.467666) can0 00000103#0101010101010101
(0946688489.471789) can0 00000001#EDFF0000ECFF0000
(0946688489.472113) can0 00000002#2EFC000005000100
(0946688489.477686) can0 00000103#0101010101010101
(0946688489.481865) can0 00000001#ECFF0000ECFF0000
(0946688489.482139) can0 00000002#2FFC000005000100
(0946688489.487688) can0 00000103#0101010101010101
(0946688489.491962) can0 00000001#ECFF0000EBFF0000
(0946688489.492243) can0 00000002#2FFC000005000100
(0946688489.497676) can0 00000103#0101010101010101
(0946688489.502038) can0 00000001#ECFF0000ECFF0000
(0946688489.502333) can0 00000002#2FFC000005000100
(0946688489.507684) can0 00000103#0101010101010101
(0946688489.512145) can0 00000001#ECFF0000ECFF0000
(0946688489.512422) can0 00000002#2FFC000005000100
(0946688489.517667) can0 00000103#0101010101010101
(0946688489.522224) can0 00000001#ECFF0000ECFF0000
(0946688489.522517) can0 00000002#2FFC000005000100
(0946688489.527676) can0 00000103#0101010101010101
(0946688489.531511) can0 19B50000#0004000000020060
(0946688489.532092) can0 19B50007#0000002700000000
(0946688489.532370) can0 00000001#ECFF0000ECFF0000
(0946688489.532652) can0 00000002#2FFC000005000100
(0946688489.532980) can0 19B50001#C5CEC795C1000000
(0946688489.533600) can0 19B50002#7D7F7E0000000000
(0946688489.534179) can0 19B50003#0000000000000000
(0946688489.534739) can0 19B50008#7D7F7D0000000000
(0946688489.535699) can0 18FF1515#0000000100010000
(0946688489.535999) can0 19B50500#FFFC03E800006464
(0946688489.537060) can0 19B50600#FFFF0CE099990000
(0946688489.537632) can0 19B50009#C5CEC7000095C100
(0946688489.537892) can0 00000103#0101010101010101
(0946688489.542468) can0 00000001#ECFF0000EBFF0000
(0946688489.542735) can0 00000002#2FFC000005000100
(0946688489.547685) can0 00000103#0101010101010101
(0946688489.553382) can0 00000001#ECFF0000EBFF0000
(0946688489.553676) can0 00000002#2FFC000004000100
(0946688489.557673) can0 00000103#0101010101010101
(0946688489.559774) can0 00000007#8103860096A60000
(0946688489.563496) can0 00000001#ECFF0000EBFF0000
(0946688489.563792) can0 00000002#2FFC000004000100
(0946688489.567668) can0 00000103#0101010101010101
(0946688489.573550) can0 00000001#ECFF0000EBFF0000
(0946688489.573871) can0 00000002#2FFC000004000100
(0946688489.577666) can0 00000103#0101010101010101
(0946688489.583657) can0 00000001#ECFF0000ECFF0000
(0946688489.583950) can0 00000002#2FFC000004000100
(0946688489.587689) can0 00000103#0101010101010101
(0946688489.593734) can0 00000001#ECFF0000ECFF0000
(0946688489.594021) can0 00000002#2FFC000004000100
(0946688489.597676) can0 00000103#0101010101010101
(0946688489.603850) can0 00000001#EDFF0000ECFF0000
(0946688489.604163) can0 00000002#2FFC000004000100
(0946688489.607674) can0 00000103#0101010101010101
(0946688489.613928) can0 00000001#ECFF0000ECFF0000
(0946688489.614221) can0 00000002#2FFC000004000100
(0946688489.617678) can0 00000103#0101010101010101
(0946688489.624002) can0 00000001#EDFF0000EBFF0000
(0946688489.624311) can0 00000002#2FFC000004000100
(0946688489.627663) can0 00000103#0101010101010101
(0946688489.634092) can0 00000001#EDFF0000ECFF0000
(0946688489.634388) can0 00000002#30FC000003000100
(0946688489.635731) can0 18FF1515#0000000100010000
(0946688489.637695) can0 00000103#0101010101010101
(0946688489.644224) can0 00000001#EFFF0000EBFF0000
(0946688489.644512) can0 00000002#31FC000003000100
(0946688489.647682) can0 00000103#0101010101010101
(0946688489.654299) can0 00000001#EFFF0000ECFF0000
(0946688489.654596) can0 00000002#31FC000003000100
(0946688489.657677) can0 00000103#0101010101010101
(0946688489.659636) can0 00000014#81FF
(0946688489.660115) can0 00000015#81007E7E7E7F7EFF
(0946688489.662772) can0 00000014#81FF
(0946688489.663264) can0 00000015#8106FFFFFFFFFFFF
(0946688489.664412) can0 00000001#EEFF0000ECFF0000
(0946688489.664692) can0 00000002#31FC000003000100
(0946688489.667673) can0 00000103#0101010101010101
(0946688489.667880) can0 00000014#81FF
(0946688489.668363) can0 00000015#810CFFFFFFFF
(0946688489.672631) can0 00000018#81FF
(0946688489.673151) can0 00000019#81007D7D7D7D7DFF
(0946688489.674516) can0 00000001#EDFF0000ECFF0000
(0946688489.674816) can0 00000002#30FC000003000100
(0946688489.677672) can0 00000103#0101010101010101
(0946688489.677880) can0 00000018#81FF
(0946688489.678373) can0 00000019#8106FFFFFFFFFFFF
(0946688489.682718) can0 00000018#81FF
(0946688489.683196) can0 00000019#810CFFFFFFFF
(0946688489.684593) can0 00000001#EAFF0000EDFF0000
(0946688489.684897) can0 00000002#2FFC000003000100
(0946688489.687669) can0 00000103#0101010101010101
(0946688489.687857) can0 0000001C#81FF
(0946688489.688353) can0 0000001D#81007E7E7E7E7DFF
(0946688489.694691) can0 00000001#F0FF0000EDFF0000
(0946688489.694986) can0 00000002#31FC000003000100
(0946688489.697685) can0 00000103#0101010101010101
(0946688489.704780) can0 00000001#ECFF0000EDFF0000
(0946688489.705079) can0 00000002#2FFC000003000100
(0946688489.706915) can0 0000001C#81FF
(0946688489.707384) can0 0000001D#8106FFFFFFFFFFFF
(0946688489.707714) can0 00000103#0101010101010101
(0946688489.713067) can0 0000001C#81FF
(0946688489.713509) can0 0000001D#810CFFFFFFFF
(0946688489.714876) can0 00000001#ECFF0000EDFF0000
(0946688489.715156) can0 00000002#2EFC000003000100
(0946688489.717665) can0 00000103#0101010101010101
(0946688489.724966) can0 00000001#E6FF0000EBFF0000
(0946688489.725749) can0 00000002#2AFC000003000100
(0946688489.727683) can0 00000103#0101010101010101
(0946688489.735539) can0 19B50000#0004000000020060
(0946688489.735801) can0 18FF1515#0000000100010000
(0946688489.736110) can0 00000001#E7FF0000EBFF0000
(0946688489.736374) can0 00000002#2AFC000003000100
(0946688489.736644) can0 19B50007#0000002700000000
(0946688489.736933) can0 19B50001#C5CEC795C1000000
(0946688489.737311) can0 19B50002#7D7F7E0000000000
(0946688489.737710) can0 00000103#0101010101010101
(0946688489.738001) can0 19B50003#0000000000000000
(0946688489.738486) can0 19B50008#7D7F7D0000000000
(0946688489.739253) can0 19B50500#FFFC03E800006464
(0946688489.740358) can0 19B50600#FFFF0CE099990000
(0946688489.740945) can0 19B50009#C5CEC7000095C100
(0946688489.745916) can0 00000001#E7FF0000ECFF0100
(0946688489.746169) can0 00000002#2BFC000003000100
(0946688489.747683) can0 00000103#0101010101010101
(0946688489.755967) can0 00000001#EBFF0000EDFF0000
(0946688489.756250) can0 00000002#2BFC000003000100
(0946688489.757686) can0 00000103#0101010101010101
(0946688489.766055) can0 00000001#EAFF0000EDFF0000
(0946688489.766372) can0 00000002#2DFC000004000100
(0946688489.767673) can0 00000103#0101010101010101
(0946688489.776167) can0 00000001#ECFF0000EFFF0000
(0946688489.776442) can0 00000002#2DFC000004000100
(0946688489.777664) can0 00000103#0101010101010101
(0946688489.783487) can0 19B50809#FFFFFFFFFFFFFFFF
(0946688489.786242) can0 00000001#ECFF0000EFFF0000
(0946688489.786532) can0 00000002#2DFC000004000100
(0946688489.787686) can0 00000103#0101010101010101
(0946688489.796349) can0 00000001#EDFF0000F0FF0000
(0946688489.796644) can0 00000002#30FC000004000100
(0946688489.797682) can0 00000103#0101010101010101
(0946688489.798610) can0 19B5080A#7E7E7E7E7DFFFFFF
(0946688489.806420) can0 00000001#EDFF0000F0FF0000
(0946688489.806725) can0 00000002#32FC000004000100
(0946688489.807720) can0 00000103#0101010101010101
(0946688489.815383) can0 19B5080B#FFFFFFFFFFFFFFFF
(0946688489.816544) can0 00000001#ECFF0000EFFF0000
(0946688489.816839) can0 00000002#35FC000004000100
(0946688489.817684) can0 00000103#0101010101010101
(0946688489.826611) can0 00000001#EBFF0000EFFF0000
(0946688489.826923) can0 00000002#33FC000003000000
(0946688489.827716) can0 00000103#0101010101010101
(0946688489.835754) can0 18FF1515#0000000100010000
(0946688489.836737) can0 00000001#ECFF0000ECFF0000
(0946688489.837041) can0 00000002#34FC000003000000
(0946688489.837672) can0 00000103#0101010101010101
(0946688489.846820) can0 00000001#ECFF0000ECFF0000
(0946688489.847123) can0 00000002#31FC000003000000
(0946688489.847704) can0 00000103#0101010101010101
(0946688489.856951) can0 00000001#EAFF0000EBFF0000
(0946688489.857206) can0 00000002#31FC000003000000
(0946688489.857675) can0 00000103#0101010101010101
(0946688489.867082) can0 00000001#E9FF0000E8FF0000
(0946688489.867342) can0 00000002#31FC000003000000
(0946688489.867709) can0 00000103#0101010101010101
(0946688489.877154) can0 00000001#EAFF0000E6FF0000
(0946688489.877449) can0 00000002#30FC000003000000
(0946688489.877729) can0 00000103#0101010101010101
(0946688489.887251) can0 00000001#EBFF0000E4FF0000
(0946688489.887544) can0 00000002#30FC000003000000
(0946688489.887828) can0 00000103#0101010101010101
(0946688489.897340) can0 00000001#EDFF0000F1FF0000
(0946688489.897638) can0 00000002#24FC000003000100
(0946688489.897925) can0 00000103#0101010101010101
(0946688489.907468) can0 00000001#EAFF0000F3FF0000
(0946688489.907717) can0 00000103#0101010101010101
(0946688489.908285) can0 00000002#24FC000002000100
(0946688489.917543) can0 00000001#E8FF0000F5FF0000
(0946688489.917831) can0 00000002#25FC000002000100
(0946688489.918108) can0 00000103#0101010101010101
(0946688489.927670) can0 00000103#0101010101010101
(0946688489.928259) can0 00000001#E7FF0000F8FF0100
(0946688489.928537) can0 00000002#2AFC000002000100
(0946688489.935723) can0 18FF1515#0000000100010000
(0946688489.937676) can0 00000103#0101010101010101
(0946688489.938360) can0 00000001#E8FF0000F8FF0100
(0946688489.938652) can0 00000002#2CFC000003000100
(0946688489.945673) can0 19B50000#0004000000020060
(0946688489.946265) can0 19B50007#0000002700000000
(0946688489.946830) can0 19B50001#C5CEC795C1000000
(0946688489.947426) can0 19B50002#7D7F7E0000000000
(0946688489.947732) can0 00000103#0101010101010101
(0946688489.948048) can0 19B50003#0000000000000000
(0946688489.948476) can0 00000001#E9FF0000F8FF0100
(0946688489.948771) can0 00000002#2FFC000003000000
(0946688489.949090) can0 19B50008#7D7F7D0000000000
(0946688489.950007) can0 19B50500#FFFB03E800006464
(0946688489.951076) can0 19B50600#FFFF0CE099990000
(0946688489.951691) can0 19B50009#C5CEC7000095C100
(0946688489.957684) can0 00000103#0101010101010101
(0946688489.958593) can0 00000001#E9FF0000F8FF0100
(0946688489.958863) can0 00000002#33FC000003000000
(0946688489.967686) can0 00000103#0101010101010101
(0946688489.968673) can0 00000001#E9FF0000F7FF0100
(0946688489.968943) can0 00000002#35FC000003000000
(0946688489.977709) can0 00000103#0101010101010101
(0946688489.978766) can0 00000001#EAFF0000F6FF0100
(0946688489.979051) can0 00000002#3AFC000003000000
(0946688489.984186) can0 00000007#8203810091A10000
(0946688489.987696) can0 00000103#0101010101010101
(0946688489.988835) can0 00000001#E9FF0000F4FF0100
(0946688489.989134) can0 00000002#3CFC000003000000
(0946688489.997694) can0 00000103#0101010101010101
(0946688489.998961) can0 00000001#EEFF0000E6FF0100
(0946688489.999241) can0 00000002#38FC000003000000
(0946688490.007724) can0 00000103#0101010101010101
(0946688490.009022) can0 00000001#EFFF0000E3FF0000
(0946688490.009313) can0 00000002#35FC000003000000
(0946688490.017681) can0 00000103#0101010101010101
(0946688490.019120) can0 00000001#F0FF0000E1FF0000
(0946688490.019414) can0 00000002#32FC000003000000
(0946688490.027677) can0 00000103#0101010101010101
(0946688490.029215) can0 00000001#EFFF0000E0FF0000
(0946688490.029523) can0 00000002#2BFC000003000000
(0946688490.035709) can0 18FF1515#0000000100010000
(0946688490.037716) can0 00000103#0101010101010101
(0946688490.039334) can0 00000001#EFFF0000E0FF0000
(0946688490.039616) can0 00000002#28FC000002000000
(0946688490.047709) can0 00000103#0101010101010101
(0946688490.049440) can0 00000001#EEFF0000E1FF0000
(0946688490.049760) can0 00000002#25FC000002000100
(0946688490.057679) can0 00000103#0101010101010101
(0946688490.059593) can0 00000001#ECFF0000E2FF0000
(0946688490.059862) can0 00000002#23FC000002000100
(0946688490.067681) can0 00000103#0101010101010101
(0946688490.069616) can0 00000001#ECFF0000E3FF0000
(0946688490.069899) can0 00000002#21FC000002000100
(0946688490.077685) can0 00000103#0101010101010101
(0946688490.078551) can0 00000008#82FF
(0946688490.079029) can0 00000009#8200C9C7C7C7C8C7
(0946688490.079709) can0 00000001#15000000F5FFFFFF
(0946688490.080000) can0 00000002#6AFC000001000000
(0946688490.082976) can0 00000008#82FF
(0946688490.083455) can0 00000009#8206C7C7C7C7C8C7
(0946688490.087714) can0 00000103#0101010101010101
(0946688490.088284) can0 00000008#82FF
(0946688490.088736) can0 00000009#820CC7C7C7C7
(0946688490.089798) can0 00000001#30000000F4FFFEFF
(0946688490.090091) can0 00000002#5DFC000001000000
(0946688490.092966) can0 0000000C#82FF
(0946688490.093449) can0 0000000D#8200C7C7C7C7C7CB
(0946688490.097713) can0 00000103#0101010101010101
(0946688490.098261) can0 0000000C#82FF
(0946688490.098757) can0 0000000D#8206C7C7C7C8C7C7
(0946688490.099895) can0 00000001#0E000000E4FFFEFF
(0946688490.100198) can0 00000002#31FC000000000000
(0946688490.102896) can0 0000000C#82FF
(0946688490.103379) can0 0000000D#820CCAC7C7C7
(0946688490.107684) can0 00000103#0101010101010101
(0946688490.108256) can0 00000010#82FF
(0946688490.108779) can0 00000011#8200C7C7C7C7C7C7
(0946688490.109967) can0 00000001#FDFF0000EEFFFEFF
(0946688490.110826) can0 00000002#1DFC0000FFFF0000
(0946688490.117682) can0 00000103#0101010101010101
(0946688490.120822) can0 00000001#E5FF0000E9FFFFFF
(0946688490.121088) can0 00000002#20FC0000FFFF0000
(0946688490.127698) can0 00000103#0101010101010101
(0946688490.127891) can0 00000010#82FF
(0946688490.128372) can0 00000011#8206C7C7C7C7C7C7
(0946688490.130887) can0 00000001#EAFF0000E2FF0000
(0946688490.131212) can0 00000002#2EFC0000FFFF0000
(0946688490.134099) can0 19B50000#0004000000020060
(0946688490.134971) can0 19B50007#0000002700000000
(0946688490.135545) can0 19B50001#C5CEC795C1000000
(0946688490.135815) can0 18FF1515#0000000100010000
(0946688490.136179) can0 19B50002#7D7F7E0000000000
(0946688490.136711) can0 19B50003#0000000000000000
(0946688490.137309) can0 19B50008#7D7F7D0000000000
(0946688490.137701) can0 00000103#0101010101010101
(0946688490.138090) can0 19B50500#FFFD03E800006464
(0946688490.139239) can0 19B50600#FFFF0CE099990000
(0946688490.139751) can0 19B50009#C5CEC7000095C100
(0946688490.140982) can0 00000001#ECFF0000EBFF0100
(0946688490.141285) can0 00000002#1AFC0000FFFF0000
(0946688490.147191) can0 00000010#82FF
(0946688490.147625) can0 00000011#820CC7C7C7C7
(0946688490.147915) can0 00000103#0101010101010101
(0946688490.151089) can0 00000001#EAFF0000EAFF0100
(0946688490.151418) can0 00000002#25FC0000FFFF0000
(0946688490.152256) can0 00000014#82FF
(0946688490.152757) can0 00000015#8200C7C7C7C7C7C7
(0946688490.157681) can0 00000103#0101010101010101
(0946688490.157878) can0 00000014#82FF
(0946688490.158390) can0 00000015#8206C7C7C7C7C7C7
(0946688490.161205) can0 00000001#E1FF0000EFFF0100
(0946688490.161511) can0 00000002#1BFC000000000000
(0946688490.162516) can0 00000014#82FF
(0946688490.162954) can0 00000015#820CC7C7C7C7
(0946688490.167718) can0 00000103#0101010101010101
(0946688490.167901) can0 00000018#82FF
(0946688490.168379) can0 00000019#8200C5C7C7C7C9C8
(0946688490.171255) can0 00000001#D7FF0000EEFF0100
(0946688490.171585) can0 00000002#11FC000000000000
(0946688490.172589) can0 00000018#82FF
(0946688490.173082) can0 00000019#8206C7C7CAC7C7C9
(0946688490.177707) can0 00000103#0101010101010101
(0946688490.177901) can0 00000018#82FF
(0946688490.178360) can0 00000019#820CC6C7C7C7
(0946688490.181364) can0 00000001#D4FF0000ECFF0000
(0946688490.181776) can0 00000002#16FC000001000000
(0946688490.187714) can0 00000103#0101010101010101
(0946688490.191464) can0 00000001#D6FF0000EDFF0000
(0946688490.191759) can0 00000002#1BFC000002000000
(0946688490.194665) can0 0000001C#82FF
(0946688490.195179) can0 0000001D#8200C8C7C7C7C7C7
(0946688490.197715) can0 00000103#0101010101010101
(0946688490.200916) can0 0000001C#82FF
(0946688490.201396) can0 0000001D#8206C7C7C7C7C7CE
(0946688490.201693) can0 00000001#DAFF0000ECFF0000
(0946688490.201969) can0 00000002#21FC000002000000
(0946688490.205427) can0 0000001C#82FF
(0946688490.205892) can0 0000001D#820CCCC7C7C8
(0946688490.207680) can0 00000103#0101010101010101
(0946688490.211684) can0 00000001#D5FF0000EFFF0000
(0946688490.211949) can0 00000002#28FC000003000100
(0946688490.217681) can0 00000103#0101010101010101
(0946688490.221761) can0 00000001#E4FF0000F0FF0000
(0946688490.222048) can0 00000002#37FC000003000100
(0946688490.227710) can0 00000103#0101010101010101
(0946688490.231822) can0 00000001#E4FF0000ECFF0000
(0946688490.232120) can0 00000002#3EFC000003000100
(0946688490.235770) can0 18FF1515#0000000100010000
(0946688490.237708) can0 00000103#0101010101010101
(0946688490.241961) can0 00000001#E7FF0000EEFF0000
(0946688490.242291) can0 00000002#43FC000003000100
(0946688490.247709) can0 00000103#0101010101010101
(0946688490.252039) can0 00000001#EAFF0000E7FF0100
(0946688490.252348) can0 00000002#2DFC000003000100
(0946688490.257686) can0 00000103#0101010101010101
(0946688490.262132) can0 00000001#EBFF0000E9FF0000
(0946688490.262427) can0 00000002#2CFC000003000200
(0946688490.267683) can0 00000103#0101010101010101
(0946688490.272218) can0 00000001#EFFF0000E9FF0000
(0946688490.272544) can0 00000002#2BFC000003000200
(0946688490.274732) can0 19B50100#00
(0946688490.275256) can0 19B50100#C9C7C7C7C8C7C7C7
(0946688490.277676) can0 00000103#0101010101010101
(0946688490.282326) can0 00000001#EEFF0000EAFF0000
(0946688490.282608) can0 00000002#27FC000003000200
(0946688490.287707) can0 00000103#0101010101010101
(0946688490.289307) can0 19B50101#C7C7C8C7C7C7C7C7
(0946688490.292439) can0 00000001#F1FF0000ECFF0000
(0946688490.292702) can0 00000002#27FC000003000200
(0946688490.297673) can0 00000103#0101010101010101
(0946688490.302508) can0 00000001#F2FF0000ECFF0000
(0946688490.302788) can0 00000002#24FC000003000200
(0946688490.304847) can0 19B50102#C7C7C7C7C7CBC7C7
(0946688490.307690) can0 00000103#0101010101010101
(0946688490.312597) can0 00000001#F4FF0000EEFF0000
(0946688490.313507) can0 00000002#26FC000003000100
(0946688490.317723) can0 00000103#0101010101010101
(0946688490.320859) can0 19B50103#C7C8C7C7CAC7C7C7
(0946688490.323356) can0 00000001#F7FF0000EEFF0000
(0946688490.323591) can0 00000002#23FC000002000100
(0946688490.327682) can0 00000103#0101010101010101
(0946688490.333389) can0 00000001#FBFF0000F1FF0000
(0946688490.333708) can0 00000002#25FC000002000100
(0946688490.334030) can0 19B50000#0004000000020060
(0946688490.334624) can0 19B50007#0000002700000000
(0946688490.335223) can0 19B50001#C5CEC795BF000000
(0946688490.335715) can0 18FF1515#0000000100010000
(0946688490.336030) can0 19B50002#7D7F7E0000000000
(0946688490.336616) can0 19B50003#0000000000000000
(0946688490.337213) can0 19B50008#7D7F7D0000000000
(0946688490.337665) can0 00000103#0101010101010101
(0946688490.338160) can0 19B50500#FFFB03E800006464
(0946688490.339231) can0 19B50600#FFFF0CE099990000
(0946688490.339844) can0 19B50009#C5CEC7000095BF00
(0946688490.343542) can0 00000001#F9FF0000F3FF0000
(0946688490.343837) can0 00000002#26FC000001000100
(0946688490.347709) can0 00000103#0101010101010101
(0946688490.353609) can0 00000001#EAFF0000F2FF0100
(0946688490.353893) can0 00000002#30FC000001000000
(0946688490.357687) can0 00000103#0101010101010101
(0946688490.361265) can0 19B50104#C7C7C7C7C7C7C7C7
(0946688490.363666) can0 00000001#E9FF0000F1FF0100
(0946688490.363986) can0 00000002#33FC000001000000
(0946688490.367726) can0 00000103#0101010101010101
(0946688490.373775) can0 00000001#E4FF0000EEFF0100
(0946688490.374071) can0 00000002#34FC000001000000
(0946688490.377653) can0 00000103#0101010101010101
(0946688490.379086) can0 19B50105#C7C7C7C7C7C7C7C7
(0946688490.383885) can0 00000001#E5FF0000ECFF0000
(0946688490.384159) can0 00000002#33FC000001000000
(0946688490.387706) can0 00000103#0101010101010101
(0946688490.393802) can0 19B50106#C7C7C7C7C7C7C7C7
(0946688490.394054) can0 00000001#E6FF0000EBFF0000
(0946688490.394363) can0 00000002#32FC000001000000
(0946688490.397672) can0 00000103#0101010101010101
(0946688490.404050) can0 00000001#E4FF0000EAFF0000
(0946688490.404367) can0 00000002#32FC000002000000
(0946688490.407707) can0 00000103#0101010101010101
(0946688490.408786) can0 19B50107#C7C7C7C7C7C7C7C7
(0946688490.414165) can0 00000001#E9FF0000E9FF0000
(0946688490.414469) can0 00000002#2DFC000002000000
(0946688490.417679) can0 00000103#0101010101010101
(0946688490.424231) can0 00000001#EEFF0000E8FF0000
(0946688490.424594) can0 00000002#33FC000002000000
(0946688490.426174) can0 19B50108#C5C7C7C7C9C8C7C7
(0946688490.427677) can0 00000103#0101010101010101
(0946688490.434362) can0 00000001#E3FF0000EDFF0000
(0946688490.434628) can0 00000002#26FC000001000100
(0946688490.435713) can0 18FF1515#0000000100010000
(0946688490.437675) can0 00000103#0101010101010101
(0946688490.444459) can0 00000001#E3FF0000EEFF0000
(0946688490.444744) can0 00000002#24FC000001000100
(0946688490.447696) can0 00000103#0101010101010101
(0946688490.452520) can0 19B50109#CAC7C7C9C6C7C7C7
(0946688490.454569) can0 00000001#E2FF0000F0FF0000
(0946688490.454841) can0 00000002#1DFC000001000100
(0946688490.457674) can0 00000103#0101010101010101
(0946688490.464642) can0 00000001#DFFF0000F1FF0000
(0946688490.464944) can0 00000002#1CFC000001000100
(0946688490.467684) can0 00000103#0101010101010101
(0946688490.468337) can0 19B5010A#C8C7C7C7C7C7C7C7
(0946688490.474748) can0 00000001#DEFF0000F1FF0100
(0946688490.475030) can0 00000002#18FC000002000100
(0946688490.477161) can0 00000007#8303810091A10000
(0946688490.477675) can0 00000103#0101010101010101
(0946688490.484850) can0 00000001#E0FF0000F3FF0100
(0946688490.485113) can0 00000002#19FC010002000100
(0946688490.487677) can0 00000103#0101010101010101
(0946688490.494910) can0 00000001#E1FF0000F4FF0100
(0946688490.495808) can0 00000002#1AFC000002000100
(0946688490.497698) can0 00000103#0101010101010101
(0946688490.504998) can0 00000001#E6FF0000F6FF0100
(0946688490.505271) can0 00000002#20FC000002000100
(0946688490.507674) can0 00000103#0101010101010101
(0946688490.515742) can0 00000001#E5FF0000F4FF0100
(0946688490.516021) can0 00000002#26FC000002000100
(0946688490.517680) can0 00000103#0101010101010101
(0946688490.526050) can0 00000001#E8FF0000F3FF0100
(0946688490.526341) can0 00000002#2CFC000002000100
(0946688490.527659) can0 00000103#0101010101010101
(0946688490.535717) can0 18FF1515#0000000100010000
(0946688490.536017) can0 19B50000#0004000000020060
(0946688490.536252) can0 00000001#01000000F3FF0000
(0946688490.536584) can0 00000002#3CFC000002000000
(0946688490.536859) can0 19B50007#0000002700000000
(0946688490.537499) can0 19B50001#C5CEC795BF000000
(0946688490.537754) can0 00000103#0101010101010101
(0946688490.538068) can0 19B50002#7D7F7E0000000000
(0946688490.538635) can0 19B50003#0000000000000000
(0946688490.539212) can0 19B50008#7D7F7D0000000000
(0946688490.540023) can0 19B50500#FFFD03E800006464
(0946688490.541114) can0 19B50600#FFFF0CE099990000
(0946688490.541717) can0 19B50009#C5CEC7000095BF00
(0946688490.546252) can0 00000001#F3FF0000F4FF0000
(0946688490.546586) can0 00000002#39FC000002000000
(0946688490.547646) can0 00000103#0101010101010101
(0946688490.556335) can0 00000001#F9FF0000F2FF0000
(0946688490.556646) can0 00000002#39FC000001000000
(0946688490.557647) can0 00000103#0101010101010101
(0946688490.566434) can0 00000001#F9FF0000F0FF0000
(0946688490.566712) can0 00000002#38FC00000100FFFF
(0946688490.567715) can0 00000103#0101010101010101
(0946688490.576550) can0 00000001#F9FF0000F0FF0000
(0946688490.576827) can0 00000002#38FC00000100FFFF
(0946688490.577422) can0 00000008#83FF
(0946688490.577686) can0 00000103#0101010101010101
(0946688490.577991) can0 00000009#8300C9C7C7C7C8C7
(0946688490.586622) can0 00000001#F9FF0000F0FF0000
(0946688490.586945) can0 00000002#38FC00000100FFFF
(0946688490.587672) can0 00000103#0101010101010101
(0946688490.592754) can0 00000008#83FF
(0946688490.593232) can0 00000009#8306C7C7C7C7C8C7
(0946688490.596747) can0 00000001#F2FF0000EBFF0000
(0946688490.597052) can0 00000002#36FC00000100FFFF
(0946688490.597662) can0 00000103#0101010101010101
(0946688490.599059) can0 00000008#83FF
(0946688490.599524) can0 00000009#830CC7C7C7C7
(0946688490.603271) can0 0000000C#83FF
(0946688490.603800) can0 0000000D#8300C7C7C7C7C7CB
(0946688490.606831) can0 00000001#ECFF0000F1FF0000
(0946688490.607132) can0 00000002#36FC00000100FFFF
(0946688490.607710) can0 00000103#0101010101010101
(0946688490.608400) can0 0000000C#83FF
(0946688490.608882) can0 0000000D#8306C7C7C7C8C7C7
(0946688490.613133) can0 0000000C#83FF
(0946688490.613581) can0 0000000D#830CCAC7C7C7
(0946688490.616891) can0 00000001#EAFF0000F2FF0000
(0946688490.617218) can0 00000002#36FC000001000100
(0946688490.617673) can0 00000103#0101010101010101
(0946688490.618310) can0 00000010#83FF
(0946688490.618820) can0 00000011#8300C7C7C7C7C7C7
(0946688490.623039) can0 00000010#83FF
(0946688490.623519) can0 00000011#8306C7C7C7C7C7C7
(0946688490.627015) can0 00000001#E9FF0000F2FF0000
(0946688490.627311) can0 00000002#38FC000001000100
(0946688490.627697) can0 00000103#0101010101010101
(0946688490.628463) can0 00000010#83FF
(0946688490.628936) can0 00000011#830CC7C7C7C7
(0946688490.635689) can0 18FF1515#0000000100010000
(0946688490.636677) can0 00000014#83FF
(0946688490.637104) can0 00000001#E9FF0000F2FF0000
(0946688490.637398) can0 00000002#38FC000001000100
(0946688490.637714) can0 00000103#0101010101010101
(0946688490.647224) can0 00000001#E9FF0000F2FF0000
(0946688490.647498) can0 00000002#37FC000001000100
(0946688490.647801) can0 00000103#0101010101010101
(0946688490.657307) can0 00000001#EAFF0000F1FF0000
(0946688490.657587) can0 00000002#35FC000001000100
(0946688490.657880) can0 00000103#0101010101010101
(0946688490.667397) can0 00000001#EAFF0000F0FF0000
(0946688490.667690) can0 00000002#33FC000001000100
(0946688490.667969) can0 00000103#0101010101010101
(0946688490.677676) can0 00000103#0101010101010101
(0946688490.678257) can0 00000001#EBFF0000EFFF0000
(0946688490.678560) can0 00000002#32FC000002000100
(0946688490.687689) can0 00000103#0101010101010101
(0946688490.688399) can0 00000001#EBFF0000EEFF0000
(0946688490.688714) can0 00000002#2FFC000002000100
(0946688490.697709) can0 00000103#0101010101010101
(0946688490.698521) can0 00000001#ECFF0000EDFF0000
(0946688490.698808) can0 00000002#2DFC000002000100
(0946688490.707709) can0 00000103#0101010101010101
(0946688490.708587) can0 00000001#EDFF0000EBFF0000
(0946688490.708917) can0 00000002#2AFC000001000100
(0946688490.717693) can0 00000103#0101010101010101
(0946688490.718690) can0 00000001#EDFF0000EBFF0000
(0946688490.718994) can0 00000002#29FC000001000100
(0946688490.727694) can0 00000103#0101010101010101
(0946688490.728830) can0 00000001#EDFF0000EBFF0000
(0946688490.729120) can0 00000002#28FC000001000100
(0946688490.729997) can0 19B50000#0004000000020060
(0946688490.730603) can0 19B50007#0000002700000000
(0946688490.731208) can0 19B50001#C5CEC795BF000000
(0946688490.731736) can0 19B50002#7D7F7E0000000000
(0946688490.732328) can0 19B50003#0000000000000000
(0946688490.732908) can0 19B50008#7D7F7D0000000000
(0946688490.733993) can0 19B50500#FFFB03E800006464
(0946688490.735077) can0 19B50600#FFFF0CE099990000
(0946688490.735633) can0 19B50009#C5CEC7000095BF00
(0946688490.735986) can0 18FF1515#0000000100010000
(0946688490.737682) can0 00000103#0101010101010101
(0946688490.738932) can0 00000001#ECFF0000EBFF0000
(0946688490.739205) can0 00000002#28FC000001000100
(0946688490.747710) can0 00000103#0101010101010101
(0946688490.749011) can0 00000001#ECFF0000EBFF0000
(0946688490.749294) can0 00000002#2AFC000001000100
(0946688490.757707) can0 00000103#0101010101010101
(0946688490.759094) can0 00000001#ECFF0000EBFF0000
(0946688490.759394) can0 00000002#2AFC000001000100
(0946688490.767710) can0 00000103#0101010101010101
(0946688490.769209) can0 00000001#EBFF0000EBFF0000
(0946688490.769484) can0 00000002#2BFC000001000100
(0946688490.777682) can0 00000103#0101010101010101
(0946688490.779295) can0 00000001#EBFF0000EAFF0000
(0946688490.779591) can0 00000002#2CFC000001000100
(0946688490.787686) can0 00000103#0101010101010101
(0946688490.789414) can0 00000001#EDFF0000EBFF0000
(0946688490.789709) can0 00000002#32FC000001000100
(0946688490.797674) can0 00000103#0101010101010101
(0946688490.799558) can0 00000001#EEFF0000EAFF0000
(0946688490.799881) can0 00000002#31FC000001000100
(0946688490.807672) can0 00000103#0101010101010101
(0946688490.809589) can0 00000001#EEFF0000E9FF0000
(0946688490.809882) can0 00000002#31FC000001000100
(0946688490.817670) can0 00000103#0101010101010101
(0946688490.819764) can0 00000001#EDFF0000E9FF0000
(0946688490.820082) can0 00000002#30FC000001000100
(0946688490.827690) can0 00000103#0101010101010101
(0946688490.829792) can0 00000001#EDFF0000E9FF0000
(0946688490.830092) can0 00000002#2FFC000001000100
(0946688490.835686) can0 18FF1515#0000000100010000
(0946688490.837677) can0 00000103#0101010101010101
(0946688490.839935) can0 00000001#EDFF0000E9FF0000
(0946688490.841413) can0 00000002#2EFC000001000100
(0946688490.847710) can0 00000103#0101010101010101
(0946688490.850018) can0 00000001#ECFF0000E9FF0000
(0946688490.850886) can0 00000002#2EFC000001000100
(0946688490.857705) can0 00000103#0101010101010101
(0946688490.860728) can0 00000001#EBFF0000E9FF0000
(0946688490.861032) can0 00000002#2CFC000001000100
(0946688490.867672) can0 00000103#0101010101010101
(0946688490.870820) can0 00000001#EBFF0000EAFF0000
(0946688490.871137) can0 00000002#2CFC000001000100
(0946688490.877682) can0 00000103#0101010101010101
(0946688490.880884) can0 00000001#EBFF0000EBFF0000
(0946688490.881224) can0 00000002#2BFC000001000100
(0946688490.887672) can0 00000103#0101010101010101
(0946688490.890992) can0 00000001#EBFF0000EDFF0000
(0946688490.891288) can0 00000002#2BFC000001000100
(0946688490.897672) can0 00000103#0101010101010101
(0946688490.901101) can0 00000001#EBFF0000EDFF0000
(0946688490.901401) can0 00000002#2CFC000001000100
(0946688490.907665) can0 00000103#0101010101010101
(0946688490.911178) can0 00000001#EAFF0000EEFF0000
(0946688490.911478) can0 00000002#2CFC000001000100
(0946688490.917710) can0 00000103#0101010101010101
(0946688490.921248) can0 00000001#EAFF0000EEFF0000
(0946688490.921572) can0 00000002#2DFC000001000100
(0946688490.927682) can0 00000103#0101010101010101
(0946688490.931365) can0 00000001#EAFF0000EEFF0000
(0946688490.931625) can0 00000002#2EFC000001000100
(0946688490.935683) can0 18FF1515#0000000100010000
(0946688490.937720) can0 00000103#0101010101010101
(0946688490.938377) can0 19B50000#0004000000020060
(0946688490.938951) can0 19B50007#0000002700000000
(0946688490.939508) can0 19B50001#C5CEC795BF000000
(0946688490.940087) can0 19B50002#7D7F7E0000000000
(0946688490.940697) can0 19B50003#0000000000000000
(0946688490.941235) can0 19B50008#7D7F7D0000000000
(0946688490.941564) can0 00000001#EBFF0000EEFF0000
(0946688490.941827) can0 00000002#2FFC000001000100
(0946688490.942267) can0 19B50500#FFFA03E800006464
(0946688490.943574) can0 19B50600#FFFF0CE099990000
(0946688490.944162) can0 19B50009#C5CEC7000095BF00
(0946688490.947710) can0 00000103#0101010101010101
(0946688490.951632) can0 00000001#EBFF0000EEFF0000
(0946688490.951928) can0 00000002#30FC000001000100
(0946688490.957706) can0 00000103#0101010101010101
(0946688490.961704) can0 00000001#ECFF0000EBFF0000
(0946688490.961988) can0 00000002#2EFC000001000100
(0946688490.967715) can0 00000103#0101010101010101
(0946688490.971795) can0 00000001#ECFF0000EBFF0000
(0946688490.972096) can0 00000002#2EFC000002000100
(0946688490.977668) can0 00000103#0101010101010101
(0946688490.981887) can0 00000001#ECFF0000EBFF0000
(0946688490.982209) can0 00000002#2DFC000002000100
(0946688490.987681) can0 00000103#0101010101010101
(0946688490.992030) can0 00000001#ECFF0000EBFF0000
(0946688490.992295) can0 00000002#2EFC000001000100
(0946688490.997699) can0 00000103#0101010101010101
(0946688491.002100) can0 00000001#ECFF0000EBFF0000
(0946688491.002404) can0 00000002#2EFC000001000100
(0946688491.007709) can0 00000103#0101010101010101
(0946688491.012222) can0 00000001#ECFF0000EBFF0000
(0946688491.012546) can0 00000002#2EFC000001000100
(0946688491.017674) can0 00000103#0101010101010101
(0946688491.022254) can0 00000001#ECFF0000EBFF0000
(0946688491.022573) can0 00000002#2DFC000001000100
(0946688491.027668) can0 00000103#0101010101010101
(0946688491.032380) can0 00000001#EBFF0000EBFF0000
(0946688491.032653) can0 00000002#2EFC000001000100
(0946688491.035694) can0 18FF1515#0000000100010000
(0946688491.037681) can0 00000103#0101010101010101
(0946688491.042502) can0 00000001#ECFF0000EBFF0000
(0946688491.042767) can0 00000002#2DFC000001000100
(0946688491.047682) can0 00000103#0101010101010101
(0946688491.053216) can0 00000001#ECFF0000EBFF0000
(0946688491.053547) can0 00000002#2EFC000001000100
(0946688491.057663) can0 00000103#0101010101010101
(0946688491.063310) can0 00000001#ECFF0000ECFF0000
(0946688491.063594) can0 00000002#2EFC000001000100
(0946688491.067672) can0 00000103#0101010101010101
(0946688491.073450) can0 00000001#ECFF0000ECFF0000
(0946688491.073737) can0 00000002#2FFC000001000100
(0946688491.077692) can0 00000103#0101010101010101
(0946688491.083560) can0 00000001#EBFF0000ECFF0000
(0946688491.083856) can0 00000002#2FFC000001000100
(0946688491.087682) can0 00000103#0101010101010101
(0946688491.093622) can0 00000001#ECFF0000ECFF0000
(0946688491.093902) can0 00000002#30FC000001000100
(0946688491.097429) can0 00000007#8403810091A10000
(0946688491.097717) can0 00000103#0101010101010101
(0946688491.103709) can0 00000001#ECFF0000ECFF0000
(0946688491.104000) can0 00000002#2FFC000001000100
(0946688491.107711) can0 00000103#0101010101010101
(0946688491.113834) can0 00000001#EBFF0000EDFF0000
(0946688491.114102) can0 00000002#30FC000001000100
(0946688491.117709) can0 00000103#0101010101010101
(0946688491.123914) can0 00000001#ECFF0000EDFF0000
(0946688491.124185) can0 00000002#2FFC000001000100
(0946688491.127691) can0 00000103#0101010101010101
(0946688491.132218) can0 19B50000#0004000000020060
(0946688491.132828) can0 19B50007#0000002700000000
(0946688491.133557) can0 19B50001#C5CEC795BF000000
(0946688491.133991) can0 00000001#ECFF0000EDFF0000
(0946688491.134261) can0 00000002#30FC000001000100
(0946688491.134603) can0 19B50002#7D7F7E0000000000
(0946688491.135105) can0 19B50003#0000000000000000
(0946688491.135694) can0 18FF1515#0000000100010000
(0946688491.135983) can0 19B50008#7D7F7D0000000000
(0946688491.136653) can0 19B50500#000003E800006464
(0946688491.137681) can0 00000103#0101010101010101
(0946688491.137996) can0 19B50600#FFFF0CE099990000
(0946688491.138519) can0 19B50009#C5CEC7000095BF00
(0946688491.144116) can0 00000001#ECFF0000ECFF0000
(0946688491.144413) can0 00000002#2EFC000001000100
(0946688491.147683) can0 00000103#0101010101010101
(0946688491.154195) can0 00000001#ECFF0000ECFF0000
(0946688491.154466) can0 00000002#2EFC000001000100
(0946688491.157731) can0 00000103#0101010101010101
(0946688491.164271) can0 00000001#ECFF0000ECFF0000
(0946688491.164619) can0 00000002#2FFC000001000100
(0946688491.167682) can0 00000103#0101010101010101
(0946688491.174359) can0 00000001#EDFF0000ECFF0000
(0946688491.174644) can0 00000002#2FFC000001000100
(0946688491.177709) can0 00000103#0101010101010101
(0946688491.184468) can0 00000001#EDFF0000ECFF0000
(0946688491.184789) can0 00000002#2EFC000001000100
(0946688491.187689) can0 00000103#0101010101010101
(0946688491.194552) can0 00000001#ECFF0000ECFF0000
(0946688491.194849) can0 00000002#2FFC000001000100
(0946688491.197717) can0 00000103#0101010101010101
(0946688491.198250) can0 00000014#84FF
(0946688491.198770) can0 00000015#8400C7C7C7C7C7C7
(0946688491.200732) can0 00000014#84FF
(0946688491.201225) can0 00000015#8406C7C7C7C7C7C7
(0946688491.204657) can0 00000001#EDFF0000EDFF0000
(0946688491.204933) can0 00000002#2FFC000001000100
(0946688491.205816) can0 00000014#84FF
(0946688491.206255) can0 00000015#840CC7C7C7C7
(0946688491.207722) can0 00000103#0101010101010101
(0946688491.210524) can0 00000018#84FF
(0946688491.211020) can0 00000019#8400C5C7C7C7C9C8
(0946688491.214748) can0 00000001#ECFF0000EDFF0000
(0946688491.215044) can0 00000002#2FFC000001000100
(0946688491.215885) can0 00000018#84FF
(0946688491.216334) can0 00000019#8406C7C7CAC7C7C9
(0946688491.217712) can0 00000103#0101010101010101
(0946688491.220618) can0 00000018#84FF
(0946688491.221031) can0 00000019#840CC6C7C7C7
(0946688491.224834) can0 00000001#ECFF0000EDFF0000
(0946688491.225114) can0 00000002#2FFC000001000100
(0946688491.226181) can0 0000001C#84FF
(0946688491.226646) can0 0000001D#8400C8C7C7C7C7C7
(0946688491.227724) can0 00000103#0101010101010101
(0946688491.230915) can0 0000001C#84FF
(0946688491.231400) can0 0000001D#8406C7C7C7C7C7CE
(0946688491.234889) can0 00000001#ECFF0000EDFF0000
(0946688491.235212) can0 00000002#30FC000001000100
(0946688491.235729) can0 18FF1515#0000000100010000
(0946688491.236387) can0 0000001C#84FF
(0946688491.236833) can0 0000001D#840CCCC7C7C8
(0946688491.237680) can0 00000103#0101010101010101
(0946688491.245020) can0 00000001#EBFF0000ECFF0000
(0946688491.245332) can0 00000002#2FFC000001000100
(0946688491.247697) can0 00000103#0101010101010101
(0946688491.255107) can0 00000001#EBFF0000ECFF0000
(0946688491.255394) can0 00000002#2FFC000001000100
(0946688491.257679) can0 00000103#0101010101010101
(0946688491.265184) can0 00000001#ECFF0000ECFF0000
(0946688491.265488) can0 00000002#2FFC000001000100
(0946688491.267677) can0 00000103#0101010101010101
(0946688491.275588) can0 00000001#ECFF0000EBFF0000
(0946688491.275869) can0 00000002#2FFC000001000100
(0946688491.277675) can0 00000103#0101010101010101
(0946688491.285689) can0 00000001#ECFF0000EBFF0000
(0946688491.285957) can0 00000002#2FFC000001000100
(0946688491.287699) can0 00000103#0101010101010101
(0946688491.295734) can0 00000001#ECFF0000EBFF0000
(0946688491.296040) can0 00000002#2FFC000001000100
(0946688491.297678) can0 00000103#0101010101010101
(0946688491.305846) can0 00000001#ECFF0000EBFF0000
(0946688491.306136) can0 00000002#2EFC000001000100
(0946688491.307677) can0 00000103#0101010101010101
(0946688491.315931) can0 00000001#ECFF0000ECFF0000
(0946688491.316228) can0 00000002#2FFC000001000100
(0946688491.317665) can0 00000103#0101010101010101
(0946688491.319711) can0 19B5010B#C7C7C7CECCC7C7C8
(0946688491.326018) can0 00000001#ECFF0000ECFF0000
(0946688491.326332) can0 00000002#2FFC000001000100
(0946688491.327709) can0 00000103#0101010101010101
(0946688491.330754) can0 19B50000#0004000000020060
(0946688491.331411) can0 19B50007#0000002700000000
(0946688491.331973) can0 19B50001#C5CEC795BF000000
(0946688491.332562) can0 19B50002#7D7F7E0000000000
(0946688491.333394) can0 19B50003#0000000000000000
(0946688491.333965) can0 19B50008#7D7F7D0000000000
(0946688491.334789) can0 19B50500#FFFB03E800006464
(0946688491.335703) can0 18FF1515#0000000100010000
(0946688491.335982) can0 19B50600#FFFF0CE099990000
(0946688491.336250) can0 00000001#ECFF0000ECFF0000
(0946688491.336535) can0 00000002#2EFC000001000100
(0946688491.336830) can0 19B50009#C5CEC7000095BF00
(0946688491.337666) can0 00000103#0101010101010101
(0946688491.346242) can0 00000001#EBFF0000ECFF0000
(0946688491.346550) can0 00000002#2FFC000001000100
(0946688491.347679) can0 00000103#0101010101010101
(0946688491.356342) can0 00000001#EAFF0000ECFF0000
(0946688491.356633) can0 00000002#2FFC000001000100
(0946688491.357663) can0 00000103#0101010101010101
(0946688491.366448) can0 00000001#EBFF0000ECFF0000
(0946688491.366748) can0 00000002#2FFC000001000100
(0946688491.367706) can0 00000103#0101010101010101
(0946688491.376501) can0 00000001#EAFF0000ECFF0000
(0946688491.376830) can0 00000002#2FFC000001000100
(0946688491.377673) can0 00000103#0101010101010101
(0946688491.386634) can0 00000001#EAFF0000EBFF0000
(0946688491.386920) can0 00000002#2FFC000001000100
(0946688491.387690) can0 00000103#0101010101010101
(0946688491.396727) can0 00000001#EAFF0000EBFF0000
(0946688491.397038) can0 00000002#2FFC000001000100
(0946688491.397677) can0 00000103#0101010101010101
(0946688491.406809) can0 00000001#EBFF0000EBFF0000
(0946688491.407093) can0 00000002#2EFC000001000100
(0946688491.407659) can0 00000103#0101010101010101
(0946688491.416923) can0 00000001#EBFF0000ECFF0000
(0946688491.417216) can0 00000002#2EFC000001000100
(0946688491.417667) can0 00000103#0101010101010101
(0946688491.427004) can0 00000001#ECFF0000ECFF0000
(0946688491.427300) can0 00000002#2EFC000001000100
(0946688491.427640) can0 00000103#0101010101010101
(0946688491.435689) can0 18FF1515#0000000100010000
(0946688491.437124) can0 00000001#EDFF0000ECFF0000
(0946688491.437398) can0 00000002#2EFC000001000100
(0946688491.437689) can0 00000103#0101010101010101
(0946688491.447213) can0 00000001#EDFF0000EDFF0000
(0946688491.447508) can0 00000002#2EFC000001000100
(0946688491.447814) can0 00000103#0101010101010101
(0946688491.457287) can0 00000001#EEFF0000EDFF0000
(0946688491.457586) can0 00000002#2FFC000001000100
(0946688491.457865) can0 00000103#0101010101010101
(0946688491.467411) can0 00000001#EEFF0000EDFF0000
(0946688491.467705) can0 00000103#0101010101010101
(0946688491.468328) can0 00000002#2EFC000001000100
(0946688491.477709) can0 00000103#0101010101010101
(0946688491.478177) can0 00000001#EEFF0000EDFF0000
(0946688491.478459) can0 00000002#2FFC000001000100
(0946688491.487711) can0 00000103#0101010101010101
(0946688491.488301) can0 00000001#EEFF0000EDFF0000
(0946688491.488620) can0 00000002#2FFC000001000100
(0946688491.497684) can0 00000103#0101010101010101
(0946688491.498426) can0 00000001#EBFF0000ECFF0000
(0946688491.498691) can0 00000002#2DFC000001000100
(0946688491.507656) can0 00000103#0101010101010101
(0946688491.508512) can0 00000001#EBFF0000ECFF0000
(0946688491.508790) can0 00000002#2EFC000001000100
(0946688491.516111) can0 00000007#8503840094A40000
(0946688491.517664) can0 00000103#0101010101010101
(0946688491.518606) can0 00000001#EBFF0000ECFF0000
(0946688491.518926) can0 00000002#2EFC000001000100
(0946688491.527668) can0 00000103#0101010101010101
(0946688491.528702) can0 00000001#EBFF0000ECFF0000
(0946688491.528996) can0 00000002#2EFC000001000100
(0946688491.531448) can0 19B50000#0004000000020060
(0946688491.532053) can0 19B50007#0000002700000000
(0946688491.532841) can0 19B50001#C5CEC795BF000000
(0946688491.533444) can0 19B50002#7D7F7E0000000000
(0946688491.534008) can0 19B50003#0000000000000000
(0946688491.534586) can0 19B50008#7D7F7D0000000000
(0946688491.535443) can0 19B50500#FFFB03E800006464
(0946688491.535739) can0 18FF1515#0000000100010000
(0946688491.536672) can0 19B50600#FFFF0CE099990000
(0946688491.537256) can0 19B50009#C5CEC7000095BF00
(0946688491.537687) can0 00000103#0101010101010101
(0946688491.538820) can0 00000001#EBFF0000ECFF0000
(0946688491.539122) can0 00000002#2EFC000001000100
(0946688491.547694) can0 00000103#0101010101010101
(0946688491.548894) can0 00000001#EBFF0000ECFF0000
(0946688491.549206) can0 00000002#2EFC000001000100
(0946688491.557674) can0 00000103#0101010101010101
(0946688491.558990) can0 00000001#ECFF0000ECFF0000
(0946688491.559287) can0 00000002#2EFC000001000100
(0946688491.567673) can0 00000103#0101010101010101
(0946688491.569081) can0 00000001#ECFF0000EDFF0000
(0946688491.569379) can0 00000002#2FFC000001000100
(0946688491.577684) can0 00000103#0101010101010101
(0946688491.579186) can0 00000001#ECFF0000ECFF0000
(0946688491.579459) can0 00000002#2FFC000001000100
(0946688491.587682) can0 00000103#0101010101010101
(0946688491.589301) can0 00000001#ECFF0000EDFF0000
(0946688491.589579) can0 00000002#30FC000001000100
(0946688491.597684) can0 00000103#0101010101010101
(0946688491.599380) can0 00000001#ECFF0000ECFF0000
(0946688491.599696) can0 00000002#30FC000001000100
(0946688491.607677) can0 00000103#0101010101010101
(0946688491.609454) can0 00000001#ECFF0000EBFF0000
(0946688491.609754) can0 00000002#30FC000001000100
(0946688491.616036) can0 00000008#85FF
(0946688491.616623) can0 00000009#85007D7D7D7D7D7D
(0946688491.617661) can0 00000103#0101010101010101
(0946688491.617867) can0 00000008#85FF
(0946688491.618340) can0 00000009#85067D7D7D7D7D7D
(0946688491.619627) can0 00000001#EBFF0000EBFF0000
(0946688491.619924) can0 00000002#2FFC000001000100
(0946688491.622689) can0 00000008#85FF
(0946688491.623210) can0 00000009#850C7D7D7D7D
(0946688491.627669) can0 00000103#0101010101010101
(0946688491.629698) can0 00000001#EBFF0000EBFF0000
(0946688491.629965) can0 00000002#30FC000001000100
(0946688491.635676) can0 18FF1515#0000000100010000
(0946688491.637711) can0 00000103#0101010101010101
(0946688491.639798) can0 00000001#EBFF0000EAFF0000
(0946688491.640081) can0 00000002#30FC000001000100
(0946688491.640251) can0 0000000C#85FF
(0946688491.640758) can0 0000000D#85007E7E7E7E7E7E
(0946688491.646655) can0 0000000C#85FF
(0946688491.647180) can0 0000000D#85067E7E7E7E7E7E
(0946688491.647687) can0 00000103#0101010101010101
(0946688491.649912) can0 00000001#EBFF0000EAFF0000
(0946688491.650207) can0 00000002#2FFC000001000100
(0946688491.651086) can0 0000000C#85FF
(0946688491.651617) can0 0000000D#850C7E7E7E7E
(0946688491.656472) can0 00000010#85FF
(0946688491.657035) can0 00000011#85007E7E7E7E7E7E
(0946688491.657657) can0 00000103#0101010101010101
(0946688491.659985) can0 00000001#EDFF0000EBFF0000
(0946688491.660269) can0 00000002#2FFC000001000100
(0946688491.660960) can0 00000010#85FF
(0946688491.661473) can0 00000011#85067E7E7E7E7E7E
(0946688491.666371) can0 00000010#85FF
(0946688491.666784) can0 00000011#850C7E7E7E7E
(0946688491.667665) can0 00000103#0101010101010101
(0946688491.670632) can0 00000014#85FF
(0946688491.670888) can0 00000001#EBFF0000EDFF0000
(0946688491.671212) can0 00000002#2DFC000001000100
(0946688491.677710) can0 00000103#0101010101010101
(0946688491.680923) can0 00000001#EBFF0000EDFF0000
(0946688491.681177) can0 00000002#2EFC000001000100
(0946688491.687662) can0 00000103#0101010101010101
(0946688491.690964) can0 00000001#EBFF0000EDFF0000
(0946688491.691248) can0 00000002#2FFC000001000100
(0946688491.697693) can0 00000103#0101010101010101
(0946688491.701086) can0 00000001#EAFF0000ECFF0000
(0946688491.701395) can0 00000002#31FC000001000100
(0946688491.707672) can0 00000103#0101010101010101
(0946688491.711179) can0 00000001#EBFF0000ECFF0000
(0946688491.711482) can0 00000002#32FC000001000100
(0946688491.717678) can0 00000103#0101010101010101
(0946688491.721262) can0 00000001#EBFF0000ECFF0000
(0946688491.721584) can0 00000002#32FC000001000100
(0946688491.727669) can0 00000103#0101010101010101
(0946688491.731215) can0 19B50000#0004000000020060
(0946688491.731484) can0 00000001#EBFF0000ECFF0000
(0946688491.731769) can0 00000002#32FC000001000100
(0946688491.732101) can0 19B50007#0000002700000000
(0946688491.732661) can0 19B50001#C5CEC795BF000000
(0946688491.733266) can0 19B50002#7D7F7E0000000000
(0946688491.733843) can0 19B50003#0000000000000000
(0946688491.734397) can0 19B50008#7D7F7D0000000000
(0946688491.735222) can0 19B50500#FFFC03E800006464
(0946688491.735669) can0 18FF1515#0000000100010000
(0946688491.736358) can0 19B50600#FFFF0CE099990000
(0946688491.736886) can0 19B50009#C5CEC7000095BF00
(0946688491.737738) can0 00000103#0101010101010101
(0946688491.741477) can0 00000001#ECFF0000ECFF0000
(0946688491.741748) can0 00000002#32FC000001000100
(0946688491.747673) can0 00000103#0101010101010101
(0946688491.751600) can0 00000001#ECFF0000ECFF0000
(0946688491.751915) can0 00000002#32FC000001000100
(0946688491.757680) can0 00000103#0101010101010101
(0946688491.761682) can0 00000001#EBFF0000EBFF0000
(0946688491.761994) can0 00000002#32FC000001000100
(0946688491.767672) can0 00000103#0101010101010101
(0946688491.771803) can0 00000001#EBFF0000ECFF0000
(0946688491.772074) can0 00000002#31FC000001000100
(0946688491.777669) can0 00000103#0101010101010101
(0946688491.781883) can0 00000001#EEFF0000EBFF0000
(0946688491.782198) can0 00000002#31FC000001000100
(0946688491.787710) can0 00000103#0101010101010101
(0946688491.791967) can0 00000001#EBFF0000EBFF0000
(0946688491.792252) can0 00000002#2FFC000001000100
(0946688491.797722) can0 00000103#0101010101010101
(0946688491.802050) can0 00000001#ECFF0000EBFF0000
(0946688491.802346) can0 00000002#2EFC000001000100
(0946688491.807662) can0 00000103#0101010101010101
(0946688491.812150) can0 00000001#EBFF0000EBFF0000
(0946688491.812447) can0 00000002#2DFC000001000100
(0946688491.817681) can0 00000103#0101010101010101
(0946688491.822247) can0 00000001#ECFF0000EBFF0000
(0946688491.822552) can0 00000002#2CFC000001000100
(0946688491.827669) can0 00000103#0101010101010101
(0946688491.832366) can0 00000001#ECFF0000EBFF0000
(0946688491.832677) can0 00000002#2BFC000001000100
(0946688491.835702) can0 18FF1515#0000000100010000
(0946688491.837709) can0 00000103#0101010101010101
(0946688491.842482) can0 00000001#EDFF0000ECFF0000
(0946688491.842772) can0 00000002#2BFC000001000100
(0946688491.847709) can0 00000103#0101010101010101
(0946688491.852535) can0 00000001#EDFF0000EBFF0000
(0946688491.852861) can0 00000002#2CFC000001000100
(0946688491.857682) can0 00000103#0101010101010101
(0946688491.863221) can0 00000001#EDFF0000EBFF0000
(0946688491.863551) can0 00000002#2BFC000001000100
(0946688491.867675) can0 00000103#0101010101010101
(0946688491.873335) can0 00000001#EBFF0000EBFF0000
(0946688491.873625) can0 00000002#2DFC000001000100
(0946688491.877669) can0 00000103#0101010101010101
(0946688491.883412) can0 00000001#EAFF0000EBFF0000
(0946688491.883715) can0 00000002#2EFC000001000100
(0946688491.887676) can0 00000103#0101010101010101
(0946688491.893506) can0 00000001#EAFF0000EBFF0100
(0946688491.893832) can0 00000002#2EFC000001000100
(0946688491.897665) can0 00000103#0101010101010101
(0946688491.903602) can0 00000001#EBFF0000ECFF0100
(0946688491.903872) can0 00000002#2DFC000001000100
(0946688491.907753) can0 00000103#0101010101010101
(0946688491.913685) can0 00000001#EAFF0000EBFF0000
(0946688491.913981) can0 00000002#2FFC000001000100
(0946688491.917676) can0 00000103#0101010101010101
(0946688491.923803) can0 00000001#EBFF0000ECFF0000
(0946688491.924103) can0 00000002#2EFC000001000100
(0946688491.927677) can0 00000103#0101010101010101
(0946688491.931373) can0 19B50000#0004000000020060
(0946688491.932192) can0 19B50007#0000002700000000
(0946688491.932760) can0 19B50001#C5CEC795BF000000
(0946688491.933357) can0 19B50002#7D7F7E0000000000
(0946688491.933882) can0 00000001#EDFF0000ECFF0000
(0946688491.934181) can0 00000002#2FFC000001000100
(0946688491.934466) can0 19B50003#0000000000000000
(0946688491.934804) can0 19B50008#7D7F7D0000000000
(0946688491.935670) can0 18FF1515#0000000100010000
(0946688491.935972) can0 19B50500#FFFB03E800006464
(0946688491.936902) can0 19B50600#FFFF0CE099990000
(0946688491.937496) can0 19B50009#C5CEC7000095BF00
(0946688491.937761) can0 00000103#0101010101010101
(0946688491.944007) can0 00000001#EDFF0000EDFF0000
(0946688491.944261) can0 00000002#2FFC000001000100
(0946688491.947711) can0 00000103#0101010101010101
(0946688491.954083) can0 00000001#EDFF0000EDFF0000
(0946688491.954384) can0 00000002#30FC000001000100
(0946688491.957701) can0 00000103#0101010101010101
(0946688491.964145) can0 00000001#EEFF0000EDFF0000
(0946688491.964464) can0 00000002#30FC000001000100
(0946688491.967695) can0 00000103#0101010101010101
(0946688491.974236) can0 00000001#EDFF0000EDFF0000
(0946688491.974545) can0 00000002#31FC000001000100
(0946688491.977676) can0 00000103#0101010101010101
(0946688491.984327) can0 00000001#EDFF0000EDFF0000
(0946688491.984648) can0 00000002#31FC000001000100
(0946688491.987675) can0 00000103#0101010101010101
(0946688491.994450) can0 00000001#EFFF0000EDFF0000
(0946688491.994736) can0 00000002#31FC000001000100
(0946688491.997676) can0 00000103#0101010101010101
(0946688492.004543) can0 00000001#EEFF0000EDFF0000
(0946688492.004832) can0 00000002#2FFC000001000100
(0946688492.007684) can0 00000103#0101010101010101
(0946688492.014678) can0 00000001#EDFF0000EDFF0000
(0946688492.014957) can0 00000002#2FFC000001000100
(0946688492.017669) can0 00000103#0101010101010101
(0946688492.024759) can0 00000001#EDFF0000EDFF0000
(0946688492.025040) can0 00000002#2EFC000001000100
(0946688492.027675) can0 00000103#0101010101010101
(0946688492.034840) can0 00000001#EDFF0000EAFF0000
(0946688492.035178) can0 00000002#33FC000001000100
(0946688492.035681) can0 18FF1515#0000000100010000
(0946688492.037677) can0 00000103#0101010101010101
(0946688492.044927) can0 00000001#EEFF0000EAFF0000
(0946688492.045223) can0 00000002#33FC000001000100
(0946688492.047711) can0 00000103#0101010101010101
(0946688492.055039) can0 00000001#EFFF0000EBFF0000
(0946688492.055341) can0 00000002#32FC000001000100
(0946688492.057688) can0 00000103#0101010101010101
(0946688492.065694) can0 00000001#EFFF0000EBFF0000
(0946688492.065989) can0 00000002#32FC000000000100
(0946688492.067682) can0 00000103#0101010101010101
(0946688492.075799) can0 00000001#EFFF0000ECFF0000
(0946688492.076107) can0 00000002#32FC000000000100
(0946688492.077672) can0 00000103#0101010101010101
(0946688492.085880) can0 00000001#EEFF0000ECFF0000
(0946688492.086182) can0 00000002#32FC000000000100
(0946688492.087669) can0 00000103#0101010101010101
(0946688492.095988) can0 00000001#EEFF0000EDFF0000
(0946688492.096253) can0 00000002#31FC000000000100
(0946688492.097669) can0 00000103#0101010101010101
(0946688492.106082) can0 00000001#EDFF0000EEFF0000
(0946688492.106372) can0 00000002#30FC000000000100
(0946688492.107689) can0 00000103#0101010101010101
(0946688492.116173) can0 00000001#EDFF0000EEFF0000
(0946688492.116470) can0 00000002#2FFC000000000100
(0946688492.117676) can0 00000103#0101010101010101
(0946688492.126252) can0 00000001#EDFF0000EFFF0000
(0946688492.126572) can0 00000002#2FFC000000000100
(0946688492.127677) can0 00000103#0101010101010101
(0946688492.131032) can0 19B50000#0004000000020060
(0946688492.131890) can0 19B50007#0000002700000000
(0946688492.132592) can0 19B50001#C5CEC795BF000000
(0946688492.133241) can0 19B50002#7D7F7E0000000000
(0946688492.133985) can0 19B50003#0000000000000000
(0946688492.134545) can0 19B50008#7D7F7D0000000000
(0946688492.135495) can0 19B50500#FFFB03E800006464
(0946688492.135808) can0 18FF1515#0000000100010000
(0946688492.136369) can0 00000001#EAFF0000EFFF0000
(0946688492.136688) can0 00000002#2CFC000000000100
(0946688492.137035) can0 19B50600#FFFF0CE099990000
(0946688492.137701) can0 19B50009#C5CEC7000095BF00
(0946688492.137963) can0 00000103#0101010101010101
(0946688492.143030) can0 00000007#8603840094A40000
(0946688492.146465) can0 00000001#EAFF0000EFFF0000
(0946688492.146774) can0 00000002#2CFC000000000100
(0946688492.147674) can0 00000103#0101010101010101
(0946688492.156573) can0 00000001#E9FF0000EEFF0000
(0946688492.156842) can0 00000002#2CFC000000000000
(0946688492.157673) can0 00000103#0101010101010101
(0946688492.166653) can0 00000001#EAFF0000EEFF0000
(0946688492.167017) can0 00000002#2BFC000000000000
(0946688492.167679) can0 00000103#0101010101010101
(0946688492.176760) can0 00000001#E9FF0000EDFF0000
(0946688492.177037) can0 00000002#2CFC000000000000
(0946688492.177718) can0 00000103#0101010101010101
(0946688492.186839) can0 00000001#E8FF0000ECFF0000
(0946688492.187168) can0 00000002#2BFC000000000000
(0946688492.187707) can0 00000103#0101010101010101
(0946688492.196964) can0 00000001#E8FF0000EBFF0000
(0946688492.197229) can0 00000002#2BFC000000000100
(0946688492.197703) can0 00000103#0101010101010101
(0946688492.207082) can0 00000001#EFFF0000EAFF0100
(0946688492.207364) can0 00000002#35FC000001000100
(0946688492.207758) can0 00000103#0101010101010101
(0946688492.217103) can0 00000001#F0FF0000EBFF0000
(0946688492.217428) can0 00000002#36FC000001000200
(0946688492.217701) can0 00000103#0101010101010101
(0946688492.227221) can0 00000001#F0FF0000ECFF0000
(0946688492.227541) can0 00000002#36FC000001000200
(0946688492.227815) can0 00000103#0101010101010101
(0946688492.235681) can0 18FF1515#0000000100010000
(0946688492.237336) can0 00000001#F1FF0000EDFF0000
(0946688492.237596) can0 00000002#36FC000001000200
(0946688492.237892) can0 00000103#0101010101010101
(0946688492.244541) can0 00000014#86FF
(0946688492.245014) can0 00000015#86007F7F7F7F7F7F
(0946688492.247403) can0 00000001#F2FF0000EEFF0000
(0946688492.247711) can0 00000002#37FC000000000100
(0946688492.247988) can0 00000103#0101010101010101
(0946688492.257689) can0 00000103#0101010101010101
(0946688492.258112) can0 00000014#86FF
(0946688492.258373) can0 00000001#F3FF0000EFFF0000
(0946688492.258720) can0 00000002#34FC000000000100
(0946688492.267682) can0 00000103#0101010101010101
(0946688492.268340) can0 00000001#F3FF0000F0FF0000
(0946688492.268625) can0 00000002#32FC000000000100
(0946688492.277668) can0 00000103#0101010101010101
(0946688492.278432) can0 00000001#F3FF0000F0FF0000
(0946688492.278716) can0 00000002#31FC000000000100
(0946688492.287669) can0 00000103#0101010101010101
(0946688492.288494) can0 00000001#F3FF0000F0FF0000
(0946688492.288778) can0 00000002#30FC000000000100
(0946688492.297700) can0 00000103#0101010101010101
(0946688492.298619) can0 00000001#F0FF0000F0FF0000
(0946688492.298915) can0 00000002#2EFC000000000100
(0946688492.307702) can0 00000103#0101010101010101
(0946688492.308702) can0 00000001#EBFF0000EEFF0000
(0946688492.308996) can0 00000002#29FC000000000100
(0946688492.317678) can0 00000103#0101010101010101
(0946688492.318749) can0 00000001#EAFF0000EEFF0000
(0946688492.319089) can0 00000002#29FC000000000100
(0946688492.326731) can0 19B50000#0004000000020060
(0946688492.327293) can0 19B50007#0000002700000000
(0946688492.327683) can0 00000103#0101010101010101
(0946688492.328009) can0 19B50001#C5CEC795BF000000
(0946688492.328644) can0 19B50002#7D7F7E0000000000
(0946688492.328902) can0 00000001#EAFF0000EEFF0000
(0946688492.329270) can0 00000002#2AFC000000000100
(0946688492.329499) can0 19B50003#0000000000000000
(0946688492.329787) can0 19B50008#7D7F7D0000000000
(0946688492.330640) can0 19B50500#FFFB03E800006464
(0946688492.331949) can0 19B50600#FFFF0CE099990000
(0946688492.332552) can0 19B50009#C5CEC7000095BF00
(0946688492.335693) can0 18FF1515#0000000100010000
(0946688492.337710) can0 00000103#0101010101010101
(0946688492.338968) can0 00000001#E8FF0000EDFF0000
(0946688492.339250) can0 00000002#2BFC000000000100
(0946688492.347673) can0 00000103#0101010101010101
(0946688492.349090) can0 00000001#E9FF0000ECFF0000
(0946688492.349372) can0 00000002#2CFC000000000100
(0946688492.357670) can0 00000103#0101010101010101
(0946688492.359246) can0 00000001#EAFF0000ECFF0000
(0946688492.359462) can0 00000002#2DFC000000000100
(0946688492.367691) can0 00000103#0101010101010101
(0946688492.369269) can0 00000001#E9FF0000ECFF0000
(0946688492.369598) can0 00000002#2FFC000000000100
(0946688492.377677) can0 00000103#0101010101010101
(0946688492.379369) can0 00000001#E9FF0000ECFF0000
(0946688492.379656) can0 00000002#2EFC000000000100
(0946688492.387663) can0 00000103#0101010101010101
(0946688492.389495) can0 00000001#EDFF0000E9FF0000
(0946688492.389760) can0 00000002#2EFC000000000100
(0946688492.397667) can0 00000103#0101010101010101
(0946688492.399571) can0 00000001#EEFF0000E8FF0000
(0946688492.399893) can0 00000002#2FFC000000000100
(0946688492.407666) can0 00000103#0101010101010101
(0946688492.409711) can0 00000001#EEFF0000E8FF0000
(0946688492.410001) can0 00000002#2FFC000000000100
(0946688492.417689) can0 00000103#0101010101010101
(0946688492.419821) can0 00000001#EEFF0000E8FF0000
(0946688492.420085) can0 00000002#2EFC000000000100
(0946688492.427677) can0 00000103#0101010101010101
(0946688492.429883) can0 00000001#EDFF0000E8FF0000
(0946688492.430202) can0 00000002#2EFC000000000100
(0946688492.435684) can0 18FF1515#0000000100010000
(0946688492.437674) can0 00000103#0101010101010101
(0946688492.439977) can0 00000001#EEFF0000E8FF0000
(0946688492.440901) can0 00000002#2FFC000000000100
(0946688492.447679) can0 00000103#0101010101010101
(0946688492.450791) can0 00000001#ECFF0000E8FF0000
(0946688492.451090) can0 00000002#30FC000000000100
(0946688492.457666) can0 00000103#0101010101010101
(0946688492.460895) can0 00000001#ECFF0000EAFF0000
(0946688492.461205) can0 00000002#31FC000000000100
(0946688492.467688) can0 00000103#0101010101010101
(0946688492.470968) can0 00000001#E9FF0000EBFF0000
(0946688492.471265) can0 00000002#2FFC000000000100
(0946688492.477678) can0 00000103#0101010101010101
(0946688492.481082) can0 00000001#ECFF0000EBFF0000
(0946688492.481376) can0 00000002#30FC000000000200
(0946688492.487676) can0 00000103#0101010101010101
(0946688492.491194) can0 00000001#ECFF0000EDFF0000
(0946688492.491498) can0 00000002#2EFC000000000200
(0946688492.497667) can0 00000103#0101010101010101
(0946688492.501290) can0 00000001#EBFF0000EEFF0000
(0946688492.501585) can0 00000002#2FFC000000000100
(0946688492.507674) can0 00000103#0101010101010101
(0946688492.511393) can0 00000001#EBFF0000EFFF0000
(0946688492.511695) can0 00000002#2EFC000000000100
(0946688492.517690) can0 00000103#0101010101010101
(0946688492.521479) can0 00000001#ECFF0000F0FF0000
(0946688492.521778) can0 00000002#2EFC000000000100
(0946688492.527214) can0 19B50000#0004000000020060
(0946688492.527663) can0 00000103#0101010101010101
(0946688492.527980) can0 19B50007#0000002700000000
(0946688492.528516) can0 19B50001#C5CEC795BF000000
(0946688492.529121) can0 19B50002#7D7F7E0000000000
(0946688492.529685) can0 19B50003#0000000000000000
(0946688492.530266) can0 19B50008#7D7F7D0000000000
(0946688492.531264) can0 19B50500#FFFD03E800006464
(0946688492.531599) can0 00000001#EAFF0000F1FF0000
(0946688492.531881) can0 00000002#2EFC000000000100
(0946688492.532682) can0 19B50600#FFFF0CE099990000
(0946688492.533237) can0 19B50009#C5CEC7000095BF00
(0946688492.535684) can0 18FF1515#0000000100010000
(0946688492.537679) can0 00000103#0101010101010101
(0946688492.541676) can0 00000001#ECFF0000F3FF0000
(0946688492.541957) can0 00000002#2DFC000000000100
(0946688492.547678) can0 00000103#0101010101010101
(0946688492.551771) can0 00000001#EAFF0000F4FF0000
(0946688492.552076) can0 00000002#2DFC000000000100
(0946688492.557675) can0 00000103#0101010101010101
(0946688492.561914) can0 00000001#EBFF0000E6FF0000
(0946688492.562180) can0 00000002#2EFC000000000100
(0946688492.567717) can0 00000103#0101010101010101
(0946688492.571989) can0 00000001#EBFF0000E5FF0000
(0946688492.572257) can0 00000002#2FFC000000000000
(0946688492.577723) can0 00000103#0101010101010101
(0946688492.582055) can0 00000001#EBFF0000E5FF0000
(0946688492.582387) can0 00000002#2FFC000000000100
(0946688492.587718) can0 00000103#0101010101010101
(0946688492.592159) can0 00000001#ECFF0000E4FF0000
(0946688492.592439) can0 00000002#30FC000000000100
(0946688492.597709) can0 00000103#0101010101010101
(0946688492.602258) can0 00000001#ECFF0000E5FF0000
(0946688492.602572) can0 00000002#31FC000000000100
(0946688492.607676) can0 00000103#0101010101010101
(0946688492.612367) can0 00000001#ECFF0000E4FF0000
(0946688492.612635) can0 00000002#30FC000000000100
(0946688492.617725) can0 00000103#0101010101010101
(0946688492.622423) can0 00000001#EDFF0000E5FF0000
(0946688492.622706) can0 00000002#32FC000000000100
(0946688492.627742) can0 00000103#0101010101010101
(0946688492.632553) can0 00000001#EDFF0000E7FF0000
(0946688492.632838) can0 00000002#33FC0000FFFF0100
(0946688492.635743) can0 18FF1515#0000000100010000
(0946688492.637719) can0 00000103#0101010101010101
(0946688492.643430) can0 00000001#EDFF0000E7FF0000
(0946688492.643726) can0 00000002#32FC0000FFFF0100
(0946688492.647709) can0 00000103#0101010101010101
(0946688492.653545) can0 00000001#EDFF0000E9FF0000
(0946688492.653823) can0 00000002#32FC0000FFFF0100
(0946688492.657683) can0 00000103#0101010101010101
(0946688492.663643) can0 00000001#ECFF0000EAFF0000
(0946688492.663958) can0 00000002#31FC0000FFFF0100
(0946688492.667710) can0 00000103#0101010101010101
(0946688492.673778) can0 00000001#EBFF0000EFFF0000
(0946688492.674050) can0 00000002#2EFC0000FFFF0100
(0946688492.677693) can0 00000103#0101010101010101
(0946688492.683835) can0 00000001#EAFF0000EFFF0000
(0946688492.684148) can0 00000002#2DFC0000FFFF0100
(0946688492.687684) can0 00000103#0101010101010101
(0946688492.693940) can0 00000001#EBFF0000F0FF0000
(0946688492.694228) can0 00000002#2DFC0000FFFF0100
(0946688492.697708) can0 00000103#0101010101010101
(0946688492.704051) can0 00000001#ECFF0000F0FF0000
(0946688492.704333) can0 00000002#2CFC0000FFFF0100
(0946688492.707712) can0 00000103#0101010101010101
(0946688492.714145) can0 00000001#EBFF0000F0FF0000
(0946688492.714438) can0 00000002#2CFC0000FFFF0100
(0946688492.717308) can0 00000007#8703840094A40000
(0946688492.717695) can0 00000103#0101010101010101
(0946688492.724225) can0 00000001#EBFF0000F0FF0000
(0946688492.724507) can0 00000002#2BFC0000FFFF0100
(0946688492.727683) can0 00000103#0101010101010101
(0946688492.729732) can0 19B50000#0004000000020060
(0946688492.730564) can0 19B50007#0000002700000000
(0946688492.731125) can0 19B50001#C5CEC795BF000000
(0946688492.731702) can0 19B50002#7D7F7E0000000000
(0946688492.732269) can0 19B50003#0000000000000000
(0946688492.732861) can0 19B50008#7D7F7D0000000000
(0946688492.733691) can0 19B50500#FFFB03E800006464
(0946688492.734331) can0 00000001#ECFF0000F0FF0000
(0946688492.734635) can0 00000002#2CFC0000FFFF0100
(0946688492.734992) can0 19B50600#FFFF0CE099990000
(0946688492.735580) can0 19B50009#C5CEC7000095BF00
(0946688492.735867) can0 18FF1515#0000000100010000
(0946688492.737808) can0 00000103#0101010101010101
(0946688492.744456) can0 00000001#E8FF0000EBFF0000
(0946688492.744721) can0 00000002#31FC0000FFFF0100
(0946688492.747709) can0 00000103#0101010101010101
(0946688492.754525) can0 00000001#E8FF0000E9FF0000
(0946688492.754802) can0 00000002#30FC0000FFFF0100
(0946688492.757677) can0 00000103#0101010101010101
(0946688492.764624) can0 00000001#E9FF0000E9FF0000
(0946688492.764916) can0 00000002#31FC0000FFFF0100
(0946688492.767717) can0 00000103#0101010101010101
(0946688492.774762) can0 00000001#E9FF0000E9FF0000
(0946688492.775041) can0 00000002#30FC0000FFFF0100
(0946688492.777687) can0 00000103#0101010101010101
(0946688492.784860) can0 00000001#EAFF0000EAFF0000
(0946688492.785143) can0 00000002#31FC0000FFFF0100
(0946688492.787673) can0 00000103#0101010101010101
(0946688492.794944) can0 00000001#EAFF0000E8FF0000
(0946688492.795250) can0 00000002#2EFC0000FFFF0100
(0946688492.797678) can0 00000103#0101010101010101
(0946688492.805795) can0 00000001#EBFF0000E9FF0000
(0946688492.806100) can0 00000002#30FC0000FFFF0100
(0946688492.807709) can0 00000103#0101010101010101
(0946688492.815911) can0 00000001#E8FF0000E9FF0000
(0946688492.816171) can0 00000002#31FC0000FFFF0100
(0946688492.816623) can0 00000014#87FF
(0946688492.817230) can0 00000015#87007F7F7F7F7F7F
(0946688492.817713) can0 00000103#0101010101010101
(0946688492.825969) can0 00000001#ECFF0000EBFF0000
(0946688492.826255) can0 00000002#2CFC0000FFFF0100
(0946688492.827670) can0 00000103#0101010101010101
(0946688492.835661) can0 18FF1515#0000000100010000
(0946688492.836091) can0 00000001#EFFF0000EEFF0000
(0946688492.836375) can0 00000002#2FFC0000FFFF0100
(0946688492.837709) can0 00000103#0101010101010101
(0946688492.846221) can0 00000001#E7FF0000EBFF0000
(0946688492.846498) can0 00000002#2DFC0000FFFF0100
(0946688492.847713) can0 00000103#0101010101010101
(0946688492.856236) can0 00000001#EEFF0000F0FF0000
(0946688492.856557) can0 00000002#2DFC0000FFFF0100
(0946688492.857707) can0 00000103#0101010101010101
(0946688492.860542) can0 00000014#87FF
(0946688492.861017) can0 00000015#87067F7F7F7F7F7F
(0946688492.866379) can0 00000001#EBFF0000EBFF0000
(0946688492.866669) can0 00000002#33FC0000FFFF0100
(0946688492.867709) can0 00000103#0101010101010101
(0946688492.869224) can0 00000014#87FF
(0946688492.869646) can0 00000015#870C7F7F7F7F
(0946688492.875087) can0 00000018#87FF
(0946688492.875600) can0 00000019#87007D7D7D7D7D7D
(0946688492.876509) can0 00000001#EEFF0000EEFF0000
(0946688492.876793) can0 00000002#33FC0000FFFF0100
(0946688492.877699) can0 00000103#0101010101010101
(0946688492.879214) can0 00000018#87FF
(0946688492.879947) can0 00000019#87067D7D7D7D7D7D
(0946688492.885097) can0 00000018#87FF
(0946688492.885517) can0 00000019#870C7D7D7D7D
(0946688492.886546) can0 00000001#EBFF0000ECFF0000
(0946688492.886857) can0 00000002#2AFC0000FFFF0100
(0946688492.887690) can0 00000103#0101010101010101
(0946688492.889238) can0 0000001C#87FF
(0946688492.889726) can0 0000001D#87007F7F7F7F7F7F
(0946688492.895119) can0 0000001C#87FF
(0946688492.895587) can0 0000001D#87067F7F7F7F7F7F
(0946688492.896612) can0 00000001#EAFF0000EFFF0000
(0946688492.896934) can0 00000002#32FC0000FFFF0100
(0946688492.897716) can0 00000103#0101010101010101
(0946688492.899352) can0 0000001C#87FF
(0946688492.899811) can0 0000001D#870C7F7F7F7F
(0946688492.906716) can0 00000001#EFFF0000EBFF0000
(0946688492.906994) can0 00000002#2BFC0000FFFF0100
(0946688492.907707) can0 00000103#0101010101010101
(0946688492.916833) can0 00000001#ECFF0000ECFF0100
(0946688492.917101) can0 00000002#2BFC0000FFFF0100
(0946688492.917710) can0 00000103#0101010101010101
(0946688492.926915) can0 00000001#E7FF0000EDFF0100
(0946688492.927216) can0 00000002#2CFC0000FFFF0000
(0946688492.927713) can0 00000103#0101010101010101
(0946688492.930589) can0 19B50000#0004000000020060
(0946688492.931201) can0 19B50007#0000002700000000
(0946688492.931746) can0 19B50001#C5CEC795BF000000
(0946688492.932311) can0 19B50002#7D7F7E0000000000
(0946688492.932940) can0 19B50003#0000000000000000
(0946688492.933498) can0 19B50008#7D7F7D0000000000
(0946688492.934346) can0 19B50500#FFFC03E800006464
(0946688492.935395) can0 19B50600#FFFF0CE099990000
(0946688492.935689) can0 18FF1515#0000000100010000
(0946688492.936171) can0 19B50009#C5CEC7000095BF00
(0946688492.937012) can0 00000001#F0FF0000EBFF0100
(0946688492.937298) can0 00000002#29FC0000FFFF0000
(0946688492.937689) can0 00000103#0101010101010101
(0946688492.947124) can0 00000001#E9FF0000EAFF0100
(0946688492.947393) can0 00000002#2EFC0000FFFF0100
(0946688492.947715) can0 00000103#0101010101010101
(0946688492.957202) can0 00000001#E6FF0000EAFF0100
(0946688492.957488) can0 00000002#29FC0000FFFF0100
(0946688492.957739) can0 00000103#0101010101010101
(0946688492.967316) can0 00000001#ECFF0000EAFF0000
(0946688492.967583) can0 00000002#30FC0000FFFF0100
(0946688492.967881) can0 00000103#0101010101010101
(0946688492.974224) can0 00000007#8808C200CD
(0946688492.977393) can0 00000001#ECFF0000ECFF0000
(0946688492.977669) can0 00000002#2DFC0000FFFF0100
(0946688492.977955) can0 00000103#0101010101010101
(0946688492.987511) can0 00000001#F4FF0000ECFF0000
(0946688492.987782) can0 00000002#31FC0000FFFF0100
(0946688492.988059) can0 00000103#0101010101010101
(0946688492.997524) can0 00000001#F7FF0000EDFF0000
(0946688492.997830) can0 00000002#36FC0000FFFF0100
(0946688492.998120) can0 00000103#0101010101010101
(0946688493.007709) can0 00000103#0101010101010101
(0946688493.008258) can0 00000001#F7FF0000ECFF0000
(0946688493.008587) can0 00000002#39FC0000FEFF0000
(0946688493.017705) can0 00000103#0101010101010101
(0946688493.018365) can0 00000001#FAFF0000ECFF0000
(0946688493.018655) can0 00000002#39FC0000FEFF0000
(0946688493.027710) can0 00000103#0101010101010101
(0946688493.028472) can0 00000001#F2FF0000EAFF0000
(0946688493.028784) can0 00000002#3BFC0000FEFF0000
(0946688493.035697) can0 18FF1515#0000000100010000
(0946688493.037699) can0 00000103#0101010101010101
(0946688493.038556) can0 00000001#EDFF0000EAFF0000
(0946688493.038858) can0 00000002#36FC0000FEFF0000
(0946688493.047718) can0 00000103#0101010101010101
(0946688493.048724) can0 00000001#E9FF0000E8FF0000
(0946688493.049024) can0 00000002#36FC0000FEFF0000
(0946688493.057674) can0 00000103#0101010101010101
(0946688493.058797) can0 00000001#EAFF0000E9FF0000
(0946688493.059100) can0 00000002#31FC0000FEFF0100
(0946688493.067668) can0 00000103#0101010101010101
(0946688493.068918) can0 00000001#E7FF0000E8FF0100
(0946688493.069178) can0 00000002#29FC0000FEFF0100
(0946688493.073453) can0 00000008#88FF
(0946688493.073790) can0 00000009#88
(0946688493.077223) can0 0000000C#88FF
(0946688493.077706) can0 00000103#0101010101010101
(0946688493.077846) can0 0000000D#88
(0946688493.079040) can0 00000001#E4FF0000E7FF0100
(0946688493.079331) can0 00000002#29FC0000FEFF0100
(0946688493.082406) can0 00000010#88FF
(0946688493.082745) can0 00000011#88
(0946688493.086748) can0 00000014#88FF
(0946688493.087127) can0 00000015#88
(0946688493.087679) can0 00000103#0101010101010101
(0946688493.089128) can0 00000001#E1FF0000E7FF0100
(0946688493.089406) can0 00000002#25FC0000FEFF0100
(0946688493.090830) can0 00000018#88FF
(0946688493.091205) can0 00000019#88
(0946688493.097720) can0 00000103#0101010101010101
(0946688493.099227) can0 00000001#F1FF0000EFFF0000
(0946688493.099519) can0 00000002#3CFC0000FEFF0100
(0946688493.107719) can0 00000103#0101010101010101
(0946688493.107894) can0 0000001C#88FF
(0946688493.108227) can0 0000001D#88
(0946688493.109296) can0 00000001#F0FF0000EFFF0000
(0946688493.109588) can0 00000002#3AFC0000FFFF0100
(0946688493.117721) can0 00000103#0101010101010101
(0946688493.119385) can0 00000001#EFFF0000EFFF0000
(0946688493.119677) can0 00000002#39FC0000FFFF0100
(0946688493.126540) can0 19B50000#0004000000020060
(0946688493.127139) can0 19B50007#0000002700000000
(0946688493.127747) can0 00000103#0101010101010101
(0946688493.127966) can0 19B50001#C5CEC795BF000000
(0946688493.128444) can0 19B50002#7D7F7E0000000000
(0946688493.129050) can0 19B50003#0000000000000000
(0946688493.129509) can0 00000001#EFFF0000EEFF0000
(0946688493.129835) can0 00000002#35FC0000FEFF0000
(0946688493.130095) can0 19B50008#7D7F7D0000000000
(0946688493.130918) can0 19B50500#FFFD03E800006464
(0946688493.132009) can0 19B50600#FFFF0CE099990000
(0946688493.132599) can0 19B50009#C5CEC7000095BF00
(0946688493.135666) can0 18FF1515#0000000100010000
(0946688493.137697) can0 00000103#0101010101010101
(0946688493.139570) can0 00000001#EEFF0000EEFF0000
(0946688493.139888) can0 00000002#31FC0000FEFF0000
(0946688493.147685) can0 00000103#0101010101010101
(0946688493.149679) can0 00000001#ECFF0000ECFF0000
(0946688493.149983) can0 00000002#2EFC0000FEFF0000
(0946688493.157714) can0 00000103#0101010101010101
(0946688493.159796) can0 00000001#EBFF0000EBFF0000
(0946688493.160091) can0 00000002#27FC0000FEFF0000
(0946688493.167710) can0 00000103#0101010101010101
(0946688493.169877) can0 00000001#EBFF0000EBFF0000
(0946688493.170152) can0 00000002#27FC0000FEFF0100
(0946688493.177689) can0 00000103#0101010101010101
(0946688493.179953) can0 00000001#E9FF0000EAFF0000
(0946688493.180249) can0 00000002#25FC0000FEFF0100
(0946688493.184094) can0 00000007#8908C30000
(0946688493.187733) can0 00000103#0101010101010101
(0946688493.190895) can0 00000001#E8FF0000EAFF0000
(0946688493.191220) can0 00000002#23FC0000FFFF0100
(0946688493.197721) can0 00000103#0101010101010101
(0946688493.200987) can0 00000001#E6FF0000EAFF0000
(0946688493.201292) can0 00000002#25FC0000FFFF0100
(0946688493.207683) can0 00000103#0101010101010101
(0946688493.211079) can0 00000001#E6FF0000EAFF0000
(0946688493.211410) can0 00000002#2AFC0000FFFF0100
(0946688493.217709) can0 00000103#0101010101010101
(0946688493.221183) can0 00000001#E9FF0000EAFF0100
(0946688493.221456) can0 00000002#2CFC0000FFFF0100
(0946688493.227711) can0 00000103#0101010101010101
(0946688493.231245) can0 00000001#EAFF0000EAFF0100
(0946688493.231612) can0 00000002#30FC0000FFFF0100
(0946688493.235656) can0 18FF1515#0000000100010000
(0946688493.237700) can0 00000103#0101010101010101
(0946688493.241384) can0 00000001#E9FF0000EBFF0100
(0946688493.241684) can0 00000002#31FC0000FFFF0100
(0946688493.247689) can0 00000103#0101010101010101
(0946688493.251507) can0 00000001#ECFF0000EBFF0100
(0946688493.251810) can0 00000002#34FC0000FFFF0100
(0946688493.257715) can0 00000103#0101010101010101
(0946688493.261586) can0 00000001#ECFF0000ECFF0100
(0946688493.261882) can0 00000002#36FC0000FFFF0100
(0946688493.267709) can0 00000103#0101010101010101
(0946688493.271666) can0 00000001#EAFF0000EBFF0000
(0946688493.271966) can0 00000002#28FC0000FFFF0100
(0946688493.277675) can0 00000103#0101010101010101
(0946688493.281739) can0 00000001#EAFF0000EBFF0000
(0946688493.282040) can0 00000002#28FC0000FEFF0000
(0946688493.283623) can0 00000008#89FF
(0946688493.284009) can0 00000009#89
(0946688493.287701) can0 00000103#0101010101010101
(0946688493.291818) can0 00000001#E8FF0000EAFF0000
(0946688493.292123) can0 00000002#29FC0000FEFF0100
(0946688493.297723) can0 00000103#0101010101010101
(0946688493.298654) can0 0000000C#89FF
(0946688493.299042) can0 0000000D#89
(0946688493.301909) can0 00000001#E7FF0000EAFF0000
(0946688493.302201) can0 00000002#2AFC0000FEFF0100
(0946688493.304788) can0 00000010#89FF
(0946688493.305143) can0 00000011#89
(0946688493.307682) can0 00000103#0101010101010101
(0946688493.308902) can0 00000014#89FF
(0946688493.309226) can0 00000015#89
(0946688493.312065) can0 00000001#E8FF0000E9FF0000
(0946688493.312343) can0 00000002#2BFC0000FEFF0100
(0946688493.314417) can0 00000018#89FF
(0946688493.314761) can0 00000019#89
(0946688493.317677) can0 00000103#0101010101010101
(0946688493.318416) can0 0000001C#89FF
(0946688493.318796) can0 0000001D#89
(0946688493.322105) can0 00000001#E8FF0000E9FF0000
(0946688493.322399) can0 00000002#2CFC0000FEFF0100
(0946688493.327674) can0 00000103#0101010101010101
(0946688493.329087) can0 19B50000#0004000000020060
(0946688493.329876) can0 19B50007#0000002700000000
(0946688493.330448) can0 19B50001#C5CEC795BF000000
(0946688493.331056) can0 19B50002#7D7F7E0000000000
(0946688493.331665) can0 19B50003#0000000000000000
(0946688493.332213) can0 00000001#E9FF0000E9FF0000
(0946688493.332509) can0 00000002#2EFC0000FEFF0100
(0946688493.332797) can0 19B50008#7D7F7D0000000000
(0946688493.333445) can0 19B50500#FFFC03E800006464
(0946688493.334485) can0 19B50600#FFFF0CE099990000
(0946688493.335094) can0 19B50009#C5CEC7000095BF00
(0946688493.335682) can0 18FF1515#0000000100010000
(0946688493.337712) can0 00000103#0101010101010101
(0946688493.342337) can0 00000001#EBFF0000E8FF0000
(0946688493.342585) can0 00000002#31FC0000FEFF0100
(0946688493.347692) can0 00000103#0101010101010101
(0946688493.352382) can0 00000001#EBFF0000E8FF0000
(0946688493.352682) can0 00000002#31FC0000FEFF0100
(0946688493.357682) can0 00000103#0101010101010101
(0946688493.362497) can0 00000001#F0FF0000EAFF0000
(0946688493.363333) can0 00000002#34FC0000FEFF0100
(0946688493.367709) can0 00000103#0101010101010101
(0946688493.372581) can0 00000001#F0FF0000EBFF0000
(0946688493.372883) can0 00000002#37FC0000FEFF0100
(0946688493.377727) can0 00000103#0101010101010101
(0946688493.382664) can0 00000001#EEFF0000ECFF0000
(0946688493.382954) can0 00000002#36FC0000FEFF0100
(0946688493.383217) can0 00000007#8A08C5009B
(0946688493.387709) can0 00000103#0101010101010101
(0946688493.393567) can0 00000001#F0FF0000EEFF0000
(0946688493.393858) can0 00000002#32FC0000FEFF0100
(0946688493.397713) can0 00000103#0101010101010101
(0946688493.403643) can0 00000001#EEFF0000ECFF0000
(0946688493.403944) can0 00000002#35FC0000FEFF0100
(0946688493.407685) can0 00000103#0101010101010101
(0946688493.413728) can0 00000001#EEFF0000EDFF0000
(0946688493.414021) can0 00000002#32FC0000FEFF0100
(0946688493.417709) can0 00000103#0101010101010101
(0946688493.423835) can0 00000001#ECFF0000EFFF0000
(0946688493.424109) can0 00000002#2CFC0000FEFF0100
(0946688493.427707) can0 00000103#0101010101010101
(0946688493.433915) can0 00000001#EAFF0000EDFF0000
(0946688493.434219) can0 00000002#2FFC0000FEFF0100
(0946688493.435665) can0 18FF1515#0000000100010000
(0946688493.437712) can0 00000103#0101010101010101
(0946688493.444039) can0 00000001#EAFF0000EEFF0000
(0946688493.444338) can0 00000002#2BFC0000FEFF0100
(0946688493.447715) can0 00000103#0101010101010101
(0946688493.454117) can0 00000001#EDFF0000EBFF0100
(0946688493.454430) can0 00000002#30FC0000FEFF0100
(0946688493.457717) can0 00000103#0101010101010101
(0946688493.464213) can0 00000001#EEFF0000EBFF0100
(0946688493.464496) can0 00000002#30FC0000FEFF0100
(0946688493.467675) can0 00000103#0101010101010101
(0946688493.474289) can0 00000001#EEFF0000EBFF0100
(0946688493.474578) can0 00000002#33FC0000FEFF0100
(0946688493.477712) can0 00000103#0101010101010101
(0946688493.484374) can0 00000001#EFFF0000EBFF0000
(0946688493.484685) can0 00000002#32FC0000FEFF0100
(0946688493.487706) can0 00000103#0101010101010101
(0946688493.490673) can0 00000008#8AFF
(0946688493.491228) can0 00000009#8A
(0946688493.494484) can0 00000001#EFFF0000EBFF0000
(0946688493.494793) can0 00000002#34FC0000FEFF0100
(0946688493.495691) can0 0000000C#8AFF
(0946688493.496049) can0 0000000D#8A
(0946688493.497689) can0 00000103#0101010101010101
(0946688493.499904) can0 00000010#8AFF
(0946688493.500255) can0 00000011#8A
(0946688493.504594) can0 00000001#F0FF0000EBFF0000
(0946688493.504902) can0 00000002#35FC0000FEFF0100
(0946688493.505069) can0 00000014#8AFF
(0946688493.505420) can0 00000015#8A
(0946688493.507724) can0 00000103#0101010101010101
(0946688493.509474) can0 00000018#8AFF
(0946688493.509859) can0 00000019#8A
(0946688493.514422) can0 0000001C#8AFF
(0946688493.514713) can0 00000001#F0FF0000ECFF0000
(0946688493.515030) can0 00000002#34FC0000FEFF0100
(0946688493.517702) can0 00000103#0101010101010101
(0946688493.524758) can0 00000001#F0FF0000EBFF0000
(0946688493.525056) can0 00000002#35FC0000FEFF0100
(0946688493.527677) can0 00000103#0101010101010101
(0946688493.527979) can0 19B50000#0004000000020060
(0946688493.528678) can0 19B50007#0000002700000000
(0946688493.529468) can0 19B50001#C5CEC795BF000000
(0946688493.530101) can0 19B50002#7D7F7E0000000000
(0946688493.530668) can0 19B50003#0000000000000000
(0946688493.531248) can0 19B50008#7D7F7D0000000000
(0946688493.532099) can0 19B50500#FFFB03E800006464
(0946688493.533191) can0 19B50600#FFFF0CE099990000
(0946688493.533753) can0 19B50009#C5CEC7000095BF00
(0946688493.534874) can0 00000001#F1FF0000ECFF0000
(0946688493.535145) can0 00000002#34FC0000FEFF0100
(0946688493.535673) can0 18FF1515#0000000100010000
(0946688493.537709) can0 00000103#0101010101010101
(0946688493.544969) can0 00000001#F1FF0000EBFF0000
(0946688493.545246) can0 00000002#33FC0000FEFF0100
(0946688493.547693) can0 00000103#0101010101010101
(0946688493.555796) can0 00000001#EDFF0000EBFF0000
(0946688493.556099) can0 00000002#2DFC0000FEFF0100
(0946688493.557681) can0 00000103#0101010101010101
(0946688493.565903) can0 00000001#EDFF0000EBFF0000
(0946688493.566192) can0 00000002#2DFC0000FDFF0100
(0946688493.567700) can0 00000103#0101010101010101
(0946688493.576000) can0 00000001#EBFF0000EBFF0000
(0946688493.576261) can0 00000002#2BFC0000FDFF0100
(0946688493.577684) can0 00000103#0101010101010101
(0946688493.586091) can0 00000001#EAFF0000ECFF0000
(0946688493.586362) can0 00000002#2BFC0000FDFF0100
(0946688493.587710) can0 00000103#0101010101010101
(0946688493.596169) can0 00000001#EAFF0000ECFF0000
(0946688493.596458) can0 00000002#2AFC0000FDFF0100
(0946688493.597690) can0 00000103#0101010101010101
(0946688493.606238) can0 00000001#E9FF0000ECFF0000
(0946688493.606568) can0 00000002#2AFC0000FDFF0100
(0946688493.607684) can0 00000103#0101010101010101
(0946688493.616339) can0 00000001#EAFF0000EDFF0000
(0946688493.616631) can0 00000002#2BFC0000FEFF0100
(0946688493.617683) can0 00000103#0101010101010101
(0946688493.626424) can0 00000001#E9FF0000EDFF0000
(0946688493.626718) can0 00000002#2BFC0000FEFF0100
(0946688493.627677) can0 00000103#0101010101010101
(0946688493.635703) can0 18FF1515#0000000100010000
(0946688493.636541) can0 00000001#F0FF0000EEFF0000
(0946688493.636833) can0 00000002#33FC0000FEFF0100
(0946688493.637722) can0 00000103#0101010101010101
(0946688493.646620) can0 00000001#F1FF0000EEFF0000
(0946688493.646902) can0 00000002#31FC0000FEFF0100
(0946688493.647666) can0 00000103#0101010101010101
(0946688493.656693) can0 00000001#F2FF0000EDFF0000
(0946688493.656999) can0 00000002#31FC0000FEFF0100
(0946688493.657702) can0 00000103#0101010101010101
(0946688493.666801) can0 00000001#F2FF0000ECFF0000
(0946688493.667109) can0 00000002#2FFC0000FDFF0100
(0946688493.667677) can0 00000103#0101010101010101
(0946688493.676896) can0 00000001#F0FF0000EAFF0000
(0946688493.677190) can0 00000002#2EFC0000FDFF0100
(0946688493.677722) can0 00000103#0101010101010101
(0946688493.687006) can0 00000001#EFFF0000E9FF0000
(0946688493.687312) can0 00000002#2DFC0000FDFF0100
(0946688493.687710) can0 00000103#0101010101010101
(0946688493.697133) can0 00000001#ECFF0000E8FF0000
(0946688493.697433) can0 00000002#2DFC0000FDFF0100
(0946688493.697705) can0 00000103#0101010101010101
(0946688493.707206) can0 00000001#EBFF0000E8FF0000
(0946688493.707509) can0 00000002#2DFC0000FDFF0100
(0946688493.707759) can0 00000103#0101010101010101
(0946688493.717262) can0 00000001#EAFF0000E8FF0000
(0946688493.717586) can0 00000002#2EFC0000FDFF0100
(0946688493.717856) can0 00000103#0101010101010101
(0946688493.726677) can0 19B50000#0004000000020060
(0946688493.727266) can0 19B50007#0000002700000000
(0946688493.727545) can0 00000001#EAFF0000E9FF0000
(0946688493.727804) can0 00000002#2EFC0000FDFF0100
(0946688493.728097) can0 00000103#0101010101010101
(0946688493.728396) can0 19B50001#C5CEC795BF000000
(0946688493.729158) can0 19B50002#7D7F7E0000000000
(0946688493.729763) can0 19B50003#0000000000000000
(0946688493.730343) can0 19B50008#7D7F7D0000000000
(0946688493.731196) can0 19B50500#FFFC03E800006464
(0946688493.732192) can0 19B50600#FFFF0CE099990000
(0946688493.732849) can0 19B50009#C5CEC7000095BF00
(0946688493.735671) can0 18FF1515#0000000100010000
(0946688493.737532) can0 00000001#EAFF0000EBFF0000
(0946688493.737798) can0 00000103#0101010101010101
(0946688493.738626) can0 00000002#2EFC0000FDFF0100
(0946688493.747709) can0 00000103#0101010101010101
(0946688493.748459) can0 00000001#ECFF0000ECFF0000
(0946688493.748744) can0 00000002#2DFC0000FDFF0100
(0946688493.757715) can0 00000103#0101010101010101
(0946688493.758567) can0 00000001#EBFF0000EDFF0000
(0946688493.758864) can0 00000002#2EFC0000FDFF0100
(0946688493.767717) can0 00000103#0101010101010101
(0946688493.768719) can0 00000001#EBFF0000EDFF0000
(0946688493.769028) can0 00000002#2DFC0000FDFF0100
(0946688493.777692) can0 00000103#0101010101010101
(0946688493.778796) can0 00000001#ECFF0000EEFF0000
(0946688493.779076) can0 00000002#2EFC0000FDFF0100
(0946688493.787718) can0 00000103#0101010101010101
(0946688493.788906) can0 00000001#ECFF0000EEFF0000
(0946688493.789210) can0 00000002#2EFC0000FDFF0100
(0946688493.797714) can0 00000103#0101010101010101
(0946688493.798999) can0 00000001#ECFF0000EEFF0000
(0946688493.799286) can0 00000002#2FFC0000FDFF0100
(0946688493.807682) can0 00000103#0101010101010101
(0946688493.809080) can0 00000001#EFFF0000EAFF0000
(0946688493.809381) can0 00000002#30FC0000FDFF0100
(0946688493.817719) can0 00000103#0101010101010101
(0946688493.819217) can0 00000001#EFFF0000EBFF0000
(0946688493.819499) can0 00000002#2EFC0000FDFF0100
(0946688493.827716) can0 00000103#0101010101010101
(0946688493.829296) can0 00000001#EFFF0000EBFF0000
(0946688493.829587) can0 00000002#2EFC0000FDFF0100
(0946688493.835668) can0 18FF1515#0000000100010000
(0946688493.837716) can0 00000103#0101010101010101
(0946688493.839428) can0 00000001#EFFF0000ECFF0000
(0946688493.839725) can0 00000002#2DFC0000FDFF0100
(0946688493.847711) can0 00000103#0101010101010101
(0946688493.849512) can0 00000001#EDFF0000ECFF0000
(0946688493.849839) can0 00000002#2FFC0000FDFF0100
(0946688493.857699) can0 00000103#0101010101010101
(0946688493.859574) can0 00000001#ECFF0000EDFF0000
(0946688493.859899) can0 00000002#2EFC0000FDFF0100
(0946688493.867688) can0 00000103#0101010101010101
(0946688493.869721) can0 00000001#EBFF0000EEFF0000
(0946688493.870030) can0 00000002#2EFC0000FDFF0100
(0946688493.877717) can0 00000103#0101010101010101
(0946688493.879795) can0 00000001#EAFF0000EEFF0000
(0946688493.880116) can0 00000002#2EFC0000FDFF0100
(0946688493.887690) can0 00000103#0101010101010101
(0946688493.889900) can0 00000001#EAFF0000EEFF0000
(0946688493.890223) can0 00000002#2EFC0000FDFF0100
(0946688493.897703) can0 00000103#0101010101010101
(0946688493.900010) can0 00000001#EBFF0000EEFF0000
(0946688493.900974) can0 00000002#2EFC0000FDFF0100
(0946688493.907687) can0 00000103#0101010101010101
(0946688493.910861) can0 00000001#EDFF0000EDFF0000
(0946688493.911181) can0 00000002#2FFC0000FDFF0100
(0946688493.917681) can0 00000103#0101010101010101
(0946688493.920948) can0 00000001#EDFF0000EDFF0000
(0946688493.921235) can0 00000002#2EFC0000FDFF0100
(0946688493.924343) can0 19B50000#0004000000020060
(0946688493.924897) can0 19B50007#0000002700000000
(0946688493.925510) can0 19B50001#C5CEC795BF000000
(0946688493.926091) can0 19B50002#7D7F7E0000000000
(0946688493.926657) can0 19B50003#0000000000000000
(0946688493.927245) can0 19B50008#7D7F7D0000000000
(0946688493.927718) can0 00000103#0101010101010101
(0946688493.928299) can0 19B50500#FFFD03E800006464
(0946688493.929605) can0 19B50600#FFFF0CE099990000
(0946688493.930154) can0 19B50009#C5CEC7000095BF00
(0946688493.931017) can0 00000001#EDFF0000ECFF0000
(0946688493.931340) can0 00000002#2FFC0000FDFF0100
(0946688493.935646) can0 18FF1515#0000000100010000
(0946688493.937711) can0 00000103#0101010101010101
(0946688493.941228) can0 00000001#EEFF0000EBFF0000
(0946688493.941514) can0 00000002#2FFC0000FDFF0100
(0946688493.947713) can0 00000103#0101010101010101
(0946688493.951334) can0 00000001#ECFF0000EAFF0000
(0946688493.951615) can0 00000002#30FC0000FDFF0100
(0946688493.957694) can0 00000103#0101010101010101
(0946688493.961407) can0 00000001#ECFF0000EAFF0000
(0946688493.961727) can0 00000002#30FC0000FDFF0100
