(0946688466.259200) can0 00000103#0101010101010101
(0946688466.266749) can0 19B5080B#FFFFFFFFFFFFFFFF
(0946688466.269185) can0 00000103#0101010101010101
(0946688466.274917) can0 00000007#B603810091A10000
(0946688466.279198) can0 00000103#0101010101010101
(0946688466.289218) can0 00000103#0101010101010101
(0946688466.299192) can0 00000103#0101010101010101
(0946688466.309192) can0 00000103#0101010101010101
(0946688466.319219) can0 00000103#0101010101010101
(0946688466.329232) can0 00000103#0101010101010101
(0946688466.335582) can0 18FF1515#0000000100010000
(0946688466.339247) can0 00000103#0101010101010101
(0946688466.349215) can0 00000103#0101010101010101
(0946688466.359194) can0 00000103#0101010101010101
(0946688466.369192) can0 00000103#0101010101010101
(0946688466.378714) can0 19B50000#0004000000010060
(0946688466.379232) can0 00000103#0101010101010101
(0946688466.379491) can0 19B50007#0000002700000000
(0946688466.380236) can0 19B50001#C2C7C494A0000000
(0946688466.380814) can0 19B50002#7D7F7E0000000000
(0946688466.381443) can0 19B50003#0000000000000000
(0946688466.382010) can0 19B50008#7D7E7D0000000000
(0946688466.382892) can0 19B50500#FFFA03E800006464
(0946688466.383973) can0 19B50600#FFFF0CE099990000
(0946688466.384535) can0 19B50009#C2C7C4000094A000
(0946688466.386415) can0 00000008#B6FF
(0946688466.386914) can0 00000009#B600C5C4C4C4C5C4
(0946688466.389215) can0 00000103#0101010101010101
(0946688466.390926) can0 00000008#B6FF
(0946688466.391415) can0 00000009#B606C4C4C4C4C5C4
(0946688466.395996) can0 00000008#B6FF
(0946688466.396469) can0 00000009#B60CC4C4C4C4
(0946688466.399213) can0 00000103#0101010101010101
(0946688466.400053) can0 0000000C#B6FF
(0946688466.400512) can0 0000000D#B600C4C4C4C4C4C6
(0946688466.405156) can0 0000000C#B6FF
(0946688466.405672) can0 0000000D#B606C4C4C4C5C4C4
(0946688466.408791) can0 0000000C#B6FF
(0946688466.409239) can0 00000103#0101010101010101
(0946688466.409536) can0 0000000D#B60CC5C4C4C4
(0946688466.419226) can0 00000103#0101010101010101
(0946688466.429218) can0 00000103#0101010101010101
(0946688466.435620) can0 18FF1515#0000000100010000
(0946688466.439195) can0 00000103#0101010101010101
(0946688466.449188) can0 00000103#0101010101010101
(0946688466.459200) can0 00000103#0101010101010101
(0946688466.469192) can0 00000103#0101010101010101
(0946688466.479203) can0 00000103#0101010101010101
(0946688466.489183) can0 00000103#0101010101010101
(0946688466.499253) can0 00000103#0101010101010101
(0946688466.509192) can0 00000103#0101010101010101
(0946688466.519206) can0 00000103#0101010101010101
(0946688466.529181) can0 00000103#0101010101010101
(0946688466.535569) can0 18FF1515#0000000100010000
(0946688466.539184) can0 00000103#0101010101010101
(0946688466.549215) can0 00000103#0101010101010101
(0946688466.559182) can0 00000103#0101010101010101
(0946688466.569200) can0 00000103#0101010101010101
(0946688466.576792) can0 19B50000#0004000000010060
(0946688466.577368) can0 19B50007#0000002700000000
(0946688466.577988) can0 19B50001#C2C7C494A0000000
(0946688466.578541) can0 19B50002#7D7F7E0000000000
(0946688466.579179) can0 19B50003#0000000000000000
(0946688466.579404) can0 00000103#0101010101010101
(0946688466.580053) can0 19B50008#7D7E7D0000000000
(0946688466.580894) can0 19B50500#FFFA03E800006464
(0946688466.582012) can0 19B50600#FFFF0CE099990000
(0946688466.582590) can0 19B50009#C2C7C4000094A000
(0946688466.589260) can0 00000103#0101010101010101
(0946688466.599268) can0 00000103#0101010101010101
(0946688466.609244) can0 00000103#0101010101010101
(0946688466.619237) can0 00000103#0101010101010101
(0946688466.629269) can0 00000103#0101010101010101
(0946688466.635591) can0 18FF1515#0000000100010000
(0946688466.639260) can0 00000103#0101010101010101
(0946688466.649248) can0 00000103#0101010101010101
(0946688466.659250) can0 00000103#0101010101010101
(0946688466.669287) can0 00000103#0101010101010101
(0946688466.679287) can0 00000103#0101010101010101
(0946688466.689225) can0 00000103#0101010101010101
(0946688466.699239) can0 00000103#0101010101010101
(0946688466.709194) can0 00000103#0101010101010101
(0946688466.719194) can0 00000103#0101010101010101
(0946688466.729254) can0 00000103#0101010101010101
(0946688466.735584) can0 18FF1515#0000000100010000
(0946688466.739201) can0 00000103#0101010101010101
(0946688466.749208) can0 00000103#0101010101010101
(0946688466.759195) can0 00000103#0101010101010101
(0946688466.769199) can0 00000103#0101010101010101
(0946688466.776197) can0 19B50000#0004000000010060
(0946688466.776782) can0 19B50007#0000002700000000
(0946688466.777333) can0 19B50001#C2C7C494A0000000
(0946688466.777943) can0 19B50002#7D7F7E0000000000
(0946688466.778541) can0 19B50003#0000000000000000
(0946688466.779248) can0 00000103#0101010101010101
(0946688466.779543) can0 19B50008#7D7E7D0000000000
(0946688466.780335) can0 19B50500#FFFA03E800006464
(0946688466.781456) can0 19B50600#FFFF0CE099990000
(0946688466.782016) can0 19B50009#C2C7C4000094A000
(0946688466.789217) can0 00000103#0101010101010101
(0946688466.799194) can0 00000103#0101010101010101
(0946688466.809215) can0 00000103#0101010101010101
(0946688466.819220) can0 00000103#0101010101010101
(0946688466.829184) can0 00000103#0101010101010101
(0946688466.835591) can0 18FF1515#0000000100010000
(0946688466.839184) can0 00000103#0101010101010101
(0946688466.849215) can0 00000103#0101010101010101
(0946688466.859188) can0 00000103#0101010101010101
(0946688466.869192) can0 00000103#0101010101010101
(0946688466.879199) can0 00000103#0101010101010101
(0946688466.889182) can0 00000103#0101010101010101
(0946688466.899190) can0 00000103#0101010101010101
(0946688466.901183) can0 00000007#B703810091A10000
(0946688466.909168) can0 00000103#0101010101010101
(0946688466.919179) can0 00000103#0101010101010101
(0946688466.929172) can0 00000103#0101010101010101
(0946688466.935589) can0 18FF1515#0000000100010000
(0946688466.939186) can0 00000103#0101010101010101
(0946688466.949182) can0 00000103#0101010101010101
(0946688466.959212) can0 00000103#0101010101010101
(0946688466.969209) can0 00000103#0101010101010101
(0946688466.977895) can0 19B50000#0004000000010060
(0946688466.978458) can0 19B50007#0000002700000000
(0946688466.979197) can0 00000103#0101010101010101
(0946688466.979473) can0 19B50001#C2C7C494A0000000
(0946688466.980025) can0 19B50002#7D7F7E0000000000
(0946688466.980585) can0 19B50003#0000000000000000
(0946688466.981239) can0 19B50008#7D7E7D0000000000
(0946688466.982063) can0 19B50500#FFFA03E800006464
(0946688466.983116) can0 19B50600#FFFF0CE099990000
(0946688466.983749) can0 19B50009#C2C7C4000094A000
(0946688466.989183) can0 00000103#0101010101010101
(0946688466.999188) can0 00000103#0101010101010101
(0946688467.002514) can0 0000000C#B7FF
(0946688467.002966) can0 0000000D#B700C4C4C4C4C4C6
(0946688467.004444) can0 0000000C#B7FF
(0946688467.004926) can0 0000000D#B706C4C4C4C5C4C4
(0946688467.008046) can0 0000000C#B7FF
(0946688467.008476) can0 0000000D#B70CC5C4C4C4
(0946688467.009191) can0 00000103#0101010101010101
(0946688467.012890) can0 00000010#B7FF
(0946688467.013356) can0 00000011#B700C4C4C4C5C5C5
(0946688467.017242) can0 00000010#B7FF
(0946688467.018040) can0 00000011#B706C4C5C5C4C4C4
(0946688467.019216) can0 00000103#0101010101010101
(0946688467.022145) can0 00000010#B7FF
(0946688467.022557) can0 00000011#B70CC5C5C4C4
(0946688467.029192) can0 00000103#0101010101010101
(0946688467.035563) can0 18FF1515#0000000100010000
(0946688467.037930) can0 00000014#B7FF
(0946688467.038408) can0 00000015#B700C4C5C4C5C5C4
(0946688467.039238) can0 00000103#0101010101010101
(0946688467.043665) can0 00000014#B7FF
(0946688467.044179) can0 00000015#B706C5C4C5C5C5C5
(0946688467.047596) can0 00000014#B7FF
(0946688467.048219) can0 00000015#B70CC5C4C5C4
(0946688467.049218) can0 00000103#0101010101010101
(0946688467.052482) can0 00000018#B7FF
(0946688467.052970) can0 00000019#B700C2C4C4C4C5C5
(0946688467.059179) can0 00000018#B7FF
(0946688467.059438) can0 00000103#0101010101010101
(0946688467.059729) can0 00000019#B706C4C4C5C4C4C5
(0946688467.064472) can0 00000018#B7FF
(0946688467.064906) can0 00000019#B70CC4C4C4C4
(0946688467.068166) can0 0000001C#B7FF
(0946688467.068658) can0 0000001D#B700C4C5C4C4C5C5
(0946688467.069302) can0 00000103#0101010101010101
(0946688467.073414) can0 0000001C#B7FF
(0946688467.073911) can0 0000001D#B706C4C4C4C4C4C7
(0946688467.077774) can0 0000001C#B7FF
(0946688467.078210) can0 0000001D#B70CC6C4C4C4
(0946688467.079251) can0 00000103#0101010101010101
(0946688467.089269) can0 00000103#0101010101010101
(0946688467.099261) can0 00000103#0101010101010101
(0946688467.109256) can0 00000103#0101010101010101
(0946688467.119265) can0 00000103#0101010101010101
(0946688467.129243) can0 00000103#0101010101010101
(0946688467.135561) can0 18FF1515#0000000100010000
(0946688467.139246) can0 00000103#0101010101010101
(0946688467.139436) can0 19B50100#00
(0946688467.139895) can0 19B50100#C5C4C4C4C5C4C4C4
(0946688467.149216) can0 00000103#0101010101010101
(0946688467.152993) can0 19B50101#C4C4C5C4C4C4C4C4
(0946688467.159229) can0 00000103#0101010101010101
(0946688467.169264) can0 00000103#0101010101010101
(0946688467.179260) can0 00000103#0101010101010101
(0946688467.180595) can0 19B50102#C4C4C4C4C4C6C4C4
(0946688467.189236) can0 00000103#0101010101010101
(0946688467.190202) can0 19B50000#0004000000010060
(0946688467.190795) can0 19B50007#0000002700000000
(0946688467.191452) can0 19B50001#C2C7C494A2000000
(0946688467.192018) can0 19B50002#7D7F7E0000000000
(0946688467.192595) can0 19B50003#0000000000000000
(0946688467.193204) can0 19B50008#7D7E7D0000000000
(0946688467.193983) can0 19B50500#FFFC03E800006464
(0946688467.195087) can0 19B50600#FFFF0CE099990000
(0946688467.195669) can0 19B50009#C2C7C4000094A200
(0946688467.199236) can0 00000103#0101010101010101
(0946688467.207053) can0 19B50103#C4C5C4C4C5C4C4C4
(0946688467.209216) can0 00000103#0101010101010101
(0946688467.219265) can0 00000103#0101010101010101
(0946688467.220348) can0 19B50104#C4C4C4C5C5C5C4C5
(0946688467.229289) can0 00000103#0101010101010101
(0946688467.233240) can0 19B50105#C5C4C4C4C5C5C4C4
(0946688467.235573) can0 18FF1515#0000000100010000
(0946688467.239256) can0 00000103#0101010101010101
(0946688467.247428) can0 19B50106#C4C5C4C5C5C4C5C4
(0946688467.249239) can0 00000103#0101010101010101
(0946688467.259258) can0 00000103#0101010101010101
(0946688467.260916) can0 19B50107#C5C5C5C5C5C4C5C4
(0946688467.269220) can0 00000103#0101010101010101
(0946688467.279214) can0 00000103#0101010101010101
(0946688467.287339) can0 19B50108#C2C4C4C4C5C5C4C4
(0946688467.289194) can0 00000103#0101010101010101
(0946688467.299257) can0 00000103#0101010101010101
(0946688467.300982) can0 19B50109#C5C4C4C5C4C4C4C4
(0946688467.309216) can0 00000103#0101010101010101
(0946688467.313861) can0 19B5010A#C4C5C4C4C5C5C4C4
(0946688467.319186) can0 00000103#0101010101010101
(0946688467.327567) can0 19B5010B#C4C4C4C7C6C4C4C4
(0946688467.329184) can0 00000103#0101010101010101
(0946688467.334906) can0 00000007#B803840094A40000
(0946688467.335557) can0 18FF1515#0000000100010000
(0946688467.339257) can0 00000103#0101010101010101
(0946688467.349185) can0 00000103#0101010101010101
(0946688467.359185) can0 00000103#0101010101010101
(0946688467.369173) can0 00000103#0101010101010101
(0946688467.373918) can0 19B50000#0004000000010060
(0946688467.374445) can0 19B50007#0000002700000000
(0946688467.375039) can0 19B50001#C2C7C494A2000000
(0946688467.375600) can0 19B50002#7D7F7E0000000000
(0946688467.376215) can0 19B50003#0000000000000000
(0946688467.376773) can0 19B50008#7D7E7D0000000000
(0946688467.377595) can0 19B50500#FFFA03E800006464
(0946688467.378866) can0 19B50600#FFFF0CE099990000
(0946688467.379217) can0 00000103#0101010101010101
(0946688467.379486) can0 19B50009#C2C7C4000094A200
(0946688467.389200) can0 00000103#0101010101010101
(0946688467.399199) can0 00000103#0101010101010101
(0946688467.409176) can0 00000103#0101010101010101
(0946688467.419183) can0 00000103#0101010101010101
(0946688467.429286) can0 00000103#0101010101010101
(0946688467.432180) can0 00000008#B8FF
(0946688467.432687) can0 00000009#B8007D7D7D7D7D7D
(0946688467.435192) can0 00000008#B8FF
(0946688467.435659) can0 00000009#B8067D7D7D7D7D7D
(0946688467.436553) can0 18FF1515#0000000100010000
(0946688467.439062) can0 00000008#B8FF
(0946688467.439342) can0 00000103#0101010101010101
(0946688467.439639) can0 00000009#B80C7D7D7D7D
(0946688467.444509) can0 0000000C#B8FF
(0946688467.445015) can0 0000000D#B8007E7E7E7E7E7E
(0946688467.448361) can0 0000000C#B8FF
(0946688467.448844) can0 0000000D#B8067E7E7E7E7E7E
(0946688467.449211) can0 00000103#0101010101010101
(0946688467.453325) can0 0000000C#B8FF
(0946688467.453774) can0 0000000D#B80C7E7E7E7E
(0946688467.457181) can0 00000010#B8FF
(0946688467.457664) can0 00000011#B8007E7E7E7E7E7E
(0946688467.459261) can0 00000103#0101010101010101
(0946688467.462047) can0 00000010#B8FF
(0946688467.462564) can0 00000011#B8067E7E7E7E7E7E
(0946688467.468973) can0 00000010#B8FF
(0946688467.469254) can0 00000103#0101010101010101
(0946688467.469525) can0 00000011#B80C7E7E7E7E
(0946688467.479241) can0 00000103#0101010101010101
(0946688467.485471) can0 00000014#B8FF
(0946688467.485972) can0 00000015#B8007F7F7F7F7F7F
(0946688467.489290) can0 00000103#0101010101010101
(0946688467.490763) can0 00000014#B8FF
(0946688467.491224) can0 00000015#B8067F7F7F7F7F7F
(0946688467.495064) can0 00000014#B8FF
(0946688467.495535) can0 00000015#B80C7F7F7F7F
(0946688467.498786) can0 00000018#B8FF
(0946688467.499297) can0 00000019#B8007D7D7D7D7D7D
(0946688467.499556) can0 00000103#0101010101010101
(0946688467.503929) can0 00000018#B8FF
(0946688467.504431) can0 00000019#B8067D7D7D7D7D7D
(0946688467.508101) can0 00000018#B8FF
(0946688467.508534) can0 00000019#B80C7D7D7D7D
(0946688467.509270) can0 00000103#0101010101010101
(0946688467.513181) can0 0000001C#B8FF
(0946688467.513663) can0 0000001D#B8007F7F7F7F7F7F
(0946688467.517173) can0 0000001C#B8FF
(0946688467.517672) can0 0000001D#B8067F7F7F7F7F7F
(0946688467.519359) can0 00000103#0101010101010101
(0946688467.522050) can0 0000001C#B8FF
(0946688467.522974) can0 0000001D#B80C7F7F7F7F
(0946688467.529278) can0 00000103#0101010101010101
(0946688467.535598) can0 18FF1515#0000000100010000
(0946688467.539268) can0 00000103#0101010101010101
(0946688467.549234) can0 00000103#0101010101010101
(0946688467.559280) can0 00000103#0101010101010101
(0946688467.569238) can0 00000103#0101010101010101
(0946688467.573536) can0 19B50000#0004000000010060
(0946688467.574091) can0 19B50007#0000002700000000
(0946688467.574647) can0 19B50001#C2C7C494A2000000
(0946688467.575250) can0 19B50002#7D7F7E0000000000
(0946688467.575809) can0 19B50003#0000000000000000
(0946688467.576424) can0 19B50008#7D7E7D0000000000
(0946688467.577261) can0 19B50500#FFFB03E800006464
(0946688467.578603) can0 19B50600#FFFF0CE099990000
(0946688467.579183) can0 19B50009#C2C7C4000094A200
(0946688467.579425) can0 00000103#0101010101010101
(0946688467.583985) can0 00000007#B908C200CD
(0946688467.589236) can0 00000103#0101010101010101
(0946688467.599223) can0 00000103#0101010101010101
(0946688467.609226) can0 00000103#0101010101010101
(0946688467.619234) can0 00000103#0101010101010101
(0946688467.629211) can0 00000103#0101010101010101
(0946688467.635561) can0 18FF1515#0000000100010000
(0946688467.639208) can0 00000103#0101010101010101
(0946688467.649236) can0 00000103#0101010101010101
(0946688467.659265) can0 00000103#0101010101010101
(0946688467.669257) can0 00000103#0101010101010101
(0946688467.679297) can0 00000103#0101010101010101
(0946688467.681039) can0 00000008#B9FF
(0946688467.681397) can0 00000009#B9
(0946688467.684813) can0 0000000C#B9FF
(0946688467.685180) can0 0000000D#B9
(0946688467.688430) can0 00000010#B9FF
(0946688467.688771) can0 00000011#B9
(0946688467.689262) can0 00000103#0101010101010101
(0946688467.693236) can0 00000014#B9FF
(0946688467.693589) can0 00000015#B9
(0946688467.696908) can0 00000018#B9FF
(0946688467.697282) can0 00000019#B9
(0946688467.699203) can0 00000103#0101010101010101
(0946688467.701547) can0 0000001C#B9FF
(0946688467.701925) can0 0000001D#B9
(0946688467.709272) can0 00000103#0101010101010101
(0946688467.719325) can0 00000103#0101010101010101
(0946688467.729269) can0 00000103#0101010101010101
(0946688467.735565) can0 18FF1515#0000000100010000
(0946688467.739249) can0 00000103#0101010101010101
(0946688467.749205) can0 00000103#0101010101010101
(0946688467.759333) can0 00000103#0101010101010101
(0946688467.763814) can0 00000007#BA08C30000
(0946688467.769221) can0 00000103#0101010101010101
(0946688467.774404) can0 19B50000#0004000000010060
(0946688467.775035) can0 19B50007#0000002700000000
(0946688467.775573) can0 19B50001#C2C7C494A2000000
(0946688467.776174) can0 19B50002#7D7F7E0000000000
(0946688467.776744) can0 19B50003#0000000000000000
(0946688467.777602) can0 19B50008#7D7E7D0000000000
(0946688467.778425) can0 19B50500#FFFB03E800006464
(0946688467.779305) can0 00000103#0101010101010101
(0946688467.779568) can0 19B50600#FFFF0CE099990000
(0946688467.780296) can0 19B50009#C2C7C4000094A200
(0946688467.789288) can0 00000103#0101010101010101
(0946688467.799240) can0 00000103#0101010101010101
(0946688467.809252) can0 00000103#0101010101010101
(0946688467.819308) can0 00000103#0101010101010101
(0946688467.829265) can0 00000103#0101010101010101
(0946688467.835596) can0 18FF1515#0000000100010000
(0946688467.839293) can0 00000103#0101010101010101
(0946688467.849371) can0 00000103#0101010101010101
(0946688467.859324) can0 00000103#0101010101010101
(0946688467.868845) can0 00000008#BAFF
(0946688467.869221) can0 00000103#0101010101010101
(0946688467.869395) can0 00000009#BA
(0946688467.871654) can0 0000000C#BAFF
(0946688467.872088) can0 0000000D#BA
(0946688467.875402) can0 00000010#BAFF
(0946688467.875739) can0 00000011#BA
(0946688467.879214) can0 00000103#0101010101010101
(0946688467.880054) can0 00000014#BAFF
(0946688467.880387) can0 00000015#BA
(0946688467.884143) can0 00000018#BAFF
(0946688467.884534) can0 00000019#BA
(0946688467.887731) can0 0000001C#BAFF
(0946688467.888093) can0 0000001D#BA
(0946688467.889217) can0 00000103#0101010101010101
(0946688467.899286) can0 00000103#0101010101010101
(0946688467.909281) can0 00000103#0101010101010101
(0946688467.919267) can0 00000103#0101010101010101
(0946688467.929218) can0 00000103#0101010101010101
(0946688467.935552) can0 18FF1515#0000000100010000
(0946688467.939291) can0 00000103#0101010101010101
(0946688467.949252) can0 00000103#0101010101010101
(0946688467.959341) can0 00000103#0101010101010101
(0946688467.969226) can0 00000103#0101010101010101
(0946688467.979256) can0 00000103#0101010101010101
(0946688467.989254) can0 00000103#0101010101010101
(0946688467.999249) can0 00000103#0101010101010101
(0946688468.009294) can0 00000103#0101010101010101
(0946688468.019270) can0 00000103#0101010101010101
(0946688468.029302) can0 00000103#0101010101010101
(0946688468.035566) can0 18FF1515#0000000100010000
(0946688468.039602) can0 00000103#0101010101010101
(0946688468.049221) can0 00000103#0101010101010101
(0946688468.059207) can0 00000103#0101010101010101
(0946688468.069223) can0 00000103#0101010101010101
(0946688468.079279) can0 00000103#0101010101010101
(0946688468.089258) can0 00000103#0101010101010101
(0946688468.099228) can0 00000103#0101010101010101
(0946688468.109246) can0 00000103#0101010101010101
(0946688468.119241) can0 00000103#0101010101010101
(0946688468.123256) can0 19B50000#0004000000010060
(0946688468.123847) can0 19B50007#0000002700000000
(0946688468.124398) can0 19B50001#C2C7C494A2000000
(0946688468.125013) can0 19B50002#7D7F7E0000000000
(0946688468.125591) can0 19B50003#0000000000000000
(0946688468.126173) can0 19B50008#7D7E7D0000000000
(0946688468.127261) can0 19B50500#FFF803E800006464
(0946688468.128269) can0 19B50600#FFFF0CE099990000
(0946688468.128834) can0 19B50009#C2C7C4000094A200
(0946688468.129264) can0 00000103#0101010101010101
(0946688468.132111) can0 00000007#BB08C5009B
(0946688468.135565) can0 18FF1515#0000000100010000
(0946688468.139237) can0 00000103#0101010101010101
(0946688468.149265) can0 00000103#0101010101010101
(0946688468.159236) can0 00000103#0101010101010101
(0946688468.169292) can0 00000103#0101010101010101
(0946688468.179310) can0 00000103#0101010101010101
(0946688468.189340) can0 00000103#0101010101010101
(0946688468.199260) can0 00000103#0101010101010101
(0946688468.209282) can0 00000103#0101010101010101
(0946688468.219285) can0 00000103#0101010101010101
(0946688468.229444) can0 00000103#0101010101010101
(0946688468.229624) can0 00000008#BBFF
(0946688468.229998) can0 00000009#BB
(0946688468.235614) can0 18FF1515#0000000100010000
(0946688468.239188) can0 00000103#0101010101010101
(0946688468.246285) can0 0000000C#BBFF
(0946688468.246567) can0 0000000D#BB
(0946688468.249189) can0 00000103#0101010101010101
(0946688468.251739) can0 00000010#BBFF
(0946688468.252125) can0 00000011#BB
(0946688468.255467) can0 00000014#BBFF
(0946688468.255815) can0 00000015#BB
(0946688468.259220) can0 00000103#0101010101010101
(0946688468.260077) can0 00000018#BBFF
(0946688468.260416) can0 00000019#BB
(0946688468.264245) can0 0000001C#BBFF
(0946688468.264596) can0 0000001D#BB
(0946688468.269237) can0 00000103#0101010101010101
(0946688468.273965) can0 19B50000#0004000000010060
(0946688468.274528) can0 19B50007#0000002700000000
(0946688468.275103) can0 19B50001#C2C7C494A2000000
(0946688468.275666) can0 19B50002#7D7F7E0000000000
(0946688468.276287) can0 19B50003#0000000000000000
(0946688468.277058) can0 19B50008#7D7E7D0000000000
(0946688468.277841) can0 19B50500#FFFB03E800006464
(0946688468.278936) can0 19B50600#FFFF0CE099990000
(0946688468.279205) can0 00000103#0101010101010101
(0946688468.279528) can0 19B50009#C2C7C4000094A200
(0946688468.289257) can0 00000103#0101010101010101
(0946688468.299254) can0 00000103#0101010101010101
(0946688468.309188) can0 00000103#0101010101010101
(0946688468.319196) can0 00000103#0101010101010101
(0946688468.329194) can0 00000103#0101010101010101
(0946688468.332852) can0 00000007#BC08C10000
(0946688468.335602) can0 18FF1515#0000000100010000
(0946688468.339228) can0 00000103#0101010101010101
(0946688468.349212) can0 00000103#0101010101010101
(0946688468.359188) can0 00000103#0101010101010101
(0946688468.369242) can0 00000103#0101010101010101
(0946688468.379231) can0 00000103#0101010101010101
(0946688468.389222) can0 00000103#0101010101010101
(0946688468.399213) can0 00000103#0101010101010101
(0946688468.409191) can0 00000103#0101010101010101
(0946688468.419259) can0 00000103#0101010101010101
(0946688468.429196) can0 00000103#0101010101010101
(0946688468.435563) can0 18FF1515#0000000100010000
(0946688468.438083) can0 00000008#BCFF
(0946688468.438394) can0 00000009#BC
(0946688468.439281) can0 00000103#0101010101010101
(0946688468.440783) can0 0000000C#BCFF
(0946688468.441181) can0 0000000D#BC
(0946688468.444890) can0 00000010#BCFF
(0946688468.445192) can0 00000011#BC
(0946688468.449214) can0 00000103#0101010101010101
(0946688468.449392) can0 00000014#BCFF
(0946688468.449739) can0 00000015#BC
(0946688468.453553) can0 00000018#BCFF
(0946688468.453890) can0 00000019#BC
(0946688468.457133) can0 0000001C#BCFF
(0946688468.457511) can0 0000001D#BC
(0946688468.459237) can0 00000103#0101010101010101
(0946688468.469241) can0 00000103#0101010101010101
(0946688468.474095) can0 19B50000#0004000000010060
(0946688468.474664) can0 19B50007#0000002700000000
(0946688468.475240) can0 19B50001#C2C7C494A2000000
(0946688468.475810) can0 19B50002#7D7F7E0000000000
(0946688468.476662) can0 19B50003#0000000000000000
(0946688468.477233) can0 19B50008#7D7E7D0000000000
(0946688468.478065) can0 19B50500#FFFB03E800006464
(0946688468.479184) can0 19B50600#FFFF0CE099990000
(0946688468.479421) can0 00000103#0101010101010101
(0946688468.479770) can0 19B50009#C2C7C4000094A200
(0946688468.489216) can0 00000103#0101010101010101
(0946688468.499194) can0 00000103#0101010101010101
(0946688468.509266) can0 00000103#0101010101010101
(0946688468.519235) can0 00000103#0101010101010101
(0946688468.529226) can0 00000103#0101010101010101
(0946688468.535548) can0 18FF1515#0000000100010000
(0946688468.536320) can0 19B50200#00
(0946688468.536896) can0 19B50200#7D7D7D7D7D7D7D7D
(0946688468.539225) can0 00000103#0101010101010101
(0946688468.549216) can0 00000103#0101010101010101
(0946688468.552404) can0 19B50201#7D7D7D7D7D7D7D7D
(0946688468.559210) can0 00000103#0101010101010101
(0946688468.566514) can0 19B50202#7E7E7E7E7E7E7E7E
(0946688468.569200) can0 00000103#0101010101010101
(0946688468.579227) can0 00000103#0101010101010101
(0946688468.589232) can0 00000103#0101010101010101
(0946688468.591026) can0 19B50203#7E7E7E7E7E7E7E7E
(0946688468.599183) can0 00000103#0101010101010101
(0946688468.605007) can0 19B50204#7E7E7E7E7E7E7E7E
(0946688468.609187) can0 00000103#0101010101010101
(0946688468.618079) can0 19B50205#7E7E7E7E7E7E7E7E
(0946688468.619250) can0 00000103#0101010101010101
(0946688468.629235) can0 00000103#0101010101010101
(0946688468.631342) can0 19B50206#7F7F7F7F7F7F7F7F
(0946688468.635542) can0 18FF1515#0000000100010000
(0946688468.639198) can0 00000103#0101010101010101
(0946688468.645402) can0 19B50207#7F7F7F7F7F7F7F7F
(0946688468.649217) can0 00000103#0101010101010101
(0946688468.659222) can0 00000103#0101010101010101
(0946688468.669264) can0 00000103#0101010101010101
(0946688468.672752) can0 19B50208#7D7D7D7D7D7D7D7D
(0946688468.679256) can0 00000103#0101010101010101
(0946688468.683367) can0 19B50000#0004000000010060
(0946688468.683938) can0 19B50007#0000002700000000
(0946688468.684516) can0 19B50001#C2C7C494A2000000
(0946688468.685102) can0 19B50002#7D7F7E0000000000
(0946688468.685668) can0 19B50003#0000000000000000
(0946688468.686500) can0 19B50008#7D7E7D0000000000
(0946688468.687336) can0 19B50500#FFFA03E800006464
(0946688468.688456) can0 19B50600#FFFF0CE099990000
(0946688468.689015) can0 19B50009#C2C7C4000094A200
(0946688468.689296) can0 00000103#0101010101010101
(0946688468.699212) can0 00000103#0101010101010101
(0946688468.699500) can0 19B50209#7D7D7D7D7D7D7D7D
(0946688468.709213) can0 00000103#0101010101010101
(0946688468.712919) can0 19B5020A#7F7F7F7F7F7F7F7F
(0946688468.719254) can0 00000103#0101010101010101
(0946688468.726799) can0 19B5020B#7F7F7F7F7F7F7F7F
(0946688468.729231) can0 00000103#0101010101010101
(0946688468.733903) can0 00000007#BD03830093A30000
(0946688468.735540) can0 18FF1515#0000000100010000
(0946688468.739203) can0 00000103#0101010101010101
(0946688468.749200) can0 00000103#0101010101010101
(0946688468.759184) can0 00000103#0101010101010101
(0946688468.769216) can0 00000103#0101010101010101
(0946688468.779256) can0 00000103#0101010101010101
(0946688468.789227) can0 00000103#0101010101010101
(0946688468.799240) can0 00000103#0101010101010101
(0946688468.809217) can0 00000103#0101010101010101
(0946688468.819212) can0 00000103#0101010101010101
(0946688468.829236) can0 00000103#0101010101010101
(0946688468.829445) can0 00000008#BDFF
(0946688468.829942) can0 00000009#BD00000000000000
(0946688468.832546) can0 00000008#BDFF
(0946688468.833025) can0 00000009#BD06000000000000
(0946688468.835543) can0 18FF1515#0000000100010000
(0946688468.836500) can0 00000008#BDFF
(0946688468.836945) can0 00000009#BD0C00000000
(0946688468.839206) can0 00000103#0101010101010101
(0946688468.841752) can0 0000000C#BDFF
(0946688468.842236) can0 0000000D#BD00000000000000
(0946688468.845870) can0 0000000C#BDFF
(0946688468.846350) can0 0000000D#BD06000000000000
(0946688468.849226) can0 00000103#0101010101010101
(0946688468.850921) can0 0000000C#BDFF
(0946688468.851396) can0 0000000D#BD0C00000000
(0946688468.854754) can0 00000010#BDFF
(0946688468.855279) can0 00000011#BD00000000000000
(0946688468.859212) can0 00000103#0101010101010101
(0946688468.859397) can0 00000010#BDFF
(0946688468.859899) can0 00000011#BD06000000000000
(0946688468.869196) can0 00000103#0101010101010101
(0946688468.879213) can0 00000103#0101010101010101
(0946688468.889198) can0 00000103#0101010101010101
(0946688468.899225) can0 00000103#0101010101010101
(0946688468.904586) can0 00000010#BDFF
(0946688468.905058) can0 00000011#BD0C00000000
(0946688468.909197) can0 00000103#0101010101010101
(0946688468.911172) can0 19B50000#0004000000010060
(0946688468.911741) can0 19B50007#0000002700000000
(0946688468.912276) can0 19B50001#C2C7C494A2000000
(0946688468.912903) can0 19B50002#7D7F7E0000000000
(0946688468.913484) can0 19B50003#0000000000000000
(0946688468.914088) can0 19B50008#7D7E7D0000000000
(0946688468.914889) can0 19B50500#FFFA03E800006464
(0946688468.916153) can0 19B50600#FFFF0CE099990000
(0946688468.916746) can0 19B50009#C2C7C4000094A200
(0946688468.919231) can0 00000103#0101010101010101
(0946688468.922153) can0 00000014#BDFF
(0946688468.922654) can0 00000015#BD00000000000000
(0946688468.926602) can0 00000014#BDFF
(0946688468.927078) can0 00000015#BD06000000000000
(0946688468.929291) can0 00000103#0101010101010101
(0946688468.931659) can0 00000014#BDFF
(0946688468.932075) can0 00000015#BD0C00000000
(0946688468.935545) can0 18FF1515#0000000100010000
(0946688468.935725) can0 00000018#BDFF
(0946688468.936239) can0 00000019#BD00000000000000
(0946688468.939285) can0 00000103#0101010101010101
(0946688468.941304) can0 00000018#BDFF
(0946688468.941763) can0 00000019#BD06000000000000
(0946688468.945140) can0 00000018#BDFF
(0946688468.945592) can0 00000019#BD0C00000000
(0946688468.949307) can0 00000103#0101010101010101
(0946688468.950604) can0 0000001C#BDFF
(0946688468.951055) can0 0000001D#BD00000000000000
(0946688468.954439) can0 0000001C#BDFF
(0946688468.954963) can0 0000001D#BD06000000000000
(0946688468.959301) can0 00000103#0101010101010101
(0946688468.959479) can0 0000001C#BDFF
(0946688468.959927) can0 0000001D#BD0C00000000
(0946688468.969286) can0 00000103#0101010101010101
(0946688468.979333) can0 00000103#0101010101010101
(0946688468.989277) can0 00000103#0101010101010101
(0946688468.999237) can0 00000103#0101010101010101
(0946688469.009269) can0 00000103#0101010101010101
(0946688469.019291) can0 00000103#0101010101010101
(0946688469.029284) can0 00000103#0101010101010101
(0946688469.035589) can0 18FF1515#0000000100010000
(0946688469.039276) can0 00000103#0101010101010101
(0946688469.040633) can0 19B50300#00
(0946688469.041201) can0 19B50300#0000000000000000
(0946688469.049275) can0 00000103#0101010101010101
(0946688469.055064) can0 19B50301#0000000000000000
(0946688469.059270) can0 00000103#0101010101010101
(0946688469.069296) can0 00000103#0101010101010101
(0946688469.070772) can0 19B50302#0000000000000000
(0946688469.078808) can0 19B50000#0004000000010060
(0946688469.079386) can0 00000103#0101010101010101
(0946688469.079649) can0 19B50007#0000002700000000
(0946688469.080160) can0 19B50001#C2C7C494A2000000
(0946688469.080725) can0 19B50002#7D7F7E0000000000
(0946688469.081309) can0 19B50003#0000000000000000
(0946688469.081975) can0 19B50008#7D7E7D0000000000
(0946688469.082766) can0 19B50500#FFFB03E800006464
(0946688469.083834) can0 19B50600#FFFF0CE099990000
(0946688469.084419) can0 19B50009#C2C7C4000094A200
(0946688469.089237) can0 00000103#0101010101010101
(0946688469.096399) can0 19B50303#0000000000000000
(0946688469.099275) can0 00000103#0101010101010101
(0946688469.109307) can0 00000103#0101010101010101
(0946688469.109576) can0 19B50304#0000000000000000
(0946688469.119306) can0 00000103#0101010101010101
(0946688469.129300) can0 00000103#0101010101010101
(0946688469.133773) can0 19B50305#0000000000000000
(0946688469.135537) can0 18FF1515#0000000100010000
(0946688469.139253) can0 00000103#0101010101010101
(0946688469.146813) can0 19B50306#0000000000000000
(0946688469.149247) can0 00000103#0101010101010101
(0946688469.159324) can0 00000103#0101010101010101
(0946688469.160315) can0 19B50307#0000000000000000
(0946688469.169271) can0 00000103#0101010101010101
(0946688469.176813) can0 19B50308#0000000000000000
(0946688469.179254) can0 00000103#0101010101010101
(0946688469.189281) can0 00000103#0101010101010101
(0946688469.189600) can0 19B50309#0000000000000000
(0946688469.199209) can0 00000103#0101010101010101
(0946688469.203320) can0 19B5030A#0000000000000000
(0946688469.209227) can0 00000103#0101010101010101
(0946688469.219240) can0 00000103#0101010101010101
(0946688469.227608) can0 19B5030B#0000000000000000
(0946688469.229224) can0 00000103#0101010101010101
(0946688469.235168) can0 00000007#BE03860096A60000
(0946688469.235546) can0 18FF1515#0000000100010000
(0946688469.239331) can0 00000103#0101010101010101
(0946688469.249245) can0 00000103#0101010101010101
(0946688469.259275) can0 00000103#0101010101010101
(0946688469.269260) can0 00000103#0101010101010101
(0946688469.272784) can0 19B50000#0004000000010060
(0946688469.273392) can0 19B50007#0000002700000000
(0946688469.273993) can0 19B50001#C2C7C494A2000000
(0946688469.274563) can0 19B50002#7D7F7E0000000000
(0946688469.275395) can0 19B50003#0000000000000000
(0946688469.275997) can0 19B50008#7D7E7D0000000000
(0946688469.276780) can0 19B50500#FFFC03E800006464
(0946688469.277905) can0 19B50600#FFFF0CE099990000
(0946688469.278481) can0 19B50009#C2C7C4000094A200
(0946688469.279196) can0 00000103#0101010101010101
(0946688469.289250) can0 00000103#0101010101010101
(0946688469.299233) can0 00000103#0101010101010101
(0946688469.309224) can0 00000103#0101010101010101
(0946688469.319228) can0 00000103#0101010101010101
(0946688469.329248) can0 00000103#0101010101010101
(0946688469.335593) can0 18FF1515#0000000100010000
(0946688469.338735) can0 00000008#BEFF
(0946688469.339303) can0 00000103#0101010101010101
(0946688469.339512) can0 00000009#BE007D7D7D7D7DFF
(0946688469.349196) can0 00000103#0101010101010101
(0946688469.354286) can0 00000008#BEFF
(0946688469.354795) can0 00000009#BE06FFFFFFFFFFFF
(0946688469.359241) can0 00000103#0101010101010101
(0946688469.359719) can0 00000008#BEFF
(0946688469.360196) can0 00000009#BE0CFFFFFFFF
(0946688469.363492) can0 0000000C#BEFF
(0946688469.364023) can0 0000000D#BE007D7D7D7E7DFF
(0946688469.369265) can0 00000103#0101010101010101
(0946688469.370702) can0 0000000C#BEFF
(0946688469.371196) can0 0000000D#BE06FFFFFFFFFFFF
(0946688469.375478) can0 0000000C#BEFF
(0946688469.375919) can0 0000000D#BE0CFFFFFFFF
(0946688469.379258) can0 00000103#0101010101010101
(0946688469.389261) can0 00000103#0101010101010101
(0946688469.399240) can0 00000103#0101010101010101
(0946688469.399844) can0 00000010#BEFF
(0946688469.400333) can0 00000011#BE007E7E7E7E7EFF
(0946688469.404421) can0 00000010#BEFF
(0946688469.404882) can0 00000011#BE06FFFFFFFFFFFF
(0946688469.409231) can0 00000103#0101010101010101
(0946688469.410197) can0 00000010#BEFF
(0946688469.410667) can0 00000011#BE0CFFFFFFFF
(0946688469.414054) can0 00000014#BEFF
(0946688469.414537) can0 00000015#BE007E7E7E7E7EFF
(0946688469.419235) can0 00000103#0101010101010101
(0946688469.419436) can0 00000014#BEFF
(0946688469.419929) can0 00000015#BE06FFFFFFFFFFFF
(0946688469.429252) can0 00000103#0101010101010101
(0946688469.435560) can0 18FF1515#0000000100010000
(0946688469.436210) can0 00000014#BEFF
(0946688469.436654) can0 00000015#BE0CFFFFFFFF
(0946688469.439211) can0 00000103#0101010101010101
(0946688469.442981) can0 00000018#BEFF
(0946688469.443473) can0 00000019#BE007D7D7D7D7DFF
(0946688469.449238) can0 00000103#0101010101010101
(0946688469.450327) can0 00000018#BEFF
(0946688469.451169) can0 00000019#BE06FFFFFFFFFFFF
(0946688469.454932) can0 00000018#BEFF
(0946688469.455409) can0 00000019#BE0CFFFFFFFF
(0946688469.459254) can0 00000103#0101010101010101
(0946688469.462582) can0 0000001C#BEFF
(0946688469.463051) can0 0000001D#BE007D7E7D7D7DFF
(0946688469.469222) can0 00000103#0101010101010101
(0946688469.470086) can0 0000001C#BEFF
(0946688469.470579) can0 0000001D#BE06FFFFFFFFFFFF
(0946688469.476036) can0 19B50000#0004000000010060
(0946688469.476576) can0 19B50007#0000002700000000
(0946688469.477166) can0 19B50001#C2C7C494A2000000
(0946688469.477740) can0 19B50002#7D7F7E0000000000
(0946688469.478313) can0 19B50003#0000000000000000
(0946688469.478921) can0 19B50008#7D7E7D0000000000
(0946688469.479234) can0 00000103#0101010101010101
(0946688469.479915) can0 19B50500#FFFB03E800006464
(0946688469.481039) can0 19B50600#FFFF0CE099990000
(0946688469.481595) can0 19B50009#C2C7C4000094A200
(0946688469.489263) can0 00000103#0101010101010101
(0946688469.492601) can0 0000001C#BEFF
(0946688469.493048) can0 0000001D#BE0CFFFFFFFF
(0946688469.499249) can0 00000103#0101010101010101
(0946688469.509233) can0 00000103#0101010101010101
(0946688469.519229) can0 00000103#0101010101010101
(0946688469.529266) can0 00000103#0101010101010101
(0946688469.535550) can0 18FF1515#0000000100010000
(0946688469.539220) can0 00000103#0101010101010101
(0946688469.549252) can0 00000103#0101010101010101
(0946688469.559269) can0 00000103#0101010101010101
(0946688469.569242) can0 00000103#0101010101010101
(0946688469.575060) can0 19B50800#00
(0946688469.575618) can0 19B50800#7D7D7D7D7DFFFFFF
(0946688469.579256) can0 00000103#0101010101010101
(0946688469.589270) can0 00000103#0101010101010101
(0946688469.597339) can0 19B50801#FFFFFFFFFFFFFFFF
(0946688469.599208) can0 00000103#0101010101010101
(0946688469.609275) can0 00000103#0101010101010101
(0946688469.614976) can0 19B50802#7D7D7D7E7DFFFFFF
(0946688469.619270) can0 00000103#0101010101010101
(0946688469.629221) can0 00000103#0101010101010101
(0946688469.635570) can0 18FF1515#0000000100010000
(0946688469.639359) can0 00000103#0101010101010101
(0946688469.645515) can0 19B50803#FFFFFFFFFFFFFFFF
(0946688469.649335) can0 00000103#0101010101010101
(0946688469.659266) can0 00000103#0101010101010101
(0946688469.659674) can0 19B50804#7E7E7E7E7EFFFFFF
(0946688469.669269) can0 00000103#0101010101010101
(0946688469.674582) can0 19B50805#FFFFFFFFFFFFFFFF
(0946688469.679253) can0 00000103#0101010101010101
(0946688469.682340) can0 19B50000#0004000000010060
(0946688469.682904) can0 19B50007#0000002700000000
(0946688469.683530) can0 19B50001#C2C7C494A2000000
(0946688469.684353) can0 19B50002#7D7F7E0000000000
(0946688469.684951) can0 19B50003#0000000000000000
(0946688469.685520) can0 19B50008#7D7E7D0000000000
(0946688469.686346) can0 19B50500#FFFA03E800006464
(0946688469.687435) can0 19B50600#FFFF0CE099990000
(0946688469.688043) can0 19B50009#C2C7C4000094A200
(0946688469.689225) can0 00000103#0101010101010101
(0946688469.699273) can0 00000103#0101010101010101
(0946688469.700209) can0 19B50806#7E7E7E7E7EFFFFFF
(0946688469.709275) can0 00000103#0101010101010101
(0946688469.714619) can0 19B50807#FFFFFFFFFFFFFFFF
(0946688469.719246) can0 00000103#0101010101010101
(0946688469.729219) can0 00000103#0101010101010101
(0946688469.735553) can0 18FF1515#0000000100010000
(0946688469.738835) can0 19B50808#7D7D7D7D7DFFFFFF
(0946688469.739210) can0 00000103#0101010101010101
(0946688469.749239) can0 00000103#0101010101010101
(0946688469.755683) can0 19B50809#FFFFFFFFFFFFFFFF
(0946688469.759199) can0 00000103#0101010101010101
(0946688469.768721) can0 19B5080A#7D7E7D7D7DFFFFFF
(0946688469.769231) can0 00000103#0101010101010101
(0946688469.776910) can0 00000007#BF03860096A60000
(0946688469.779193) can0 00000103#0101010101010101
(0946688469.789216) can0 00000103#0101010101010101
(0946688469.799211) can0 00000103#0101010101010101
(0946688469.809286) can0 00000103#0101010101010101
(0946688469.819226) can0 00000103#0101010101010101
(0946688469.829227) can0 00000103#0101010101010101
(0946688469.835532) can0 18FF1515#0000000100010000
(0946688469.839270) can0 00000103#0101010101010101
(0946688469.849263) can0 00000103#0101010101010101
(0946688469.859236) can0 00000103#0101010101010101
(0946688469.869233) can0 00000103#0101010101010101
(0946688469.877020) can0 19B50000#0004000000010060
(0946688469.877624) can0 19B50007#0000002700000000
(0946688469.878140) can0 19B50001#C2C7C494A2000000
(0946688469.878754) can0 19B50002#7D7F7E0000000000
(0946688469.879232) can0 00000103#0101010101010101
(0946688469.879536) can0 19B50003#0000000000000000
(0946688469.880106) can0 19B50008#7D7E7D0000000000
(0946688469.880927) can0 19B50500#FFFC03E800006464
(0946688469.882018) can0 19B50600#FFFF0CE099990000
(0946688469.882588) can0 19B50009#C2C7C4000094A200
(0946688469.886782) can0 00000008#BFFF
(0946688469.887274) can0 00000009#BF007D7D7D7D7DFF
(0946688469.888709) can0 00000008#BFFF
(0946688469.889224) can0 00000009#BF06FFFFFFFFFFFF
(0946688469.889496) can0 00000103#0101010101010101
(0946688469.892425) can0 00000008#BFFF
(0946688469.892895) can0 00000009#BF0CFFFFFFFF
(0946688469.897226) can0 0000000C#BFFF
(0946688469.897734) can0 0000000D#BF007D7D7D7E7DFF
(0946688469.899214) can0 00000103#0101010101010101
(0946688469.901472) can0 0000000C#BFFF
(0946688469.901944) can0 0000000D#BF06FFFFFFFFFFFF
(0946688469.906303) can0 0000000C#BFFF
(0946688469.906719) can0 0000000D#BF0CFFFFFFFF
(0946688469.909200) can0 00000103#0101010101010101
(0946688469.910421) can0 00000010#BFFF
(0946688469.910916) can0 00000011#BF007E7E7E7E7EFF
(0946688469.914380) can0 00000010#BFFF
(0946688469.914892) can0 00000011#BF06FFFFFFFFFFFF
(0946688469.919238) can0 00000010#BFFF
(0946688469.919676) can0 00000011#BF0CFFFFFFFF
(0946688469.920143) can0 00000103#0101010101010101
(0946688469.922496) can0 00000001#E7FF0000E8FF0000
(0946688469.922777) can0 00000002#2FFC00003300EFFF
(0946688469.923370) can0 00000014#BFFF
(0946688469.923818) can0 00000015#BF007E7E7E7E7EFF
(0946688469.929307) can0 00000103#0101010101010101
(0946688469.932571) can0 00000001#E7FF0000E8FF0000
(0946688469.932903) can0 00000002#30FC00003300EFFF
(0946688469.935538) can0 18FF1515#0000000100010000
(0946688469.939217) can0 00000103#0101010101010101
(0946688469.942682) can0 00000001#E8FF0000E8FF0000
(0946688469.943017) can0 00000002#2EFC00003300EEFF
(0946688469.949546) can0 00000103#0101010101010101
(0946688469.952810) can0 00000001#E7FF0000E8FF0000
(0946688469.953085) can0 00000002#31FC00003300EFFF
(0946688469.959985) can0 00000103#0101010101010101
(0946688469.962928) can0 00000001#E9FF0000E9FF0000
(0946688469.963229) can0 00000002#2EFC00003300EEFF
(0946688469.968809) can0 00000014#BFFF
(0946688469.969342) can0 00000015#BF06FFFFFFFFFFFF
(0946688469.969592) can0 00000103#0101010101010101
(0946688469.973007) can0 00000001#E9FF0000E8FF0000
(0946688469.973266) can0 00000002#2EFC00003300EEFF
(0946688469.979264) can0 00000103#0101010101010101
(0946688469.979450) can0 00000014#BFFF
(0946688469.979926) can0 00000015#BF0CFFFFFFFF
(0946688469.983069) can0 00000001#E8FF0000E7FF0000
(0946688469.983392) can0 00000002#30FC00003300EEFF
(0946688469.984773) can0 00000018#BFFF
(0946688469.985301) can0 00000019#BF007D7D7D7D7DFF
(0946688469.989299) can0 00000103#0101010101010101
(0946688469.990319) can0 00000018#BFFF
(0946688469.991309) can0 00000019#BF06FFFFFFFFFFFF
(0946688469.994222) can0 00000001#E8FF0000E7FF0000
(0946688469.994525) can0 00000002#2EFC00003300EEFF
(0946688469.994757) can0 00000018#BFFF
(0946688469.995176) can0 00000019#BF0CFFFFFFFF
(0946688469.999263) can0 00000103#0101010101010101
(0946688470.000181) can0 0000001C#BFFF
(0946688470.000691) can0 0000001D#BF007D7E7D7D7DFF
(0946688470.004318) can0 00000001#E8FF0000E6FF0000
(0946688470.004633) can0 00000002#2EFC00003300EFFF
(0946688470.004816) can0 0000001C#BFFF
(0946688470.005338) can0 0000001D#BF06FFFFFFFFFFFF
(0946688470.009331) can0 00000103#0101010101010101
(0946688470.010204) can0 0000001C#BFFF
(0946688470.010637) can0 0000001D#BF0CFFFFFFFF
(0946688470.014494) can0 00000001#E7FF0000E6FF0000
(0946688470.014780) can0 00000002#2EFC00003300EFFF
(0946688470.019241) can0 00000103#0101010101010101
(0946688470.024664) can0 00000001#E8FF0000E7FF0000
(0946688470.024929) can0 00000002#2FFC00003300EFFF
(0946688470.029273) can0 00000103#0101010101010101
(0946688470.034709) can0 00000001#E7FF0000E7FF0000
(0946688470.035008) can0 00000002#2FFC00003300EFFF
(0946688470.035534) can0 18FF1515#0000000100010000
(0946688470.039231) can0 00000103#0101010101010101
(0946688470.044818) can0 00000001#E8FF0000E7FF0000
(0946688470.045115) can0 00000002#2FFC00003300EFFF
(0946688470.049250) can0 00000103#0101010101010101
(0946688470.054912) can0 00000001#E8FF0000E7FF0000
(0946688470.055228) can0 00000002#30FC00003300EFFF
(0946688470.059258) can0 00000103#0101010101010101
(0946688470.065018) can0 00000001#E7FF0000E8FF0000
(0946688470.065324) can0 00000002#2FFC00003300EFFF
(0946688470.069272) can0 00000103#0101010101010101
(0946688470.072234) can0 19B50000#0004000000010060
(0946688470.072817) can0 19B50007#0000002700000000
(0946688470.073425) can0 19B50001#C2C7C494A2000000
(0946688470.074238) can0 19B50002#7D7F7E0000000000
(0946688470.074778) can0 19B50003#0000000000000000
(0946688470.075156) can0 00000001#E8FF0000E8FF0000
(0946688470.075433) can0 00000002#30FC00003300EFFF
(0946688470.075721) can0 19B50008#7D7E7D0000000000
(0946688470.076276) can0 19B50500#FFFC03E800006464
(0946688470.077325) can0 19B50600#FFFF0CE099990000
(0946688470.077926) can0 19B50009#C2C7C4000094A200
(0946688470.079261) can0 00000103#0101010101010101
(0946688470.085258) can0 00000001#E7FF0000E8FF0000
(0946688470.085532) can0 00000002#30FC00003300EFFF
(0946688470.088304) can0 19B5080B#FFFFFFFFFFFFFFFF
(0946688470.089224) can0 00000103#0101010101010101
(0946688470.095386) can0 00000001#E7FF0000E8FF0000
(0946688470.095653) can0 00000002#2FFC00003300EFFF
(0946688470.099272) can0 00000103#0101010101010101
(0946688470.105462) can0 00000001#E7FF0000E9FF0000
(0946688470.106596) can0 00000002#2FFC00003300EEFF
(0946688470.109337) can0 00000103#0101010101010101
(0946688470.115582) can0 00000001#E8FF0000E8FF0000
(0946688470.115852) can0 00000002#2EFC00003300EEFF
(0946688470.119243) can0 00000103#0101010101010101
(0946688470.125681) can0 00000001#E8FF0000E9FF0000
(0946688470.125960) can0 00000002#2EFC00003300EEFF
(0946688470.129231) can0 00000103#0101010101010101
(0946688470.135536) can0 18FF1515#0000000100010000
(0946688470.136910) can0 00000001#E9FF0000E8FF0000
(0946688470.137181) can0 00000002#2DFC00003300EEFF
(0946688470.139233) can0 00000103#0101010101010101
(0946688470.147039) can0 00000001#E9FF0000E8FF0000
(0946688470.147340) can0 00000002#2EFC00003300EEFF
(0946688470.149292) can0 00000103#0101010101010101
(0946688470.157138) can0 00000001#E8FF0000E8FF0000
(0946688470.157443) can0 00000002#2EFC00003300EEFF
(0946688470.159389) can0 00000103#0101010101010101
(0946688470.167258) can0 00000001#E9FF0000E6FF0000
(0946688470.167552) can0 00000002#37FC00003300EEFF
(0946688470.169325) can0 00000103#0101010101010101
(0946688470.177357) can0 00000001#E8FF0000ECFF0000
(0946688470.177630) can0 00000002#30FC00003300EEFF
(0946688470.179892) can0 00000103#0101010101010101
(0946688470.187570) can0 00000001#E5FF0000ECFF0000
(0946688470.187816) can0 00000002#31FC00003400EEFF
(0946688470.189364) can0 00000103#0101010101010101
(0946688470.197598) can0 00000001#E6FF0000E9FF0000
(0946688470.197883) can0 00000002#30FC00003400EEFF
(0946688470.199237) can0 00000103#0101010101010101
(0946688470.207694) can0 00000001#EBFF0000E7FF0000
(0946688470.207976) can0 00000002#31FC00003400EEFF
(0946688470.209193) can0 00000103#0101010101010101
(0946688470.217803) can0 00000001#EAFF0000E6FF0000
(0946688470.218150) can0 00000002#31FC00003300EEFF
(0946688470.219290) can0 00000103#0101010101010101
(0946688470.227965) can0 00000001#EAFF0000E6FF0000
(0946688470.228238) can0 00000002#2FFC00003300EEFF
(0946688470.229205) can0 00000103#0101010101010101
(0946688470.235549) can0 18FF1515#0000000100010000
(0946688470.238003) can0 00000001#E8FF0000E4FF0000
(0946688470.238307) can0 00000002#34FC00003300EEFF
(0946688470.239225) can0 00000103#0101010101010101
(0946688470.249177) can0 00000001#EBFF0000E7FF0000
(0946688470.249475) can0 00000002#31FC00003300EEFF
(0946688470.249771) can0 00000103#0101010101010101
(0946688470.259254) can0 00000103#0101010101010101
(0946688470.259488) can0 00000001#E9FF0000E8FF0000
(0946688470.259796) can0 00000002#31FC00003300EEFF
(0946688470.269249) can0 00000103#0101010101010101
(0946688470.269532) can0 00000001#E4FF0000E6FF0000
(0946688470.269811) can0 00000002#32FC00003300EEFF
(0946688470.271701) can0 19B50000#0004000000010060
(0946688470.272258) can0 19B50007#0000002700000000
(0946688470.272853) can0 19B50001#C2C7C494A2000000
(0946688470.273668) can0 19B50002#7D7F7E0000000000
(0946688470.274284) can0 19B50003#0000000000000000
(0946688470.274819) can0 19B50008#7D7E7D0000000000
(0946688470.275715) can0 19B50500#FFFA03E800006464
(0946688470.276794) can0 19B50600#FFFF0CE099990000
(0946688470.277386) can0 19B50009#C2C7C4000094A200
(0946688470.279240) can0 00000103#0101010101010101
(0946688470.279546) can0 00000001#E7FF0000E2FF0000
(0946688470.279836) can0 00000002#2FFC00003300EEFF
(0946688470.282239) can0 00000007#C003810091A10000
(0946688470.289283) can0 00000103#0101010101010101
(0946688470.289606) can0 00000001#E7FF0000E4FF0000
(0946688470.289877) can0 00000002#2DFC00003300EEFF
(0946688470.299298) can0 00000103#0101010101010101
(0946688470.299699) can0 00000001#E8FF0000E4FF0000
(0946688470.299975) can0 00000002#2DFC00003300EEFF
(0946688470.309292) can0 00000103#0101010101010101
(0946688470.309763) can0 00000001#E9FF0000E5FF0000
(0946688470.310112) can0 00000002#2EFC00003300EEFF
(0946688470.319258) can0 00000103#0101010101010101
(0946688470.319887) can0 00000001#E9FF0000E6FF0000
(0946688470.320128) can0 00000002#2EFC00003300EEFF
(0946688470.329322) can0 00000103#0101010101010101
(0946688470.329957) can0 00000001#E8FF0000E7FF0000
(0946688470.330273) can0 00000002#2DFC00003300EEFF
(0946688470.335546) can0 18FF1515#0000000100010000
(0946688470.339309) can0 00000103#0101010101010101
(0946688470.340058) can0 00000001#E8FF0000E7FF0000
(0946688470.340347) can0 00000002#2FFC00003300EEFF
(0946688470.349299) can0 00000103#0101010101010101
(0946688470.350166) can0 00000001#E9FF0000E8FF0000
(0946688470.350435) can0 00000002#2EFC00003300EEFF
(0946688470.359299) can0 00000103#0101010101010101
(0946688470.360263) can0 00000001#E9FF0000EAFF0000
(0946688470.360523) can0 00000002#30FC00003300EEFF
(0946688470.369327) can0 00000103#0101010101010101
(0946688470.370335) can0 00000001#E8FF0000EAFF0000
(0946688470.370630) can0 00000002#30FC00003300EEFF
(0946688470.379280) can0 00000103#0101010101010101
(0946688470.380453) can0 00000001#E7FF0000E9FF0000
(0946688470.380720) can0 00000002#30FC00003300EEFF
(0946688470.385090) can0 00000008#C0FF
(0946688470.385613) can0 00000009#C000C5C4C4C4C5C4
(0946688470.389057) can0 00000008#C0FF
(0946688470.389317) can0 00000103#0101010101010101
(0946688470.389622) can0 00000009#C006C4C4C4C4C5C4
(0946688470.390522) can0 00000001#E7FF0000E9FF0000
(0946688470.390801) can0 00000002#30FC00003300EEFF
(0946688470.393615) can0 00000008#C0FF
(0946688470.394057) can0 00000009#C00CC4C4C4C4
(0946688470.398994) can0 0000000C#C0FF
(0946688470.399259) can0 00000103#0101010101010101
(0946688470.399567) can0 0000000D#C000C4C4C4C4C4C6
(0946688470.401573) can0 00000001#E7FF0000E9FF0000
(0946688470.401880) can0 00000002#2FFC00003300EEFF
(0946688470.403583) can0 0000000C#C0FF
(0946688470.404048) can0 0000000D#C006C4C4C4C5C4C4
(0946688470.409294) can0 00000103#0101010101010101
(0946688470.411168) can0 0000000C#C0FF
(0946688470.411619) can0 0000000D#C00CC5C4C4C4
(0946688470.411881) can0 00000001#E6FF0000E8FF0000
(0946688470.412172) can0 00000002#2FFC00003300EEFF
(0946688470.416514) can0 00000010#C0FF
(0946688470.416996) can0 00000011#C000C4C4C4C5C4C5
(0946688470.419316) can0 00000103#0101010101010101
(0946688470.421247) can0 00000010#C0FF
(0946688470.421736) can0 00000011#C006C4C5C5C4C4C5
(0946688470.422038) can0 00000001#E6FF0000E8FF0000
(0946688470.422287) can0 00000002#2FFC00003300EEFF
(0946688470.426545) can0 00000010#C0FF
(0946688470.427015) can0 00000011#C00CC5C5C4C4
(0946688470.429232) can0 00000103#0101010101010101
(0946688470.431943) can0 00000001#E6FF0000E8FF0000
(0946688470.432209) can0 00000002#2FFC00003400EEFF
(0946688470.435545) can0 18FF1515#0000000100010000
(0946688470.439326) can0 00000103#0101010101010101
(0946688470.442016) can0 00000001#E7FF0000E8FF0000
(0946688470.442306) can0 00000002#2FFC00003400EEFF
(0946688470.443531) can0 00000014#C0FF
(0946688470.444007) can0 00000015#C000C4C5C4C5C5C4
(0946688470.449246) can0 00000103#0101010101010101
(0946688470.450297) can0 00000014#C0FF
(0946688470.450736) can0 00000015#C006C5C4C5C5C5C5
(0946688470.452164) can0 00000001#E9FF0000E6FF0000
(0946688470.452450) can0 00000002#2EFC00003400EEFF
(0946688470.455564) can0 00000014#C0FF
(0946688470.456034) can0 00000015#C00CC5C4C5C4
(0946688470.459263) can0 00000103#0101010101010101
(0946688470.460312) can0 00000018#C0FF
(0946688470.460808) can0 00000019#C000C2C4C4C4C5C5
(0946688470.462221) can0 00000001#E8FF0000E5FF0000
(0946688470.462510) can0 00000002#2EFC00003300EEFF
(0946688470.465888) can0 00000018#C0FF
(0946688470.466380) can0 00000019#C006C4C4C5C4C4C5
(0946688470.469253) can0 00000103#0101010101010101
(0946688470.471770) can0 19B50000#0004000000010060
(0946688470.472337) can0 19B50007#0000002700000000
(0946688470.472601) can0 00000001#E8FF0000E5FF0000
(0946688470.472879) can0 00000002#2EFC00003300EEFF
(0946688470.473420) can0 19B50001#C2C7C494A2000000
(0946688470.474005) can0 19B50002#7D7F7E0000000000
(0946688470.474639) can0 19B50003#0000000000000000
(0946688470.475200) can0 19B50008#7D7E7D0000000000
(0946688470.476056) can0 19B50500#FFFB03E800006464
(0946688470.477111) can0 19B50600#FFFF0CE099990000
(0946688470.477736) can0 19B50009#C2C7C4000094A200
(0946688470.479273) can0 00000103#0101010101010101
(0946688470.482410) can0 00000001#E8FF0000E6FF0000
(0946688470.482709) can0 00000002#2EFC00003300EEFF
(0946688470.483804) can0 00000018#C0FF
(0946688470.484281) can0 00000019#C00CC4C4C4C4
(0946688470.489193) can0 00000103#0101010101010101
(0946688470.490325) can0 0000001C#C0FF
(0946688470.490777) can0 0000001D#C000C4C4C4C4C5C4
(0946688470.492523) can0 00000001#E8FF0000E6FF0000
(0946688470.492782) can0 00000002#2EFC00003300EEFF
(0946688470.495573) can0 0000001C#C0FF
(0946688470.496023) can0 0000001D#C006C4C4C4C4C4C7
(0946688470.499256) can0 00000103#0101010101010101
(0946688470.502609) can0 00000001#E8FF0000E6FF0000
(0946688470.502890) can0 00000002#2FFC00003300EEFF
(0946688470.509250) can0 00000103#0101010101010101
(0946688470.511661) can0 0000001C#C0FF
(0946688470.512095) can0 0000001D#C00CC6C4C4C4
(0946688470.512717) can0 00000001#E7FF0000E6FF0000
(0946688470.513009) can0 00000002#2FFC00003300EEFF
(0946688470.519194) can0 00000103#0101010101010101
(0946688470.522796) can0 00000001#E7FF0000E6FF0000
(0946688470.523092) can0 00000002#2FFC00003300EEFF
(0946688470.529226) can0 00000103#0101010101010101
(0946688470.532928) can0 00000001#E7FF0000E8FF0000
(0946688470.533190) can0 00000002#2FFC00003300EEFF
(0946688470.535542) can0 18FF1515#0000000100010000
(0946688470.539272) can0 00000103#0101010101010101
(0946688470.543012) can0 00000001#E7FF0000E8FF0000
(0946688470.543316) can0 00000002#2FFC00003300EEFF
(0946688470.549257) can0 00000103#0101010101010101
(0946688470.554009) can0 00000001#E7FF0000E8FF0000
(0946688470.554298) can0 00000002#2FFC00003300EEFF
(0946688470.559213) can0 00000103#0101010101010101
(0946688470.564119) can0 00000001#E7FF0000E8FF0000
(0946688470.564377) can0 00000002#2EFC00003300EEFF
(0946688470.569222) can0 00000103#0101010101010101
(0946688470.574196) can0 00000001#E8FF0000E8FF0000
(0946688470.574443) can0 00000002#2EFC00003300EEFF
(0946688470.579212) can0 00000103#0101010101010101
(0946688470.584273) can0 00000001#E8FF0000E8FF0000
(0946688470.584575) can0 00000002#2EFC00003300EEFF
(0946688470.584719) can0 19B50100#00
(0946688470.585014) can0 19B50100#C5C4C4C4C5C4C4C4
(0946688470.589244) can0 00000103#0101010101010101
(0946688470.594357) can0 00000001#E8FF0000E8FF0000
(0946688470.594662) can0 00000002#2EFC00003300EEFF
(0946688470.598663) can0 19B50101#C4C4C5C4C4C4C4C4
(0946688470.599271) can0 00000103#0101010101010101
(0946688470.604442) can0 00000001#E8FF0000E8FF0000
(0946688470.604730) can0 00000002#2EFC00003300EEFF
(0946688470.609215) can0 00000103#0101010101010101
(0946688470.613650) can0 19B50102#C4C4C4C4C4C6C4C4
(0946688470.614598) can0 00000001#E8FF0000E8FF0000
(0946688470.614884) can0 00000002#2EFC00003300EEFF
(0946688470.619280) can0 00000103#0101010101010101
(0946688470.624673) can0 00000001#E8FF0000E8FF0000
(0946688470.624947) can0 00000002#2EFC00003300EEFF
(0946688470.629292) can0 00000103#0101010101010101
(0946688470.630274) can0 19B50103#C4C5C4C4C5C4C4C4
(0946688470.634787) can0 00000001#E8FF0000E7FF0000
(0946688470.635101) can0 00000002#2FFC00003300EEFF
(0946688470.635539) can0 18FF1515#0000000100010000
(0946688470.639265) can0 00000103#0101010101010101
(0946688470.645042) can0 00000001#E8FF0000E7FF0000
(0946688470.645288) can0 00000002#30FC00003300EEFF
(0946688470.645520) can0 19B50104#C4C4C4C5C4C5C4C5
(0946688470.649192) can0 00000103#0101010101010101
(0946688470.655086) can0 00000001#E8FF0000E7FF0000
(0946688470.655374) can0 00000002#2FFC00003300EEFF
(0946688470.659181) can0 00000103#0101010101010101
(0946688470.665210) can0 00000001#E7FF0000E7FF0000
(0946688470.665491) can0 00000002#2FFC00003300EEFF
(0946688470.669197) can0 00000103#0101010101010101
(0946688470.672341) can0 19B50105#C5C4C4C5C5C5C4C4
(0946688470.675369) can0 00000001#E7FF0000E7FF0000
(0946688470.675642) can0 00000002#2FFC00003300EEFF
(0946688470.679182) can0 00000103#0101010101010101
(0946688470.684029) can0 19B50000#0004000000010060
(0946688470.684619) can0 19B50007#0000002700000000
(0946688470.685191) can0 19B50001#C2C7C494A0000000
(0946688470.685508) can0 00000001#E8FF0000E7FF0000
(0946688470.685789) can0 00000002#2FFC00003300EEFF
(0946688470.686076) can0 19B50002#7D7F7E0000000000
(0946688470.686378) can0 19B50003#0000000000000000
(0946688470.686982) can0 19B50008#7D7E7D0000000000
(0946688470.687800) can0 19B50500#FFFA03E800006464
(0946688470.688932) can0 19B50600#FFFF0CE099990000
(0946688470.689223) can0 00000103#0101010101010101
(0946688470.689501) can0 19B50009#C2C7C4000094A000
(0946688470.696659) can0 00000001#E8FF0000E7FF0000
(0946688470.696974) can0 00000002#30FC00003300EEFF
(0946688470.699222) can0 00000103#0101010101010101
(0946688470.701810) can0 19B50106#C4C5C4C5C5C4C5C4
(0946688470.706759) can0 00000001#E8FF0000E7FF0000
(0946688470.707071) can0 00000002#2FFC00003300EEFF
(0946688470.709194) can0 00000103#0101010101010101
(0946688470.716199) can0 19B50107#C5C5C5C5C5C4C5C4
(0946688470.716924) can0 00000001#E8FF0000E7FF0000
(0946688470.717202) can0 00000002#2FFC00003300EEFF
(0946688470.719203) can0 00000103#0101010101010101
(0946688470.727076) can0 00000001#E8FF0000E7FF0000
(0946688470.727377) can0 00000002#2FFC00003300EEFF
(0946688470.729196) can0 00000103#0101010101010101
(0946688470.734092) can0 19B50108#C2C4C4C4C5C5C4C4
(0946688470.735536) can0 18FF1515#0000000100010000
(0946688470.737183) can0 00000001#E8FF0000E7FF0000
(0946688470.737478) can0 00000002#2FFC00003300EEFF
(0946688470.739280) can0 00000103#0101010101010101
(0946688470.747299) can0 00000001#E8FF0000E7FF0000
(0946688470.747553) can0 00000002#2FFC00003300EEFF
(0946688470.748898) can0 19B50109#C5C4C4C5C4C4C4C4
(0946688470.749223) can0 00000103#0101010101010101
(0946688470.757389) can0 00000001#E8FF0000E8FF0000
(0946688470.757652) can0 00000002#2FFC00003300EEFF
(0946688470.759215) can0 00000103#0101010101010101
(0946688470.767464) can0 00000001#E8FF0000E8FF0000
(0946688470.767731) can0 00000002#2EFC00003300EEFF
(0946688470.769215) can0 00000103#0101010101010101
(0946688470.775906) can0 19B5010A#C4C4C4C4C5C4C4C4
(0946688470.777547) can0 00000001#E8FF0000E8FF0000
(0946688470.777812) can0 00000002#2EFC00003300EEFF
(0946688470.779180) can0 00000103#0101010101010101
(0946688470.786068) can0 00000007#C103810091A10000
(0946688470.787628) can0 00000001#E8FF0000E8FF0000
(0946688470.787929) can0 00000002#2FFC00003300EEFF
(0946688470.789176) can0 00000103#0101010101010101
(0946688470.797767) can0 00000001#E8FF0000E8FF0000
(0946688470.798053) can0 00000002#2FFC00003300EEFF
(0946688470.799187) can0 00000103#0101010101010101
(0946688470.807843) can0 00000001#E8FF0000E7FF0000
(0946688470.808128) can0 00000002#30FC00003300EEFF
(0946688470.809216) can0 00000103#0101010101010101
(0946688470.817948) can0 00000001#E8FF0000E7FF0000
(0946688470.818248) can0 00000002#2FFC00003300EEFF
(0946688470.819176) can0 00000103#0101010101010101
(0946688470.828072) can0 00000001#E8FF0000E8FF0000
(0946688470.828351) can0 00000002#2FFC00003300EEFF
(0946688470.829199) can0 00000103#0101010101010101
(0946688470.835516) can0 18FF1515#0000000100010000
(0946688470.838200) can0 00000001#E8FF0000E7FF0000
(0946688470.839288) can0 00000103#0101010101010101
(0946688470.839807) can0 00000002#2FFC00003300EEFF
(0946688470.848320) can0 00000001#E8FF0000E7FF0000
(0946688470.848663) can0 00000002#2FFC00003300EEFF
(0946688470.849720) can0 00000103#0101010101010101
(0946688470.859200) can0 00000001#E8FF0000E7FF0000
(0946688470.859494) can0 00000002#2FFC00003300EEFF
(0946688470.859774) can0 00000103#0101010101010101
(0946688470.869265) can0 00000103#0101010101010101
(0946688470.869969) can0 00000001#E8FF0000E7FF0000
(0946688470.870262) can0 00000002#2FFC00003300EEFF
(0946688470.870553) can0 19B50000#0004000000010060
(0946688470.870933) can0 19B50007#0000002700000000
(0946688470.871520) can0 19B50001#C2C7C494A0000000
(0946688470.872126) can0 19B50002#7D7F7E0000000000
(0946688470.872926) can0 19B50003#0000000000000000
(0946688470.873543) can0 19B50008#7D7E7D0000000000
(0946688470.874338) can0 19B50500#FFFA03E800006464
(0946688470.875438) can0 19B50600#FFFF0CE099990000
(0946688470.875995) can0 19B50009#C2C7C4000094A000
(0946688470.879240) can0 00000103#0101010101010101
(0946688470.880080) can0 00000001#E8FF0000E7FF0000
(0946688470.880395) can0 00000002#2FFC00003300EEFF
(0946688470.886109) can0 00000008#C1FF
(0946688470.886599) can0 00000009#C100C5C4C4C4C5C4
(0946688470.887866) can0 00000008#C1FF
(0946688470.888337) can0 00000009#C106C4C4C4C4C5C4
(0946688470.889928) can0 00000103#0101010101010101
(0946688470.890306) can0 00000001#E7FF0000E7FF0000
(0946688470.890602) can0 00000002#2FFC00003300EEFF
(0946688470.891905) can0 00000008#C1FF
(0946688470.892375) can0 00000009#C10CC4C4C4C4
(0946688470.900284) can0 00000103#0101010101010101
(0946688470.900574) can0 00000001#E8FF0000E7FF0000
(0946688470.900892) can0 00000002#2FFC00003300EEFF
(0946688470.909228) can0 00000103#0101010101010101
(0946688470.910558) can0 00000001#E7FF0000E7FF0000
(0946688470.910838) can0 00000002#2FFC00003400EEFF
(0946688470.919277) can0 00000103#0101010101010101
(0946688470.920694) can0 00000001#E7FF0000E7FF0000
(0946688470.920992) can0 00000002#2FFC00003400EEFF
(0946688470.929224) can0 00000103#0101010101010101
(0946688470.930772) can0 00000001#E8FF0000E7FF0000
(0946688470.931052) can0 00000002#2FFC00003400EEFF
(0946688470.935529) can0 18FF1515#0000000100010000
(0946688470.937150) can0 0000000C#C1FF
(0946688470.937639) can0 0000000D#C100C4C5C4C4C4C5
(0946688470.939231) can0 00000103#0101010101010101
(0946688470.940891) can0 00000001#E8FF0000E7FF0000
(0946688470.941170) can0 00000002#2FFC00003400EEFF
(0946688470.947548) can0 0000000C#C1FF
(0946688470.948024) can0 0000000D#C106C4C4C4C5C4C4
(0946688470.949228) can0 00000103#0101010101010101
(0946688470.951054) can0 00000001#E8FF0000E7FF0000
(0946688470.951323) can0 00000002#2FFC00003400EEFF
(0946688470.952965) can0 0000000C#C1FF
(0946688470.953453) can0 0000000D#C10CC5C4C4C4
(0946688470.958487) can0 00000010#C1FF
(0946688470.958973) can0 00000011#C100C4C4C4C5C4C5
(0946688470.959245) can0 00000103#0101010101010101
(0946688470.961521) can0 00000001#E8FF0000E7FF0000
(0946688470.961777) can0 00000002#2FFC00003400EEFF
(0946688470.963175) can0 00000010#C1FF
(0946688470.963656) can0 00000011#C106C4C5C5C4C4C5
(0946688470.968701) can0 00000010#C1FF
(0946688470.969145) can0 00000011#C10CC5C5C4C4
(0946688470.969422) can0 00000103#0101010101010101
(0946688470.971598) can0 00000001#E8FF0000E8FF0000
(0946688470.971898) can0 00000002#2FFC00003400EEFF
(0946688470.973088) can0 00000014#C1FF
(0946688470.973557) can0 00000015#C100C4C5C4C5C5C4
(0946688470.978556) can0 00000014#C1FF
(0946688470.979037) can0 00000015#C106C5C4C5C5C4C5
(0946688470.979332) can0 00000103#0101010101010101
(0946688470.981726) can0 00000001#E8FF0000E8FF0000
(0946688470.982022) can0 00000002#2FFC00003400EEFF
(0946688470.982903) can0 00000014#C1FF
(0946688470.983349) can0 00000015#C10CC5C4C5C4
(0946688470.989252) can0 00000103#0101010101010101
(0946688470.991792) can0 00000001#E8FF0000E8FF0000
(0946688470.992105) can0 00000002#2FFC00003400EEFF
(0946688470.999231) can0 00000103#0101010101010101
(0946688471.000322) can0 00000018#C1FF
(0946688471.001327) can0 00000019#C100C2C4C4C4C5C5
(0946688471.001875) can0 00000001#E8FF0000E7FF0000
(0946688471.002185) can0 00000002#2FFC00003400EEFF
(0946688471.006414) can0 00000018#C1FF
(0946688471.006917) can0 00000019#C106C4C4C5C4C4C5
(0946688471.009232) can0 00000103#0101010101010101
(0946688471.011094) can0 00000018#C1FF
(0946688471.011526) can0 00000019#C10CC4C4C4C4
(0946688471.011962) can0 00000001#E8FF0000E7FF0000
(0946688471.012243) can0 00000002#2FFC00003400EEFF
(0946688471.016308) can0 0000001C#C1FF
(0946688471.016767) can0 0000001D#C100C4C5C4C4C5C4
(0946688471.019192) can0 00000103#0101010101010101
(0946688471.021165) can0 0000001C#C1FF
(0946688471.021641) can0 0000001D#C106C4C4C4C4C4C7
(0946688471.022050) can0 00000001#E8FF0000E7FF0000
(0946688471.022348) can0 00000002#2EFC00003400EEFF
(0946688471.026345) can0 0000001C#C1FF
(0946688471.026808) can0 0000001D#C10CC6C4C4C4
(0946688471.029189) can0 00000103#0101010101010101
(0946688471.032153) can0 00000001#E8FF0000E7FF0000
(0946688471.032461) can0 00000002#2EFC00003400EEFF
(0946688471.035513) can0 18FF1515#0000000100010000
(0946688471.039210) can0 00000103#0101010101010101
(0946688471.042278) can0 00000001#E8FF0000E7FF0000
(0946688471.042588) can0 00000002#2FFC00003400EEFF
(0946688471.049226) can0 00000103#0101010101010101
(0946688471.052397) can0 00000001#E8FF0000E7FF0000
(0946688471.052712) can0 00000002#2FFC00003400EEFF
(0946688471.059202) can0 00000103#0101010101010101
(0946688471.062478) can0 00000001#E7FF0000E7FF0000
(0946688471.062749) can0 00000002#2FFC00003400EEFF
(0946688471.069215) can0 00000103#0101010101010101
(0946688471.071773) can0 19B50000#0004000000010060
(0946688471.072528) can0 00000001#E7FF0000E7FF0000
(0946688471.072802) can0 00000002#2FFC00003400EEFF
(0946688471.073143) can0 19B50007#0000002700000000
(0946688471.073523) can0 19B50001#C2C7C494A0000000
(0946688471.074102) can0 19B50002#7D7F7E0000000000
(0946688471.074693) can0 19B50003#0000000000000000
(0946688471.075304) can0 19B50008#7D7E7D0000000000
(0946688471.076093) can0 19B50500#FFFA03E800006464
(0946688471.077209) can0 19B50600#FFFF0CE099990000
(0946688471.077744) can0 19B50009#C2C7C4000094A000
(0946688471.079203) can0 00000103#0101010101010101
(0946688471.082646) can0 00000001#E8FF0000E7FF0000
(0946688471.082952) can0 00000002#2FFC00003400EEFF
(0946688471.089235) can0 00000103#0101010101010101
(0946688471.092711) can0 00000001#E7FF0000E7FF0000
(0946688471.093003) can0 00000002#2FFC00003400EEFF
(0946688471.094056) can0 19B5010B#C4C4C4C7C6C4C4C4
(0946688471.099201) can0 00000103#0101010101010101
(0946688471.102781) can0 00000001#E8FF0000E7FF0000
(0946688471.103119) can0 00000002#2FFC00003400EEFF
(0946688471.109222) can0 00000103#0101010101010101
(0946688471.112912) can0 00000001#E7FF0000E7FF0000
(0946688471.113176) can0 00000002#2FFC00003400EEFF
(0946688471.119227) can0 00000103#0101010101010101
(0946688471.123883) can0 00000001#E8FF0000E7FF0000
(0946688471.124169) can0 00000002#2FFC00003400EEFF
(0946688471.129216) can0 00000103#0101010101010101
(0946688471.134356) can0 00000001#E8FF0000E7FF0000
(0946688471.134689) can0 00000002#2EFC00003400EEFF
(0946688471.135511) can0 18FF1515#0000000100010000
(0946688471.139242) can0 00000103#0101010101010101
(0946688471.144429) can0 00000001#E8FF0000E7FF0000
(0946688471.144715) can0 00000002#2FFC00003400EEFF
(0946688471.149234) can0 00000103#0101010101010101
(0946688471.154570) can0 00000001#E8FF0000E7FF0000
(0946688471.154848) can0 00000002#2FFC00003400EEFF
(0946688471.159235) can0 00000103#0101010101010101
(0946688471.164669) can0 00000001#E8FF0000E8FF0000
(0946688471.164972) can0 00000002#2FFC00003400EEFF
(0946688471.169216) can0 00000103#0101010101010101
(0946688471.174839) can0 00000001#E7FF0000E7FF0000
(0946688471.175078) can0 00000002#2FFC00003400EEFF
(0946688471.179247) can0 00000103#0101010101010101
(0946688471.184885) can0 00000001#E8FF0000E7FF0000
(0946688471.185211) can0 00000002#2FFC00003400EEFF
(0946688471.189224) can0 00000103#0101010101010101
(0946688471.195061) can0 00000001#E8FF0000E8FF0000
(0946688471.195334) can0 00000002#2FFC00003400EEFF
(0946688471.199208) can0 00000103#0101010101010101
(0946688471.205184) can0 00000001#E7FF0000E7FF0000
(0946688471.205472) can0 00000002#2FFC00003400EEFF
(0946688471.209225) can0 00000103#0101010101010101
(0946688471.215275) can0 00000001#E8FF0000E7FF0000
(0946688471.215574) can0 00000002#2FFC00003400EEFF
(0946688471.219232) can0 00000103#0101010101010101
(0946688471.225366) can0 00000001#E7FF0000E8FF0000
(0946688471.225675) can0 00000002#2FFC00003400EEFF
(0946688471.229213) can0 00000103#0101010101010101
(0946688471.235542) can0 18FF1515#0000000100010000
(0946688471.235781) can0 00000001#E8FF0000E7FF0000
(0946688471.236850) can0 00000002#2FFC00003400EEFF
(0946688471.239245) can0 00000103#0101010101010101
(0946688471.246797) can0 00000001#E8FF0000E7FF0000
(0946688471.247184) can0 00000002#2FFC00003400EEFF
(0946688471.249231) can0 00000103#0101010101010101
(0946688471.256889) can0 00000001#E8FF0000E7FF0000
(0946688471.257168) can0 00000002#2EFC00003400EEFF
(0946688471.259244) can0 00000103#0101010101010101
(0946688471.266967) can0 00000001#E8FF0000E7FF0000
(0946688471.267259) can0 00000002#2EFC00003400EEFF
(0946688471.269216) can0 00000103#0101010101010101
(0946688471.274147) can0 19B50000#0004000000010060
(0946688471.274740) can0 19B50007#0000002700000000
(0946688471.275306) can0 19B50001#C2C7C494A0000000
(0946688471.275906) can0 19B50002#7D7F7E0000000000
(0946688471.276483) can0 19B50003#0000000000000000
(0946688471.277065) can0 19B50008#7D7E7D0000000000
(0946688471.277358) can0 00000001#E8FF0000E7FF0000
(0946688471.277611) can0 00000002#2EFC00003400EEFF
(0946688471.278047) can0 19B50500#FFFB03E800006464
(0946688471.279181) can0 19B50600#FFFF0CE099990000
(0946688471.279391) can0 00000103#0101010101010101
(0946688471.279695) can0 19B50009#C2C7C4000094A000
(0946688471.286654) can0 00000007#C203840094A40000
(0946688471.287221) can0 00000001#E8FF0000E7FF0000
(0946688471.287486) can0 00000002#2FFC00003400EEFF
(0946688471.289184) can0 00000103#0101010101010101
(0946688471.297283) can0 00000001#E8FF0000E7FF0000
(0946688471.297545) can0 00000002#2FFC00003400EEFF
(0946688471.299206) can0 00000103#0101010101010101
(0946688471.307356) can0 00000001#E7FF0000E7FF0000
(0946688471.307633) can0 00000002#2FFC00003400EEFF
(0946688471.309223) can0 00000103#0101010101010101
(0946688471.317442) can0 00000001#E7FF0000E7FF0000
(0946688471.317741) can0 00000002#2FFC00003400EEFF
(0946688471.319199) can0 00000103#0101010101010101
(0946688471.327621) can0 00000001#E8FF0000E7FF0000
(0946688471.327881) can0 00000002#2FFC00003400EEFF
(0946688471.329214) can0 00000103#0101010101010101
(0946688471.335562) can0 18FF1515#0000000100010000
(0946688471.337702) can0 00000001#E8FF0000E7FF0000
(0946688471.338039) can0 00000002#2FFC00003400EEFF
(0946688471.339215) can0 00000103#0101010101010101
(0946688471.347844) can0 00000001#E8FF0000E8FF0000
(0946688471.348125) can0 00000002#2FFC00003400EEFF
(0946688471.349214) can0 00000103#0101010101010101
(0946688471.357910) can0 00000001#E8FF0000E8FF0000
(0946688471.358232) can0 00000002#2FFC00003400EEFF
(0946688471.359227) can0 00000103#0101010101010101
(0946688471.368812) can0 00000001#E8FF0000E8FF0000
(0946688471.369114) can0 00000002#2FFC00003400EDFF
(0946688471.369483) can0 00000103#0101010101010101
(0946688471.378923) can0 00000001#E8FF0000E8FF0000
(0946688471.379237) can0 00000002#2FFC00003400EDFF
(0946688471.379514) can0 00000103#0101010101010101
(0946688471.387647) can0 00000008#C2FF
(0946688471.388127) can0 00000009#C2007D7D7D7D7D7D
(0946688471.389010) can0 00000001#E8FF0000E8FF0000
(0946688471.389333) can0 00000002#2FFC00003400EDFF
(0946688471.389604) can0 00000103#0101010101010101
(0946688471.399170) can0 00000001#E8FF0000E8FF0000
(0946688471.399456) can0 00000002#2FFC00003400EDFF
(0946688471.399682) can0 00000103#0101010101010101
(0946688471.403907) can0 00000008#C2FF
(0946688471.404416) can0 00000009#C2067D7D7D7D7D7D
(0946688471.409231) can0 00000103#0101010101010101
(0946688471.409474) can0 00000001#E8FF0000E8FF0000
(0946688471.409789) can0 00000002#2FFC00003400EDFF
(0946688471.409983) can0 00000008#C2FF
(0946688471.410424) can0 00000009#C20C7D7D7D7D
(0946688471.415161) can0 0000000C#C2FF
(0946688471.415634) can0 0000000D#C2007E7E7E7E7E7E
(0946688471.419221) can0 00000103#0101010101010101
(0946688471.419504) can0 00000001#E8FF0000E7FF0000
(0946688471.419767) can0 00000002#2FFC00003400EDFF
(0946688471.419986) can0 0000000C#C2FF
(0946688471.420458) can0 0000000D#C2067E7E7E7E7E7E
(0946688471.425112) can0 0000000C#C2FF
(0946688471.425582) can0 0000000D#C20C7E7E7E7E
(0946688471.429212) can0 00000103#0101010101010101
(0946688471.429493) can0 00000001#E8FF0000E7FF0000
(0946688471.429782) can0 00000002#2EFC00003300EDFF
(0946688471.429970) can0 00000010#C2FF
(0946688471.430482) can0 00000011#C2007E7E7E7E7E7E
(0946688471.435068) can0 00000010#C2FF
(0946688471.435556) can0 18FF1515#0000000100010000
(0946688471.435780) can0 00000011#C2067E7E7E7E7E7E
(0946688471.439217) can0 00000103#0101010101010101
(0946688471.439648) can0 00000001#E8FF0000E8FF0000
(0946688471.439914) can0 00000002#2EFC00003300EDFF
(0946688471.440113) can0 00000010#C2FF
(0946688471.440563) can0 00000011#C20C7E7E7E7E
(0946688471.445422) can0 00000014#C2FF
(0946688471.445911) can0 00000015#C2007F7F7F7F7F7F
(0946688471.449266) can0 00000103#0101010101010101
(0946688471.449598) can0 00000001#E8FF0000E8FF0000
(0946688471.449929) can0 00000002#2FFC00003300EDFF
(0946688471.459196) can0 00000103#0101010101010101
(0946688471.459732) can0 00000001#E8FF0000E8FF0000
(0946688471.460052) can0 00000002#2EFC00003300EDFF
(0946688471.462108) can0 00000014#C2FF
(0946688471.462560) can0 00000015#C2067F7F7F7F7F7F
(0946688471.468743) can0 19B50000#0004000000010060
(0946688471.469190) can0 00000103#0101010101010101
(0946688471.469515) can0 19B50007#0000002700000000
(0946688471.469784) can0 00000001#E8FF0000E8FF0000
(0946688471.470073) can0 00000002#2EFC00003400EDFF
(0946688471.470374) can0 19B50001#C2C7C494A0000000
(0946688471.471023) can0 19B50002#7D7F7E0000000000
(0946688471.471847) can0 19B50003#0000000000000000
(0946688471.472410) can0 19B50008#7D7E7D0000000000
(0946688471.473225) can0 19B50500#FFFB03E800006464
(0946688471.474314) can0 19B50600#FFFF0CE099990000
(0946688471.474906) can0 19B50009#C2C7C4000094A000
(0946688471.479232) can0 00000103#0101010101010101
(0946688471.479910) can0 00000001#E8FF0000E8FF0000
(0946688471.480212) can0 00000002#2FFC00003400EDFF
(0946688471.480480) can0 00000014#C2FF
(0946688471.480941) can0 00000015#C20C7F7F7F7F
(0946688471.489202) can0 00000103#0101010101010101
(0946688471.489387) can0 00000018#C2FF
(0946688471.489902) can0 00000019#C2007D7D7D7D7D7D
(0946688471.490172) can0 00000001#E7FF0000E8FF0000
(0946688471.490462) can0 00000002#2FFC00003400EDFF
(0946688471.494914) can0 00000018#C2FF
(0946688471.495372) can0 00000019#C2067D7D7D7D7D7D
(0946688471.499188) can0 00000103#0101010101010101
(0946688471.499473) can0 00000018#C2FF
(0946688471.499914) can0 00000019#C20C7D7D7D7D
(0946688471.500192) can0 00000001#E7FF0000E8FF0000
(0946688471.500520) can0 00000002#2FFC00003400EDFF
(0946688471.504953) can0 0000001C#C2FF
(0946688471.505425) can0 0000001D#C2007F7F7F7F7F7F
(0946688471.509173) can0 00000103#0101010101010101
(0946688471.509668) can0 0000001C#C2FF
(0946688471.510147) can0 0000001D#C2067F7F7F7F7F7F
(0946688471.510451) can0 00000001#E7FF0000E8FF0000
(0946688471.510729) can0 00000002#30FC00003400EDFF
(0946688471.514974) can0 0000001C#C2FF
(0946688471.515430) can0 0000001D#C20C7F7F7F7F
(0946688471.519192) can0 00000103#0101010101010101
(0946688471.520398) can0 00000001#E7FF0000E8FF0000
(0946688471.520657) can0 00000002#30FC00003400EDFF
(0946688471.529218) can0 00000103#0101010101010101
(0946688471.530491) can0 00000001#E7FF0000E8FF0000
(0946688471.531647) can0 00000002#2FFC00003400EDFF
(0946688471.535524) can0 18FF1515#0000000100010000
(0946688471.539186) can0 00000103#0101010101010101
(0946688471.540603) can0 00000001#E8FF0000E7FF0000
(0946688471.540883) can0 00000002#2FFC00003400EDFF
(0946688471.549191) can0 00000103#0101010101010101
(0946688471.550717) can0 00000001#E8FF0000E7FF0000
(0946688471.550995) can0 00000002#2FFC00003400EDFF
(0946688471.559234) can0 00000103#0101010101010101
(0946688471.560791) can0 00000001#E8FF0000E7FF0000
(0946688471.561115) can0 00000002#2FFC00003400EDFF
(0946688471.569225) can0 00000103#0101010101010101
(0946688471.570887) can0 00000001#E8FF0000E7FF0000
(0946688471.571200) can0 00000002#2FFC00003400EDFF
(0946688471.579229) can0 00000103#0101010101010101
(0946688471.581804) can0 00000001#E8FF0000E7FF0000
(0946688471.582170) can0 00000002#2EFC00003400EDFF
(0946688471.589233) can0 00000103#0101010101010101
(0946688471.591932) can0 00000001#E8FF0000E7FF0000
(0946688471.592232) can0 00000002#2FFC00003400EDFF
(0946688471.599223) can0 00000103#0101010101010101
(0946688471.601811) can0 19B50200#00
(0946688471.602078) can0 00000001#E7FF0000E7FF0000
(0946688471.602383) can0 00000002#30FC00003400EDFF
(0946688471.602674) can0 19B50200#7D7D7D7D7D7D7D7D
(0946688471.609232) can0 00000103#0101010101010101
(0946688471.612115) can0 00000001#E8FF0000E7FF0000
(0946688471.612421) can0 00000002#2FFC00003400EDFF
(0946688471.616662) can0 19B50201#7D7D7D7D7D7D7D7D
(0946688471.619225) can0 00000103#0101010101010101
(0946688471.622226) can0 00000001#E8FF0000E7FF0000
(0946688471.622528) can0 00000002#2FFC00003400EDFF
(0946688471.629217) can0 00000103#0101010101010101
(0946688471.631826) can0 19B50202#7E7E7E7E7E7E7E7E
(0946688471.632340) can0 00000001#E8FF0000E7FF0000
(0946688471.632612) can0 00000002#2FFC00003400EDFF
(0946688471.635538) can0 18FF1515#0000000100010000
(0946688471.639211) can0 00000103#0101010101010101
(0946688471.642420) can0 00000001#E8FF0000E7FF0000
(0946688471.642731) can0 00000002#2FFC00003400EDFF
(0946688471.646563) can0 19B50203#7E7E7E7E7E7E7E7E
(0946688471.649191) can0 00000103#0101010101010101
(0946688471.652510) can0 00000001#E8FF0000E7FF0000
(0946688471.652796) can0 00000002#2FFC00003400EDFF
(0946688471.659204) can0 00000103#0101010101010101
(0946688471.662288) can0 19B50204#7E7E7E7E7E7E7E7E
(0946688471.662637) can0 00000001#E8FF0000E7FF0000
(0946688471.662942) can0 00000002#2FFC00003400EDFF
(0946688471.669226) can0 00000103#0101010101010101
(0946688471.672691) can0 00000001#E8FF0000E7FF0000
(0946688471.673004) can0 00000002#2EFC00003300EDFF
(0946688471.674054) can0 19B50000#0004000000010060
(0946688471.674632) can0 19B50007#0000002700000000
(0946688471.675240) can0 19B50001#C2C7C494A0000000
(0946688471.675798) can0 19B50002#7D7F7E0000000000
(0946688471.676424) can0 19B50003#0000000000000000
(0946688471.676979) can0 19B50008#7D7E7D0000000000
(0946688471.677839) can0 19B50500#FFFA03E800006464
(0946688471.678864) can0 19B50600#FFFF0CE099990000
(0946688471.679198) can0 00000103#0101010101010101
(0946688471.679544) can0 19B50009#C2C7C4000094A000
(0946688471.682784) can0 00000001#E8FF0000E7FF0000
(0946688471.683090) can0 00000002#2EFC00003300EDFF
(0946688471.689194) can0 00000103#0101010101010101
(0946688471.692909) can0 00000001#E8FF0000E7FF0000
(0946688471.693202) can0 00000002#2EFC00003300EDFF
(0946688471.699217) can0 00000103#0101010101010101
(0946688471.701397) can0 19B50205#7E7E7E7E7E7E7E7E
(0946688471.703023) can0 00000001#E8FF0000E7FF0000
(0946688471.703320) can0 00000002#2FFC00003300EDFF
(0946688471.709209) can0 00000103#0101010101010101
(0946688471.713160) can0 00000001#E8FF0000E7FF0000
(0946688471.714442) can0 00000002#2FFC00003300EDFF
(0946688471.719207) can0 00000103#0101010101010101
(0946688471.721059) can0 19B50206#7F7F7F7F7F7F7F7F
(0946688471.723286) can0 00000001#E7FF0000E7FF0000
(0946688471.723553) can0 00000002#2FFC00003400EDFF
(0946688471.729235) can0 00000103#0101010101010101
(0946688471.734051) can0 00000001#E8FF0000E7FF0000
(0946688471.734326) can0 00000002#2EFC00003400EDFF
(0946688471.735532) can0 18FF1515#0000000100010000
(0946688471.735783) can0 19B50207#7F7F7F7F7F7F7F7F
(0946688471.739309) can0 00000103#0101010101010101
(0946688471.744216) can0 00000001#E8FF0000E7FF0000
(0946688471.744464) can0 00000002#2FFC00003400EDFF
(0946688471.749259) can0 00000103#0101010101010101
(0946688471.751213) can0 19B50208#7D7D7D7D7D7D7D7D
(0946688471.754288) can0 00000001#E8FF0000E7FF0000
(0946688471.754591) can0 00000002#2FFC00003400EDFF
(0946688471.759265) can0 00000103#0101010101010101
(0946688471.764516) can0 00000001#E7FF0000E7FF0000
(0946688471.764790) can0 00000002#2FFC00003400EDFF
(0946688471.765941) can0 19B50209#7D7D7D7D7D7D7D7D
(0946688471.769213) can0 00000103#0101010101010101
(0946688471.774627) can0 00000001#E7FF0000E7FF0000
(0946688471.774920) can0 00000002#2FFC00003400EDFF
(0946688471.779283) can0 00000103#0101010101010101
(0946688471.784755) can0 00000001#E8FF0000E7FF0000
(0946688471.785059) can0 00000002#2FFC00003400EDFF
(0946688471.789222) can0 00000103#0101010101010101
(0946688471.792706) can0 19B5020A#7F7F7F7F7F7F7F7F
(0946688471.794876) can0 00000001#E8FF0000E7FF0000
(0946688471.795186) can0 00000002#2FFC00003300EDFF
(0946688471.799260) can0 00000103#0101010101010101
(0946688471.801702) can0 00000007#C303840094A40000
(0946688471.804993) can0 00000001#E8FF0000E8FF0000
(0946688471.805301) can0 00000002#2FFC00003400EDFF
(0946688471.809244) can0 00000103#0101010101010101
(0946688471.815207) can0 00000001#E8FF0000E7FF0000
(0946688471.815460) can0 00000002#2FFC00003400EDFF
(0946688471.819249) can0 00000103#0101010101010101
(0946688471.825279) can0 00000001#E8FF0000E7FF0000
(0946688471.825573) can0 00000002#2FFC00003400EDFF
(0946688471.829246) can0 00000103#0101010101010101
(0946688471.835422) can0 00000001#E8FF0000E8FF0000
(0946688471.835695) can0 00000002#2FFC00003400EDFF
(0946688471.836004) can0 18FF1515#0000000100010000
(0946688471.839286) can0 00000103#0101010101010101
(0946688471.845486) can0 00000001#E8FF0000E8FF0000
(0946688471.845799) can0 00000002#2FFC00003400EDFF
(0946688471.849259) can0 00000103#0101010101010101
(0946688471.855683) can0 00000001#E8FF0000E7FF0000
(0946688471.855949) can0 00000002#2FFC00003400EDFF
(0946688471.859248) can0 00000103#0101010101010101
(0946688471.866754) can0 00000001#E8FF0000E7FF0000
(0946688471.867058) can0 00000002#2FFC00003400EDFF
(0946688471.869232) can0 00000103#0101010101010101
(0946688471.869671) can0 19B50000#0004000000010060
(0946688471.870238) can0 19B50007#0000002700000000
(0946688471.871068) can0 19B50001#C2C7C494A0000000
(0946688471.871662) can0 19B50002#7D7F7E0000000000
(0946688471.872243) can0 19B50003#0000000000000000
(0946688471.872810) can0 19B50008#7D7E7D0000000000
(0946688471.873595) can0 19B50500#FFFA03E800006464
(0946688471.874690) can0 19B50600#FFFF0CE099990000
(0946688471.875278) can0 19B50009#C2C7C4000094A000
(0946688471.876880) can0 00000001#E8FF0000E7FF0000
(0946688471.877149) can0 00000002#2FFC00003400EDFF
(0946688471.879240) can0 00000103#0101010101010101
(0946688471.886940) can0 00000001#E8FF0000E7FF0000
(0946688471.887263) can0 00000002#2FFC00003400EDFF
(0946688471.889226) can0 00000103#0101010101010101
(0946688471.897071) can0 00000001#E8FF0000E7FF0000
(0946688471.897353) can0 00000002#2FFC00003300EDFF
(0946688471.899255) can0 00000103#0101010101010101
(0946688471.904640) can0 00000008#C3FF
(0946688471.905177) can0 00000009#C3007D7D7D7D7D7D
(0946688471.907169) can0 00000001#E8FF0000E7FF0000
(0946688471.907437) can0 00000002#2FFC00003300EDFF
(0946688471.909288) can0 00000103#0101010101010101
(0946688471.917288) can0 00000001#E8FF0000E7FF0000
(0946688471.917575) can0 00000002#2FFC00003300EDFF
(0946688471.919214) can0 00000103#0101010101010101
(0946688471.927431) can0 00000001#E8FF0000E7FF0000
(0946688471.927689) can0 00000002#2FFC00003300EDFF
(0946688471.929225) can0 00000103#0101010101010101
(0946688471.935563) can0 18FF1515#0000000100010000
(0946688471.937523) can0 00000001#E8FF0000E7FF0000
(0946688471.937792) can0 00000002#2FFC00003300EDFF
(0946688471.939318) can0 00000103#0101010101010101
(0946688471.945660) can0 00000008#C3FF
(0946688471.946167) can0 00000009#C3067D7D7D7D7D7D
(0946688471.948222) can0 00000001#E7FF0000E7FF0000
(0946688471.948520) can0 00000002#2FFC00003300EDFF
(0946688471.949271) can0 00000103#0101010101010101
(0946688471.955953) can0 00000008#C3FF
(0946688471.956426) can0 00000009#C30C7D7D7D7D
(0946688471.959280) can0 00000103#0101010101010101
(0946688471.959723) can0 00000001#E8FF0000E7FF0000
(0946688471.960003) can0 00000002#2FFC00003400EDFF
(0946688471.961643) can0 0000000C#C3FF
(0946688471.962168) can0 0000000D#C3007E7E7E7E7E7E
(0946688471.967105) can0 0000000C#C3FF
(0946688471.967591) can0 0000000D#C3067E7E7E7E7E7E
(0946688471.969230) can0 00000103#0101010101010101
(0946688471.969799) can0 00000001#E8FF0000E8FF0000
(0946688471.970106) can0 00000002#2FFC00003400EDFF
(0946688471.971413) can0 0000000C#C3FF
(0946688471.971892) can0 0000000D#C30C7E7E7E7E
(0946688471.976919) can0 00000010#C3FF
(0946688471.977366) can0 00000011#C3007E7E7E7E7E7E
(0946688471.979215) can0 00000103#0101010101010101
(0946688471.979927) can0 00000001#E8FF0000E8FF0000
(0946688471.980216) can0 00000002#2EFC00003400EDFF
(0946688471.981192) can0 00000010#C3FF
(0946688471.981662) can0 00000011#C3067E7E7E7E7E7E
(0946688471.986761) can0 00000010#C3FF
(0946688471.987183) can0 00000011#C30C7E7E7E7E
(0946688471.989264) can0 00000103#0101010101010101
(0946688471.990039) can0 00000001#E8FF0000E8FF0000
(0946688471.990329) can0 00000002#2EFC00003400EDFF
(0946688471.991014) can0 00000014#C3FF
(0946688471.991509) can0 00000015#C3007F7F7F7F7F7F
(0946688471.999233) can0 00000103#0101010101010101
(0946688472.000164) can0 00000001#E8FF0000E8FF0000
(0946688472.000466) can0 00000002#2EFC00003400EDFF
(0946688472.008158) can0 00000014#C3FF
(0946688472.008657) can0 00000015#C3067F7F7F7F7F7F
(0946688472.009254) can0 00000103#0101010101010101
(0946688472.010288) can0 00000001#E8FF0000E8FF0000
(0946688472.010599) can0 00000002#2EFC00003300EDFF
(0946688472.014214) can0 00000014#C3FF
(0946688472.014681) can0 00000015#C30C7F7F7F7F
(0946688472.018864) can0 00000018#C3FF
(0946688472.019255) can0 00000103#0101010101010101
(0946688472.019549) can0 00000019#C3007D7D7D7D7D7D
(0946688472.020410) can0 00000001#E8FF0000E8FF0000
(0946688472.020690) can0 00000002#2FFC00003400EDFF
(0946688472.024209) can0 00000018#C3FF
(0946688472.024718) can0 00000019#C3067D7D7D7D7D7D
(0946688472.028774) can0 00000018#C3FF
(0946688472.029235) can0 00000019#C30C7D7D7D7D
(0946688472.029492) can0 00000103#0101010101010101
(0946688472.030506) can0 00000001#E7FF0000E8FF0000
(0946688472.030795) can0 00000002#2FFC00003400EDFF
(0946688472.033981) can0 0000001C#C3FF
(0946688472.034542) can0 0000001D#C3007F7F7F7F7F7F
(0946688472.035553) can0 18FF1515#0000000100010000
(0946688472.038916) can0 0000001C#C3FF
(0946688472.039277) can0 00000103#0101010101010101
(0946688472.039547) can0 0000001D#C3067F7F7F7F7F7F
(0946688472.040591) can0 00000001#E7FF0000E8FF0000
(0946688472.040890) can0 00000002#2EFC00003400EDFF
(0946688472.044605) can0 0000001C#C3FF
(0946688472.045046) can0 0000001D#C30C7F7F7F7F
(0946688472.049261) can0 00000103#0101010101010101
(0946688472.050818) can0 00000001#E7FF0000E7FF0000
(0946688472.051020) can0 00000002#2FFC00003400EDFF
(0946688472.059241) can0 00000103#0101010101010101
(0946688472.061679) can0 00000001#E8FF0000E7FF0000
(0946688472.061985) can0 00000002#2FFC00003400EDFF
(0946688472.069248) can0 00000103#0101010101010101
(0946688472.071805) can0 00000001#E8FF0000E7FF0000
(0946688472.072102) can0 00000002#30FC00003400EDFF
(0946688472.079243) can0 19B50000#0004000000010060
(0946688472.079534) can0 00000103#0101010101010101
(0946688472.079898) can0 19B50007#0000002700000000
(0946688472.080727) can0 19B50001#C2C7C494A0000000
(0946688472.081323) can0 19B50002#7D7F7E0000000000
(0946688472.081890) can0 19B50003#0000000000000000
(0946688472.082151) can0 00000001#E8FF0000E7FF0000
(0946688472.082466) can0 00000002#2FFC00003400EDFF
(0946688472.082770) can0 19B50008#7D7E7D0000000000
(0946688472.083277) can0 19B50500#FFFB03E800006464
(0946688472.084353) can0 19B50600#FFFF0CE099990000
(0946688472.084926) can0 19B50009#C2C7C4000094A000
(0946688472.089266) can0 00000103#0101010101010101
(0946688472.092005) can0 00000001#E8FF0000E7FF0000
(0946688472.092308) can0 00000002#30FC00003300EDFF
(0946688472.099254) can0 00000103#0101010101010101
(0946688472.102095) can0 00000001#E8FF0000E7FF0000
(0946688472.102380) can0 00000002#30FC00003300EDFF
(0946688472.109292) can0 00000103#0101010101010101
(0946688472.111812) can0 19B5020B#7F7F7F7F7F7F7F7F
(0946688472.112251) can0 00000001#E8FF0000E7FF0000
(0946688472.112512) can0 00000002#2FFC00003300EDFF
(0946688472.119239) can0 00000103#0101010101010101
(0946688472.123820) can0 00000001#E8FF0000E7FF0000
(0946688472.123965) can0 00000002#2FFC00003300EDFF
(0946688472.129277) can0 00000103#0101010101010101
(0946688472.134471) can0 00000001#E8FF0000E8FF0000
(0946688472.134778) can0 00000002#2FFC00003300EDFF
(0946688472.135547) can0 18FF1515#0000000100010000
(0946688472.139233) can0 00000103#0101010101010101
(0946688472.144626) can0 00000001#E8FF0000E7FF0000
(0946688472.144928) can0 00000002#2FFC00003400EDFF
(0946688472.149222) can0 00000103#0101010101010101
(0946688472.154694) can0 00000001#E7FF0000E7FF0000
(0946688472.154989) can0 00000002#2FFC00003400EDFF
(0946688472.159257) can0 00000103#0101010101010101
(0946688472.165000) can0 00000001#E7FF0000E7FF0000
(0946688472.165293) can0 00000002#2FFC00003400EDFF
(0946688472.169209) can0 00000103#0101010101010101
(0946688472.175071) can0 00000001#E8FF0000E7FF0000
(0946688472.175405) can0 00000002#2FFC00003400EDFF
(0946688472.179230) can0 00000103#0101010101010101
(0946688472.185186) can0 00000001#E8FF0000E8FF0000
(0946688472.185463) can0 00000002#30FC00003400EDFF
(0946688472.189231) can0 00000103#0101010101010101
(0946688472.195303) can0 00000001#E8FF0000E8FF0000
(0946688472.195564) can0 00000002#2FFC00003400EDFF
(0946688472.199254) can0 00000103#0101010101010101
(0946688472.205426) can0 00000001#E8FF0000E7FF0000
(0946688472.205731) can0 00000002#2FFC00003400EDFF
(0946688472.209238) can0 00000103#0101010101010101
(0946688472.215546) can0 00000001#E8FF0000E7FF0000
(0946688472.215854) can0 00000002#2FFC00003400EDFF
(0946688472.219247) can0 00000103#0101010101010101
(0946688472.225590) can0 00000001#E8FF0000E7FF0000
(0946688472.226800) can0 00000002#2FFC00003300EDFF
(0946688472.229247) can0 00000103#0101010101010101
(0946688472.235526) can0 18FF1515#0000000100010000
(0946688472.235781) can0 00000001#E8FF0000E7FF0000
(0946688472.236093) can0 00000002#2FFC00003300EDFF
(0946688472.239243) can0 00000103#0101010101010101
(0946688472.247008) can0 00000001#E8FF0000E7FF0000
(0946688472.247301) can0 00000002#2FFC00003300EDFF
(0946688472.249218) can0 00000103#0101010101010101
(0946688472.257139) can0 00000001#E8FF0000E7FF0000
(0946688472.257412) can0 00000002#2EFC00003300EDFF
(0946688472.259263) can0 00000103#0101010101010101
(0946688472.267216) can0 00000001#E8FF0000E7FF0000
(0946688472.267502) can0 00000002#2EFC00003300EDFF
(0946688472.269189) can0 00000103#0101010101010101
(0946688472.277340) can0 00000001#E8FF0000E7FF0000
(0946688472.277631) can0 00000002#2EFC00003300EDFF
(0946688472.277911) can0 19B50000#0004000000010060
(0946688472.278198) can0 19B50007#0000002700000000
(0946688472.278678) can0 19B50001#C2C7C494A0000000
(0946688472.279191) can0 00000103#0101010101010101
(0946688472.279507) can0 19B50002#7D7F7E0000000000
(0946688472.279845) can0 19B50003#0000000000000000
(0946688472.280631) can0 19B50008#7D7E7D0000000000
(0946688472.281470) can0 19B50500#FFFB03E800006464
(0946688472.282554) can0 19B50600#FFFF0CE099990000
(0946688472.283068) can0 19B50009#C2C7C4000094A000
(0946688472.287408) can0 00000001#E8FF0000E7FF0000
(0946688472.287682) can0 00000002#2FFC00003300EDFF
(0946688472.289267) can0 00000103#0101010101010101
(0946688472.297538) can0 00000001#E8FF0000E7FF0000
(0946688472.297818) can0 00000002#2EFC00003300EDFF
(0946688472.299213) can0 00000103#0101010101010101
(0946688472.306067) can0 00000007#C403830093A30000
(0946688472.307590) can0 00000001#E8FF0000E8FF0000
(0946688472.307888) can0 00000002#2EFC00003300EDFF
(0946688472.309164) can0 00000103#0101010101010101
(0946688472.317693) can0 00000001#E7FF0000E7FF0000
(0946688472.317997) can0 00000002#2FFC00003300EDFF
(0946688472.319211) can0 00000103#0101010101010101
(0946688472.327791) can0 00000001#E7FF0000E7FF0000
(0946688472.328080) can0 00000002#2FFC00003300EDFF
(0946688472.329199) can0 00000103#0101010101010101
(0946688472.335530) can0 18FF1515#0000000100010000
(0946688472.337933) can0 00000001#E7FF0000E7FF0000
(0946688472.338231) can0 00000002#2FFC00003300EDFF
(0946688472.339223) can0 00000103#0101010101010101
(0946688472.349005) can0 00000001#E8FF0000E7FF0000
(0946688472.349273) can0 00000002#2FFC00003300EDFF
(0946688472.349549) can0 00000103#0101010101010101
(0946688472.359218) can0 00000103#0101010101010101
(0946688472.359858) can0 00000001#E8FF0000E7FF0000
(0946688472.360150) can0 00000002#2FFC00003300EDFF
(0946688472.369263) can0 00000103#0101010101010101
(0946688472.369986) can0 00000001#E8FF0000E7FF0000
(0946688472.370274) can0 00000002#2FFC00003300EDFF
(0946688472.379247) can0 00000103#0101010101010101
(0946688472.380091) can0 00000001#E8FF0000E7FF0000
(0946688472.380369) can0 00000002#2FFC00003300EDFF
(0946688472.389226) can0 00000103#0101010101010101
(0946688472.390181) can0 00000001#E8FF0000E7FF0000
(0946688472.390490) can0 00000002#2FFC00003300EDFF
(0946688472.399203) can0 00000103#0101010101010101
(0946688472.400316) can0 00000001#E8FF0000E7FF0000
(0946688472.400586) can0 00000002#2FFC00003300EDFF
(0946688472.409260) can0 00000103#0101010101010101
(0946688472.410390) can0 00000001#E8FF0000E7FF0000
(0946688472.410668) can0 00000002#2FFC00003300EDFF
(0946688472.414260) can0 00000008#C4FF
(0946688472.414742) can0 00000009#C400000000000000
(0946688472.418170) can0 00000008#C4FF
(0946688472.418649) can0 00000009#C406000000000000
(0946688472.419209) can0 00000103#0101010101010101
(0946688472.420499) can0 00000001#E8FF0000E7FF0000
(0946688472.420803) can0 00000002#2FFC00003300EDFF
(0946688472.423288) can0 00000008#C4FF
(0946688472.423730) can0 00000009#C40C00000000
(0946688472.427965) can0 0000000C#C4FF
(0946688472.428470) can0 0000000D#C400000000000000
(0946688472.429204) can0 00000103#0101010101010101
(0946688472.430631) can0 00000001#E8FF0000E8FF0000
(0946688472.430918) can0 00000002#2EFC00003300EDFF
(0946688472.433117) can0 0000000C#C4FF
(0946688472.433598) can0 0000000D#C406000000000000
(0946688472.435499) can0 18FF1515#0000000100010000
(0946688472.438021) can0 0000000C#C4FF
(0946688472.438460) can0 0000000D#C40C00000000
(0946688472.439200) can0 00000103#0101010101010101
(0946688472.441898) can0 00000001#E8FF0000E7FF0000
(0946688472.442222) can0 00000002#2FFC00003300EDFF
(0946688472.443367) can0 00000010#C4FF
(0946688472.443887) can0 00000011#C400000000000000
(0946688472.448143) can0 00000010#C4FF
(0946688472.448680) can0 00000011#C406000000000000
(0946688472.449218) can0 00000103#0101010101010101
(0946688472.452125) can0 00000001#E8FF0000E7FF0000
(0946688472.452395) can0 00000002#2FFC00003300EDFF
(0946688472.453282) can0 00000010#C4FF
(0946688472.453754) can0 00000011#C40C00000000
(0946688472.459194) can0 00000103#0101010101010101
(0946688472.462215) can0 00000001#E8FF0000E7FF0000
(0946688472.462474) can0 00000002#2FFC00003300EDFF
(0946688472.469216) can0 00000103#0101010101010101
(0946688472.470244) can0 00000014#C4FF
(0946688472.470734) can0 00000015#C400000000000000
(0946688472.472297) can0 00000001#E8FF0000E7FF0000
(0946688472.472587) can0 00000002#2FFC00003300EDFF
(0946688472.476545) can0 19B50000#0004000000010060
(0946688472.477086) can0 19B50007#0000002700000000
(0946688472.477720) can0 19B50001#C2C7C494A0000000
(0946688472.478255) can0 19B50002#7D7F7E0000000000
(0946688472.478867) can0 19B50003#0000000000000000
(0946688472.479207) can0 00000103#0101010101010101
(0946688472.479516) can0 19B50008#7D7E7D0000000000
(0946688472.480644) can0 19B50500#FFFB03E800006464
(0946688472.481641) can0 19B50600#FFFF0CE099990000
(0946688472.482290) can0 19B50009#C2C7C4000094A000
(0946688472.482587) can0 00000001#E8FF0000E7FF0000
(0946688472.482888) can0 00000002#2FFC00003300EDFF
(0946688472.488123) can0 00000014#C4FF
(0946688472.488663) can0 00000015#C406000000000000
(0946688472.489183) can0 00000103#0101010101010101
(0946688472.492534) can0 00000001#E8FF0000E7FF0000
(0946688472.492812) can0 00000002#2FFC00003300EDFF
(0946688472.497140) can0 00000014#C4FF
(0946688472.497576) can0 00000015#C40C00000000
(0946688472.499194) can0 00000103#0101010101010101
(0946688472.502655) can0 00000001#E8FF0000E7FF0000
(0946688472.502940) can0 00000002#2FFC00003300EDFF
(0946688472.503168) can0 00000018#C4FF
(0946688472.503623) can0 00000019#C400000000000000
(0946688472.507909) can0 00000018#C4FF
(0946688472.508388) can0 00000019#C406000000000000
(0946688472.509259) can0 00000103#0101010101010101
(0946688472.512759) can0 00000018#C4FF
(0946688472.513013) can0 00000001#E8FF0000E7FF0000
(0946688472.513341) can0 00000002#2FFC00003300EDFF
(0946688472.519321) can0 00000103#0101010101010101
(0946688472.522997) can0 00000001#E8FF0000E7FF0000
(0946688472.523290) can0 00000002#2FFC00003300EDFF
(0946688472.529241) can0 00000103#0101010101010101
(0946688472.533046) can0 00000001#E8FF0000E7FF0000
(0946688472.533366) can0 00000002#2FFC00003300EDFF
(0946688472.535549) can0 18FF1515#0000000100010000
(0946688472.539303) can0 00000103#0101010101010101
(0946688472.543200) can0 00000001#E8FF0000E7FF0000
(0946688472.543462) can0 00000002#2FFC00003300EDFF
(0946688472.549264) can0 00000103#0101010101010101
(0946688472.554217) can0 00000001#E7FF0000E7FF0000
(0946688472.554476) can0 00000002#2FFC00003300EDFF
(0946688472.559238) can0 00000103#0101010101010101
(0946688472.564343) can0 00000001#E7FF0000E7FF0000
(0946688472.564606) can0 00000002#2FFC00003300EDFF
(0946688472.569250) can0 00000103#0101010101010101
(0946688472.574423) can0 00000001#E7FF0000E7FF0000
(0946688472.574725) can0 00000002#2FFC00003300EDFF
(0946688472.579210) can0 00000103#0101010101010101
(0946688472.584539) can0 00000001#E7FF0000E7FF0000
(0946688472.584816) can0 00000002#2FFC00003300EDFF
(0946688472.589199) can0 00000103#0101010101010101
(0946688472.594661) can0 00000001#E8FF0000E7FF0000
(0946688472.594927) can0 00000002#2FFC00003300EDFF
(0946688472.599215) can0 00000103#0101010101010101
(0946688472.604708) can0 00000001#E8FF0000E8FF0000
(0946688472.605006) can0 00000002#2FFC00003300EDFF
(0946688472.609233) can0 00000103#0101010101010101
(0946688472.614805) can0 00000001#E8FF0000E8FF0000
(0946688472.615160) can0 00000002#2FFC00003300EDFF
(0946688472.619195) can0 00000103#0101010101010101
(0946688472.624945) can0 00000001#E8FF0000E8FF0000
(0946688472.625249) can0 00000002#2FFC00003300EDFF
(0946688472.629246) can0 00000103#0101010101010101
(0946688472.635050) can0 00000001#E8FF0000E8FF0000
(0946688472.635321) can0 00000002#2FFC00003300EDFF
(0946688472.635640) can0 18FF1515#0000000100010000
(0946688472.639253) can0 00000103#0101010101010101
(0946688472.645139) can0 00000001#E8FF0000E8FF0000
(0946688472.645431) can0 00000002#2FFC00003300EDFF
(0946688472.649226) can0 00000103#0101010101010101
(0946688472.655361) can0 00000001#E7FF0000E8FF0000
(0946688472.655637) can0 00000002#2FFC00003300EDFF
