(0946688495.943629) can0 00000001#E4FF000009000000
(0946688495.943899) can0 00000002#2FFC0000FDFF0000
(0946688495.947175) can0 00000103#0101010101010101
(0946688495.953707) can0 00000001#E3FF000009000000
(0946688495.953987) can0 00000002#2FFC0000FDFF0000
(0946688495.957196) can0 00000103#0101010101010101
(0946688495.957714) can0 18FF1515#0000000100010000
(0946688495.963781) can0 00000001#E3FF000009000000
(0946688495.964090) can0 00000002#2FFC0000FEFF0000
(0946688495.967185) can0 00000103#0101010101010101
(0946688495.973867) can0 00000001#E3FF000009000000
(0946688495.974168) can0 00000002#2FFC0000FDFF0000
(0946688495.977206) can0 00000103#0101010101010101
(0946688495.983946) can0 00000001#E3FF000009000000
(0946688495.984248) can0 00000002#2FFC0000FDFF0000
(0946688495.987217) can0 00000103#0101010101010101
(0946688495.994006) can0 00000001#E3FF000009000000
(0946688495.994282) can0 00000002#2FFC0000FDFF0000
(0946688495.997195) can0 00000103#0101010101010101
(0946688496.004109) can0 00000001#E4FF000009000000
(0946688496.004383) can0 00000002#2FFC0000FEFF0000
(0946688496.007178) can0 00000103#0101010101010101
(0946688496.014186) can0 00000001#E4FF000009000000
(0946688496.014478) can0 00000002#2FFC0000FDFF0000
(0946688496.017215) can0 00000103#0101010101010101
(0946688496.024267) can0 00000001#E4FF000009000000
(0946688496.024547) can0 00000002#2FFC0000FDFF0000
(0946688496.027181) can0 00000103#0101010101010101
(0946688496.031567) can0 00000303#0000
(0946688496.034440) can0 00000001#E3FF000009000000
(0946688496.034726) can0 00000002#2FFC0000FEFF0000
(0946688496.037199) can0 00000103#0101010101010101
(0946688496.039772) can0 19B50000#0004000000010060
(0946688496.040420) can0 19B50007#0000002700000000
(0946688496.040947) can0 19B50001#B6BBB78FFE000000
(0946688496.041512) can0 19B50002#7678770000000000
(0946688496.042107) can0 19B50003#0000000000000000
(0946688496.042691) can0 19B50008#787A790000000000
(0946688496.043590) can0 19B50500#0000001A00002664
(0946688496.044503) can0 00000001#E3FF000009000000
(0946688496.044805) can0 00000002#2FFC0000FEFF0000
(0946688496.045087) can0 19B50600#FFFF005199990000
(0946688496.045468) can0 19B50009#B6BBB700008FFE00
(0946688496.047193) can0 00000103#0101010101010101
(0946688496.054618) can0 00000001#E3FF000009000000
(0946688496.054887) can0 00000002#2FFC0000FDFF0000
(0946688496.056547) can0 00000303#0000
(0946688496.057230) can0 00000103#0101010101010101
(0946688496.057682) can0 18FF1515#0000000100010000
(0946688496.064704) can0 00000001#E4FF000009000000
(0946688496.065004) can0 00000002#2FFC0000FEFF0000
(0946688496.067190) can0 00000103#0101010101010101
(0946688496.074778) can0 00000001#E3FF000008000000
(0946688496.075083) can0 00000002#2FFC0000FEFF0000
(0946688496.077171) can0 00000103#0101010101010101
(0946688496.078535) can0 00000007#1C03840094A40000
(0946688496.084860) can0 00000001#E3FF000008000000
(0946688496.085159) can0 00000002#2FFC0000FDFF0000
(0946688496.087167) can0 00000103#0101010101010101
(0946688496.094982) can0 00000001#E3FF000008000000
(0946688496.095278) can0 00000002#2FFC0000FDFF0000
(0946688496.097198) can0 00000103#0101010101010101
(0946688496.105843) can0 00000001#E3FF000008000000
(0946688496.106145) can0 00000002#2FFC0000FDFF0000
(0946688496.107190) can0 00000103#0101010101010101
(0946688496.115964) can0 00000001#E3FF000008000000
(0946688496.116236) can0 00000002#2FFC0000FDFF0000
(0946688496.117182) can0 00000103#0101010101010101
(0946688496.126036) can0 00000001#E4FF000009000000
(0946688496.126291) can0 00000002#2FFC0000FDFF0000
(0946688496.127173) can0 00000103#0101010101010101
(0946688496.136117) can0 00000001#E4FF000009000000
(0946688496.136402) can0 00000002#2FFC0000FDFF0000
(0946688496.137166) can0 00000103#0101010101010101
(0946688496.146245) can0 00000001#E4FF000009000000
(0946688496.146540) can0 00000002#2FFC0000FDFF0000
(0946688496.147198) can0 00000103#0101010101010101
(0946688496.156368) can0 00000001#E4FF000009000000
(0946688496.156647) can0 00000002#2FFC0000FDFF0000
(0946688496.157173) can0 00000103#0101010101010101
(0946688496.157458) can0 00000303#0000
(0946688496.157730) can0 18FF1515#0000000100010000
(0946688496.166434) can0 00000001#E4FF000009000000
(0946688496.166730) can0 00000002#2FFC0000FDFF0000
(0946688496.167192) can0 00000103#0101010101010101
(0946688496.176530) can0 00000001#E4FF000009000000
(0946688496.176823) can0 00000002#2FFC0000FDFF0000
(0946688496.177174) can0 00000103#0101010101010101
(0946688496.178018) can0 00000018#1CFF
(0946688496.178501) can0 00000019#1C00767676767676
(0946688496.186642) can0 00000001#E4FF000009000000
(0946688496.186908) can0 00000002#2FFC0000FDFF0000
(0946688496.187222) can0 00000103#0101010101010101
(0946688496.188395) can0 00000303#0000
(0946688496.193502) can0 00000018#1CFF
(0946688496.193944) can0 00000019#1C06767676767676
(0946688496.196741) can0 00000001#E4FF000009000000
(0946688496.197020) can0 00000002#2FFC0000FDFF0000
(0946688496.197395) can0 00000103#0101010101010101
(0946688496.199871) can0 00000018#1CFF
(0946688496.200299) can0 00000019#1C0C76767676
(0946688496.204481) can0 0000001C#1CFF
(0946688496.204943) can0 0000001D#1C00787878787878
(0946688496.206812) can0 00000001#E4FF000009000000
(0946688496.207135) can0 00000002#2FFC0000FDFF0000
(0946688496.207387) can0 00000103#0101010101010101
(0946688496.209941) can0 0000001C#1CFF
(0946688496.210416) can0 0000001D#1C06787878787878
(0946688496.214592) can0 0000001C#1CFF
(0946688496.215064) can0 0000001D#1C0C78787878
(0946688496.216920) can0 00000001#E4FF000009000000
(0946688496.217202) can0 00000002#2FFC0000FDFF0000
(0946688496.217505) can0 00000103#0101010101010101
(0946688496.226997) can0 00000001#E4FF000009000000
(0946688496.227292) can0 00000002#2FFC0000FDFF0000
(0946688496.227578) can0 00000103#0101010101010101
(0946688496.233557) can0 19B50000#0004000000010060
(0946688496.234345) can0 19B50007#0000002700000000
(0946688496.234963) can0 19B50001#B6BBB78FFE000000
(0946688496.235483) can0 19B50002#7678770000000000
(0946688496.236073) can0 19B50003#0000000000000000
(0946688496.236685) can0 19B50008#787A790000000000
(0946688496.237114) can0 00000001#E4FF000009000000
(0946688496.237403) can0 00000002#2FFC0000FDFF0000
(0946688496.237696) can0 00000103#0101010101010101
(0946688496.238004) can0 19B50500#0000001A00002664
(0946688496.238670) can0 19B50600#FFFF005199990000
(0946688496.239260) can0 19B50009#B6BBB700008FFE00
(0946688496.247222) can0 00000103#0101010101010101
(0946688496.247501) can0 00000001#E4FF000009000000
(0946688496.247815) can0 00000002#2FFC0000FDFF0000
(0946688496.257200) can0 00000103#0101010101010101
(0946688496.257522) can0 00000001#E4FF000009000000
(0946688496.257808) can0 00000002#2FFC0000FDFF0000
(0946688496.258117) can0 18FF1515#0000000100010000
(0946688496.267197) can0 00000103#0101010101010101
(0946688496.267497) can0 00000001#E4FF000008000000
(0946688496.267803) can0 00000002#2EFC0000FDFF0000
(0946688496.277190) can0 00000103#0101010101010101
(0946688496.277497) can0 00000001#E4FF000009000000
(0946688496.277808) can0 00000002#2EFC0000FDFF0000
(0946688496.284294) can0 00000303#0000
(0946688496.287206) can0 00000103#0101010101010101
(0946688496.288371) can0 00000001#E4FF000009000000
(0946688496.288650) can0 00000002#2FFC0000FDFF0000
(0946688496.294247) can0 19B50200#00
(0946688496.294830) can0 19B50200#7676767676767676
(0946688496.297200) can0 00000103#0101010101010101
(0946688496.298456) can0 00000001#E4FF000008000000
(0946688496.298769) can0 00000002#2FFC0000FDFF0000
(0946688496.307167) can0 00000103#0101010101010101
(0946688496.308578) can0 00000001#E4FF000009000000
(0946688496.308884) can0 00000002#2FFC0000FDFF0000
(0946688496.309648) can0 19B50201#7676767676767676
(0946688496.315249) can0 00000303#0000
(0946688496.317188) can0 00000103#0101010101010101
(0946688496.318670) can0 00000001#E4FF000009000000
(0946688496.318966) can0 00000002#2FFC0000FDFF0000
(0946688496.324706) can0 19B50202#7777777777777777
(0946688496.327186) can0 00000103#0101010101010101
(0946688496.328783) can0 00000001#E3FF000009000000
(0946688496.329085) can0 00000002#2FFC0000FDFF0000
(0946688496.337212) can0 00000103#0101010101010101
(0946688496.338902) can0 00000001#E4FF000009000000
(0946688496.339165) can0 00000002#2FFC0000FDFF0000
(0946688496.347196) can0 00000103#0101010101010101
(0946688496.348991) can0 00000001#E4FF000009000000
(0946688496.349271) can0 00000002#2FFC0000FDFF0000
(0946688496.350841) can0 19B50203#7777777777777777
(0946688496.357193) can0 00000103#0101010101010101
(0946688496.357683) can0 18FF1515#0000000100010000
(0946688496.359153) can0 00000001#E4FF000008000000
(0946688496.359436) can0 00000002#2FFC0000FDFF0000
(0946688496.367190) can0 00000103#0101010101010101
(0946688496.369149) can0 19B50204#7777777777777777
(0946688496.369423) can0 00000001#E4FF000009000000
(0946688496.369712) can0 00000002#2FFC0000FDFF0000
(0946688496.377184) can0 00000103#0101010101010101
(0946688496.379322) can0 00000001#E4FF000009000000
(0946688496.379614) can0 00000002#2FFC0000FDFF0000
(0946688496.385149) can0 19B50205#7777777777777777
(0946688496.387209) can0 00000103#0101010101010101
(0946688496.389431) can0 00000001#E4FF000009000000
(0946688496.389733) can0 00000002#2FFC0000FDFF0000
(0946688496.397211) can0 00000103#0101010101010101
(0946688496.399476) can0 19B50206#7878787878787878
(0946688496.399765) can0 00000001#E4FF000009000000
(0946688496.400077) can0 00000002#2FFC0000FDFF0000
(0946688496.407190) can0 00000103#0101010101010101
(0946688496.409153) can0 00000303#0000
(0946688496.409668) can0 00000001#E4FF000009000000
(0946688496.409947) can0 00000002#2FFC0000FDFF0000
(0946688496.415204) can0 19B50207#7878787878787878
(0946688496.417193) can0 00000103#0101010101010101
(0946688496.419771) can0 00000001#E4FF000009000000
(0946688496.420096) can0 00000002#2FFC0000FDFF0000
(0946688496.427221) can0 00000103#0101010101010101
(0946688496.429876) can0 00000001#E3FF000008000000
(0946688496.430157) can0 00000002#2FFC0000FDFF0000
(0946688496.437209) can0 00000103#0101010101010101
(0946688496.440136) can0 00000303#0000
(0946688496.440731) can0 00000001#E4FF000009000000
(0946688496.441013) can0 00000002#2FFC0000FDFF0000
(0946688496.441697) can0 19B50208#7676767676767676
(0946688496.447204) can0 00000103#0101010101010101
(0946688496.450982) can0 00000001#E3FF000009000000
(0946688496.451210) can0 00000002#2FFC0000FDFF0000
(0946688496.453030) can0 19B50000#0004000000010060
(0946688496.453824) can0 19B50007#0000002700000000
(0946688496.454386) can0 19B50001#B6BBB78FFE000000
(0946688496.454952) can0 19B50002#7678770000000000
(0946688496.455603) can0 19B50003#0000000000000000
(0946688496.456204) can0 19B50008#787A790000000000
(0946688496.457036) can0 19B50500#0000001A00002664
(0946688496.457294) can0 00000103#0101010101010101
(0946688496.457732) can0 18FF1515#0000000100010000
(0946688496.458451) can0 19B50600#FFFF005199990000
(0946688496.459026) can0 19B50009#B6BBB700008FFE00
(0946688496.461029) can0 00000001#E3FF000008000000
(0946688496.461259) can0 00000002#2FFC0000FDFF0000
(0946688496.467195) can0 00000103#0101010101010101
(0946688496.469801) can0 19B50209#7676767676767676
(0946688496.471149) can0 00000001#E3FF000009000000
(0946688496.471415) can0 00000002#2FFC0000FDFF0000
(0946688496.477198) can0 00000103#0101010101010101
(0946688496.481216) can0 00000001#E3FF000009000000
(0946688496.481480) can0 00000002#2FFC0000FDFF0000
(0946688496.487224) can0 00000103#0101010101010101
(0946688496.488701) can0 19B5020A#7878787878787878
(0946688496.491279) can0 00000001#E4FF000008000000
(0946688496.491612) can0 00000002#2FFC0000FDFF0000
(0946688496.497202) can0 00000103#0101010101010101
(0946688496.498268) can0 00000007#1D03840094A40000
(0946688496.501388) can0 00000001#E4FF000008000000
(0946688496.501679) can0 00000002#2FFC0000FDFF0000
(0946688496.507180) can0 00000103#0101010101010101
(0946688496.511458) can0 00000001#E4FF000008000000
(0946688496.511756) can0 00000002#2FFC0000FDFF0000
(0946688496.517239) can0 00000103#0101010101010101
(0946688496.521536) can0 00000001#E4FF000009000000
(0946688496.521829) can0 00000002#2FFC0000FDFF0000
(0946688496.527222) can0 00000103#0101010101010101
(0946688496.531621) can0 00000001#E4FF000009000000
(0946688496.531913) can0 00000002#2FFC0000FDFF0000
(0946688496.535015) can0 00000303#0000
(0946688496.537213) can0 00000103#0101010101010101
(0946688496.541735) can0 00000001#E4FF000009000000
(0946688496.542033) can0 00000002#2FFC0000FDFF0000
(0946688496.547208) can0 00000103#0101010101010101
(0946688496.551822) can0 00000001#E4FF000009000000
(0946688496.552118) can0 00000002#2FFC0000FDFF0000
(0946688496.557213) can0 00000103#0101010101010101
(0946688496.557693) can0 18FF1515#0000000100010000
(0946688496.561950) can0 00000001#E4FF000009000000
(0946688496.562263) can0 00000002#2FFC0000FDFF0000
(0946688496.565984) can0 00000303#0000
(0946688496.567177) can0 00000103#0101010101010101
(0946688496.572028) can0 00000001#E4FF000009000000
(0946688496.572393) can0 00000002#2FFC0000FDFF0000
(0946688496.577238) can0 00000103#0101010101010101
(0946688496.582137) can0 00000001#E4FF000009000000
(0946688496.582442) can0 00000002#2FFC0000FDFF0000
(0946688496.587216) can0 00000103#0101010101010101
(0946688496.592250) can0 00000001#E5FF000009000000
(0946688496.592527) can0 00000002#2FFC0000FDFF0000
(0946688496.597209) can0 00000103#0101010101010101
(0946688496.598575) can0 00000008#1DFF
(0946688496.599049) can0 00000009#1D00767676767676
(0946688496.600481) can0 00000008#1DFF
(0946688496.600959) can0 00000009#1D06767676767676
(0946688496.602337) can0 00000001#E4FF000009000000
(0946688496.602613) can0 00000002#2FFC0000FDFF0000
(0946688496.605630) can0 00000008#1DFF
(0946688496.606039) can0 00000009#1D0C76767676
(0946688496.607198) can0 00000103#0101010101010101
(0946688496.610274) can0 0000000C#1DFF
(0946688496.610797) can0 0000000D#1D00777777777777
(0946688496.612454) can0 00000001#E4FF000008000000
(0946688496.612722) can0 00000002#2FFC0000FDFF0000
(0946688496.615462) can0 0000000C#1DFF
(0946688496.615944) can0 0000000D#1D06777777777777
(0946688496.617167) can0 00000103#0101010101010101
(0946688496.620151) can0 0000000C#1DFF
(0946688496.620588) can0 0000000D#1D0C77777777
(0946688496.622536) can0 00000001#E4FF000009000000
(0946688496.623412) can0 00000002#2FFC0000FDFF0000
(0946688496.625939) can0 00000010#1DFF
(0946688496.626400) can0 00000011#1D00777777777777
(0946688496.627203) can0 00000103#0101010101010101
(0946688496.631792) can0 19B50000#0004000000010060
(0946688496.632392) can0 19B50007#0000002700000000
(0946688496.632652) can0 00000001#E4FF000009000000
(0946688496.632941) can0 00000002#2FFC0000FDFF0000
(0946688496.633228) can0 19B50001#B6BBB78FFE000000
(0946688496.633708) can0 19B50002#7678770000000000
(0946688496.634260) can0 19B50003#0000000000000000
(0946688496.634925) can0 19B50008#787A790000000000
(0946688496.635803) can0 19B50500#0000001A00002664
(0946688496.636878) can0 19B50600#FFFF005199990000
(0946688496.637183) can0 00000103#0101010101010101
(0946688496.637565) can0 19B50009#B6BBB700008FFE00
(0946688496.642782) can0 00000001#E4FF000009000000
(0946688496.643034) can0 00000002#2FFC0000FDFF0000
(0946688496.643649) can0 00000010#1DFF
(0946688496.644092) can0 00000011#1D06777777777777
(0946688496.647213) can0 00000103#0101010101010101
(0946688496.653418) can0 00000001#E4FF000009000000
(0946688496.653721) can0 00000002#2FFC0000FDFF0000
(0946688496.657196) can0 00000103#0101010101010101
(0946688496.657692) can0 18FF1515#0000000100010000
(0946688496.661554) can0 00000010#1DFF
(0946688496.661875) can0 00000303#0000
(0946688496.662147) can0 00000011#1D0C77777777
(0946688496.663556) can0 00000001#E4FF000009000000
(0946688496.663848) can0 00000002#2FFC0000FDFF0000
(0946688496.667197) can0 00000103#0101010101010101
(0946688496.668596) can0 00000014#1DFF
(0946688496.669077) can0 00000015#1D00787878787878
(0946688496.673200) can0 00000014#1DFF
(0946688496.673637) can0 00000001#E4FF000009000000
(0946688496.673929) can0 00000002#2FFC0000FDFF0000
(0946688496.677187) can0 00000103#0101010101010101
(0946688496.683743) can0 00000001#E4FF000009000000
(0946688496.684010) can0 00000002#2FFC0000FDFF0000
(0946688496.687184) can0 00000103#0101010101010101
(0946688496.692825) can0 00000303#0000
(0946688496.693804) can0 00000001#E4FF000009000000
(0946688496.694124) can0 00000002#2FFC0000FDFF0000
(0946688496.697181) can0 00000103#0101010101010101
(0946688496.703920) can0 00000001#E4FF000009000000
(0946688496.704246) can0 00000002#2FFC0000FDFF0000
(0946688496.707196) can0 00000103#0101010101010101
(0946688496.713998) can0 00000001#E4FF000009000000
(0946688496.714280) can0 00000002#2FFC0000FDFF0000
(0946688496.717192) can0 00000103#0101010101010101
(0946688496.724114) can0 00000001#E4FF000008000000
(0946688496.724387) can0 00000002#2FFC0000FDFF0000
(0946688496.727180) can0 00000103#0101010101010101
(0946688496.734163) can0 00000001#E4FF000009000000
(0946688496.734506) can0 00000002#2FFC0000FDFF0000
(0946688496.737185) can0 00000103#0101010101010101
(0946688496.744268) can0 00000001#E4FF000009000000
(0946688496.744547) can0 00000002#2FFC0000FDFF0000
(0946688496.747217) can0 00000103#0101010101010101
(0946688496.754381) can0 00000001#E4FF000009000000
(0946688496.754692) can0 00000002#2FFC0000FDFF0000
(0946688496.757199) can0 00000103#0101010101010101
(0946688496.757724) can0 18FF1515#0000000100010000
(0946688496.764502) can0 00000001#E4FF000009000000
(0946688496.764770) can0 00000002#2FFC0000FDFF0000
(0946688496.767299) can0 00000103#0101010101010101
(0946688496.774576) can0 00000001#E4FF000009000000
(0946688496.774881) can0 00000002#2FFC0000FDFF0000
(0946688496.777194) can0 00000103#0101010101010101
(0946688496.784700) can0 00000001#E4FF000009000000
(0946688496.784965) can0 00000002#2FFC0000FCFF0000
(0946688496.786795) can0 00000303#0000
(0946688496.787222) can0 00000103#0101010101010101
(0946688496.794782) can0 00000001#E4FF000009000000
(0946688496.795056) can0 00000002#2FFC0000FCFF0000
(0946688496.797223) can0 00000103#0101010101010101
(0946688496.804859) can0 00000001#E3FF000008000000
(0946688496.805156) can0 00000002#2FFC0000FCFF0000
(0946688496.807210) can0 00000103#0101010101010101
(0946688496.814921) can0 00000001#E3FF000009000000
(0946688496.815248) can0 00000002#2FFC0000FCFF0000
(0946688496.817207) can0 00000103#0101010101010101
(0946688496.817678) can0 00000303#0000
(0946688496.825748) can0 00000001#E4FF000009000000
(0946688496.826021) can0 00000002#2FFC0000FCFF0000
(0946688496.827206) can0 00000103#0101010101010101
(0946688496.828761) can0 19B50000#0004000000010060
(0946688496.829326) can0 19B50007#0000002700000000
(0946688496.829984) can0 19B50001#B6BBB78FFE000000
(0946688496.830546) can0 19B50002#7678770000000000
(0946688496.831151) can0 19B50003#0000000000000000
(0946688496.831707) can0 19B50008#787A790000000000
(0946688496.832586) can0 19B50500#0000001A00002664
(0946688496.833844) can0 19B50600#FFFF005199990000
(0946688496.834405) can0 19B50009#B6BBB700008FFE00
(0946688496.835812) can0 00000001#E4FF000009000000
(0946688496.836133) can0 00000002#2FFC0000FCFF0000
(0946688496.837222) can0 00000103#0101010101010101
(0946688496.846037) can0 00000001#E4FF000008000000
(0946688496.846301) can0 00000002#2FFC0000FCFF0000
(0946688496.847192) can0 00000103#0101010101010101
(0946688496.856125) can0 00000001#E4FF000009000000
(0946688496.856401) can0 00000002#2FFC0000FCFF0000
(0946688496.857249) can0 00000103#0101010101010101
(0946688496.857699) can0 18FF1515#0000000100010000
(0946688496.866209) can0 00000001#E4FF000008000000
(0946688496.866503) can0 00000002#2FFC0000FCFF0000
(0946688496.867215) can0 00000103#0101010101010101
(0946688496.876283) can0 00000001#E4FF000008000000
(0946688496.876590) can0 00000002#2FFC0000FCFF0000
(0946688496.877202) can0 00000103#0101010101010101
(0946688496.886408) can0 00000001#E4FF000009000000
(0946688496.886704) can0 00000002#2FFC0000FCFF0000
(0946688496.887271) can0 00000103#0101010101010101
(0946688496.896522) can0 00000001#E4FF000009000000
(0946688496.896822) can0 00000002#2FFC0000FCFF0000
(0946688496.897264) can0 00000103#0101010101010101
(0946688496.906612) can0 00000001#E4FF000009000000
(0946688496.906880) can0 00000002#2FFC0000FCFF0000
(0946688496.907209) can0 00000103#0101010101010101
(0946688496.916684) can0 00000001#E4FF000009000000
(0946688496.916979) can0 00000002#2FFC0000FCFF0000
(0946688496.917273) can0 00000103#0101010101010101
(0946688496.918582) can0 00000303#0000
(0946688496.926785) can0 00000001#E4FF000009000000
(0946688496.927116) can0 00000002#2FFC0000FCFF0000
(0946688496.927382) can0 00000103#0101010101010101
(0946688496.936872) can0 00000001#E4FF000009000000
(0946688496.937180) can0 00000002#2FFC0000FCFF0000
(0946688496.937500) can0 00000103#0101010101010101
(0946688496.943575) can0 00000303#0000
(0946688496.947001) can0 00000001#E4FF000009000000
(0946688496.947323) can0 00000002#2FFC0000FCFF0000
(0946688496.947630) can0 00000103#0101010101010101
(0946688496.957118) can0 00000001#E4FF000009000000
(0946688496.957392) can0 00000002#2FFC0000FCFF0000
(0946688496.957693) can0 00000103#0101010101010101
(0946688496.958013) can0 18FF1515#0000000100010000
(0946688496.967201) can0 00000103#0101010101010101
(0946688496.967502) can0 00000001#E3FF000009000000
(0946688496.967813) can0 00000002#2FFC0000FCFF0000
(0946688496.977203) can0 00000103#0101010101010101
(0946688496.977494) can0 00000001#E3FF000009000000
(0946688496.977846) can0 00000002#2FFC0000FCFF0000
(0946688496.987200) can0 00000103#0101010101010101
(0946688496.987492) can0 00000001#E4FF000009000000
(0946688496.987789) can0 00000002#2FFC0000FCFF0000
(0946688496.997213) can0 00000103#0101010101010101
(0946688496.997489) can0 00000001#E4FF000009000000
(0946688496.997783) can0 00000002#2FFC0000FCFF0000
(0946688497.007207) can0 00000103#0101010101010101
(0946688497.008278) can0 00000001#E4FF000009000000
(0946688497.008599) can0 00000002#2FFC0000FCFF0000
(0946688497.017201) can0 00000103#0101010101010101
(0946688497.018436) can0 00000001#E4FF000009000000
(0946688497.018699) can0 00000002#2FFC0000FCFF0000
(0946688497.027214) can0 00000103#0101010101010101
(0946688497.028495) can0 00000001#E4FF000009000000
(0946688497.028797) can0 00000002#2FFC0000FCFF0000
(0946688497.037230) can0 00000103#0101010101010101
(0946688497.037532) can0 19B50000#0004000000010060
(0946688497.038048) can0 19B50007#0000002700000000
(0946688497.038631) can0 00000001#E4FF000009000000
(0946688497.038874) can0 00000002#2FFC0000FCFF0000
(0946688497.039183) can0 19B50001#B6BBB78FFE000000
(0946688497.039533) can0 19B50002#7678770000000000
(0946688497.040103) can0 19B50003#0000000000000000
(0946688497.040778) can0 19B50008#787A790000000000
(0946688497.041579) can0 19B50500#0000001A00002664
(0946688497.042844) can0 19B50600#FFFF005199990000
(0946688497.043405) can0 19B50009#B6BBB700008FFE00
(0946688497.047218) can0 00000103#0101010101010101
(0946688497.048697) can0 00000001#E4FF000009000000
(0946688497.049044) can0 00000002#2FFC0000FCFF0000
(0946688497.050407) can0 00000303#0000
(0946688497.057191) can0 00000103#0101010101010101
(0946688497.057671) can0 18FF1515#0000000100010000
(0946688497.058792) can0 00000001#E4FF000009000000
(0946688497.059123) can0 00000002#2FFC0000FCFF0000
(0946688497.067205) can0 00000103#0101010101010101
(0946688497.068890) can0 00000001#E4FF000009000000
(0946688497.069199) can0 00000002#2FFC0000FCFF0000
(0946688497.075382) can0 00000303#0000
(0946688497.077234) can0 00000103#0101010101010101
(0946688497.078998) can0 00000001#E4FF000009000000
(0946688497.079253) can0 00000002#2FFC0000FCFF0000
(0946688497.087231) can0 00000103#0101010101010101
(0946688497.089092) can0 00000001#E5FF000009000000
(0946688497.089377) can0 00000002#2FFC0000FCFF0000
(0946688497.097224) can0 00000103#0101010101010101
(0946688497.099227) can0 00000001#E5FF000009000000
(0946688497.099518) can0 00000002#2FFC0000FCFF0000
(0946688497.107222) can0 00000103#0101010101010101
(0946688497.109293) can0 00000001#E4FF000009000000
(0946688497.109608) can0 00000002#2FFC0000FCFF0000
(0946688497.117205) can0 00000103#0101010101010101
(0946688497.119375) can0 00000001#E4FF000008000000
(0946688497.119681) can0 00000002#2FFC0000FCFF0000
(0946688497.127232) can0 00000103#0101010101010101
(0946688497.129453) can0 00000001#E4FF000008000000
(0946688497.129726) can0 00000002#2EFC0000FCFF0000
(0946688497.135631) can0 00000007#1E03840094A40000
(0946688497.137203) can0 00000103#0101010101010101
(0946688497.139535) can0 00000001#E4FF00000A000000
(0946688497.139816) can0 00000002#2FFC0000FCFF0000
(0946688497.147237) can0 00000103#0101010101010101
(0946688497.149627) can0 00000001#E4FF000009000000
(0946688497.149958) can0 00000002#2FFC0000FCFF0000
(0946688497.157209) can0 00000103#0101010101010101
(0946688497.157701) can0 18FF1515#0000000100010000
(0946688497.159838) can0 00000001#E4FF000009000000
(0946688497.160017) can0 00000002#2FFC0000FCFF0000
(0946688497.167194) can0 00000103#0101010101010101
(0946688497.169812) can0 00000001#E4FF000009000000
(0946688497.170120) can0 00000002#30FC0000FDFF0000
(0946688497.175286) can0 00000303#0000
(0946688497.177198) can0 00000103#0101010101010101
(0946688497.179947) can0 00000001#E5FF000009000000
(0946688497.180240) can0 00000002#2FFC0000FDFF0000
(0946688497.187199) can0 00000103#0101010101010101
(0946688497.190025) can0 00000001#E5FF000009000000
(0946688497.190289) can0 00000002#2FFC0000FDFF0000
(0946688497.197204) can0 00000103#0101010101010101
(0946688497.200156) can0 00000001#E5FF000009000000
(0946688497.200414) can0 00000002#2FFC0000FCFF0000
(0946688497.206227) can0 00000303#0000
(0946688497.207211) can0 00000103#0101010101010101
(0946688497.210928) can0 00000001#E4FF000009000000
(0946688497.211248) can0 00000002#2FFC0000FCFF0000
(0946688497.217202) can0 00000103#0101010101010101
(0946688497.221030) can0 00000001#E4FF000009000000
(0946688497.221340) can0 00000002#2FFC0000FCFF0000
(0946688497.227195) can0 00000103#0101010101010101
(0946688497.230597) can0 19B50000#0004000000010060
(0946688497.231154) can0 19B50007#0000002700000000
(0946688497.231453) can0 00000001#E4FF000008000000
(0946688497.231717) can0 00000002#2FFC0000FCFF0000
(0946688497.232027) can0 19B50001#B6BBB78FFE000000
(0946688497.232544) can0 19B50002#7678770000000000
(0946688497.233160) can0 19B50003#0000000000000000
(0946688497.233690) can0 19B50008#787A790000000000
(0946688497.234586) can0 19B50500#0000001A00002664
(0946688497.235682) can0 19B50600#FFFF005199990000
(0946688497.236278) can0 19B50009#B6BBB700008FFE00
(0946688497.237194) can0 00000103#0101010101010101
(0946688497.241079) can0 00000014#1EFF
(0946688497.241374) can0 00000001#E4FF000009000000
(0946688497.241653) can0 00000002#2FFC0000FCFF0000
(0946688497.247208) can0 00000103#0101010101010101
(0946688497.251364) can0 00000001#E4FF000008000000
(0946688497.251667) can0 00000002#2FFC0000FCFF0000
(0946688497.257187) can0 00000103#0101010101010101
(0946688497.257668) can0 18FF1515#0000000100010000
(0946688497.261509) can0 00000001#E3FF000008000000
(0946688497.261816) can0 00000002#2FFC0000FCFF0000
(0946688497.267188) can0 00000103#0101010101010101
(0946688497.271591) can0 00000001#E3FF000008000000
(0946688497.271863) can0 00000002#2FFC0000FCFF0000
(0946688497.277200) can0 00000103#0101010101010101
(0946688497.281669) can0 00000001#E4FF000009000000
(0946688497.281988) can0 00000002#2EFC0000FCFF0000
(0946688497.287212) can0 00000103#0101010101010101
(0946688497.291750) can0 00000001#E3FF000009000000
(0946688497.292072) can0 00000002#2FFC0000FCFF0000
(0946688497.297226) can0 00000103#0101010101010101
(0946688497.301858) can0 00000001#E3FF000008000000
(0946688497.302181) can0 00000002#2EFC0000FCFF0000
(0946688497.306092) can0 00000303#0000
(0946688497.307210) can0 00000103#0101010101010101
(0946688497.311956) can0 00000001#E3FF000009000000
(0946688497.312249) can0 00000002#2EFC0000FCFF0000
(0946688497.317186) can0 00000103#0101010101010101
(0946688497.322024) can0 00000001#E4FF000009000000
(0946688497.322305) can0 00000002#2FFC0000FCFF0000
(0946688497.327179) can0 00000103#0101010101010101
(0946688497.331077) can0 00000303#0000
(0946688497.332109) can0 00000001#E4FF000009000000
(0946688497.332407) can0 00000002#2FFC0000FCFF0000
(0946688497.337199) can0 00000103#0101010101010101
(0946688497.342174) can0 00000001#E4FF000009000000
(0946688497.342498) can0 00000002#2FFC0000FCFF0000
(0946688497.347203) can0 00000103#0101010101010101
(0946688497.352281) can0 00000001#E4FF000009000000
(0946688497.352594) can0 00000002#2FFC0000FCFF0000
(0946688497.357211) can0 00000103#0101010101010101
(0946688497.357669) can0 18FF1515#0000000100010000
(0946688497.362403) can0 00000001#E4FF000009000000
(0946688497.362734) can0 00000002#2FFC0000FCFF0000
(0946688497.367206) can0 00000103#0101010101010101
(0946688497.372492) can0 00000001#E4FF000009000000
(0946688497.372826) can0 00000002#2FFC0000FCFF0000
(0946688497.377200) can0 00000103#0101010101010101
(0946688497.383296) can0 00000001#E4FF000009000000
(0946688497.383629) can0 00000002#2FFC0000FCFF0000
(0946688497.387234) can0 00000103#0101010101010101
(0946688497.393377) can0 00000001#E4FF000009000000
(0946688497.393693) can0 00000002#2FFC0000FCFF0000
(0946688497.397199) can0 00000103#0101010101010101
(0946688497.403527) can0 00000001#E4FF000009000000
(0946688497.403782) can0 00000002#2FFC0000FCFF0000
(0946688497.407216) can0 00000103#0101010101010101
(0946688497.413556) can0 00000001#E4FF000009000000
(0946688497.413868) can0 00000002#2FFC0000FCFF0000
(0946688497.417222) can0 00000103#0101010101010101
(0946688497.423688) can0 00000001#E4FF000009000000
(0946688497.423998) can0 00000002#2FFC0000FCFF0000
(0946688497.427179) can0 00000103#0101010101010101
(0946688497.431036) can0 00000303#0000
(0946688497.431389) can0 19B50000#0004000000010060
(0946688497.432120) can0 19B50007#0000002700000000
(0946688497.432683) can0 19B50001#B6BBB78FFE000000
(0946688497.433266) can0 19B50002#7678770000000000
(0946688497.433735) can0 00000001#E4FF000009000000
(0946688497.434051) can0 00000002#2FFC0000FCFF0000
(0946688497.434345) can0 19B50003#0000000000000000
(0946688497.434630) can0 19B50008#787A790000000000
(0946688497.435290) can0 19B50500#0000001A00002664
(0946688497.436418) can0 19B50600#FFFF005199990000
(0946688497.436993) can0 19B50009#B6BBB700008FFE00
(0946688497.437258) can0 00000103#0101010101010101
(0946688497.443837) can0 00000001#E4FF000009000000
(0946688497.444114) can0 00000002#2EFC0000FCFF0000
(0946688497.447203) can0 00000103#0101010101010101
(0946688497.453937) can0 00000001#E4FF000009000000
(0946688497.454242) can0 00000002#2FFC0000FCFF0000
(0946688497.457193) can0 00000103#0101010101010101
(0946688497.457668) can0 18FF1515#0000000100010000
(0946688497.461995) can0 00000303#0000
(0946688497.464080) can0 00000001#E4FF000009000000
(0946688497.464378) can0 00000002#2FFC0000FCFF0000
(0946688497.467210) can0 00000103#0101010101010101
(0946688497.474157) can0 00000001#E3FF000009000000
(0946688497.474477) can0 00000002#2FFC0000FCFF0000
(0946688497.477239) can0 00000103#0101010101010101
(0946688497.484270) can0 00000001#E3FF000009000000
(0946688497.484547) can0 00000002#2FFC0000FCFF0000
(0946688497.487196) can0 00000103#0101010101010101
(0946688497.494334) can0 00000001#E4FF000009000000
(0946688497.494635) can0 00000002#2FFC0000FCFF0000
(0946688497.497207) can0 00000103#0101010101010101
(0946688497.504423) can0 00000001#E4FF000009000000
(0946688497.504753) can0 00000002#2FFC0000FCFF0000
(0946688497.507227) can0 00000103#0101010101010101
(0946688497.514565) can0 00000001#E4FF000009000000
(0946688497.514868) can0 00000002#2FFC0000FCFF0000
(0946688497.517189) can0 00000103#0101010101010101
(0946688497.524689) can0 00000001#E4FF000009000000
(0946688497.525004) can0 00000002#2FFC0000FCFF0000
(0946688497.527194) can0 00000103#0101010101010101
(0946688497.534781) can0 00000001#E4FF000009000000
(0946688497.535074) can0 00000002#2FFC0000FCFF0000
(0946688497.537202) can0 00000103#0101010101010101
(0946688497.544848) can0 00000001#E4FF000009000000
(0946688497.545164) can0 00000002#2FFC0000FCFF0000
(0946688497.547224) can0 00000103#0101010101010101
(0946688497.555054) can0 00000001#E5FF000009000000
(0946688497.555241) can0 00000002#2FFC0000FCFF0000
(0946688497.555873) can0 00000303#0000
(0946688497.557227) can0 00000103#0101010101010101
(0946688497.557666) can0 18FF1515#0000000100010000
(0946688497.565913) can0 00000001#E5FF000009000000
(0946688497.566193) can0 00000002#2FFC0000FCFF0000
(0946688497.567174) can0 00000103#0101010101010101
(0946688497.575994) can0 00000001#E5FF000009000000
(0946688497.576339) can0 00000002#2FFC0000FCFF0000
(0946688497.577199) can0 00000103#0101010101010101
(0946688497.586126) can0 00000001#E4FF000009000000
(0946688497.586412) can0 00000002#2FFC0000FCFF0000
(0946688497.586844) can0 00000303#0000
(0946688497.587161) can0 00000103#0101010101010101
(0946688497.596186) can0 00000001#E4FF000009000000
(0946688497.596463) can0 00000002#2FFC0000FCFF0000
(0946688497.597178) can0 00000103#0101010101010101
(0946688497.606260) can0 00000001#E4FF000009000000
(0946688497.606560) can0 00000002#2EFC0000FCFF0000
(0946688497.607185) can0 00000103#0101010101010101
(0946688497.616369) can0 00000001#E3FF000008000000
(0946688497.616647) can0 00000002#2EFC0000FDFF0000
(0946688497.617181) can0 00000103#0101010101010101
(0946688497.626470) can0 00000001#E3FF000008000000
(0946688497.626796) can0 00000002#2EFC0000FDFF0000
(0946688497.627201) can0 00000103#0101010101010101
(0946688497.636543) can0 00000001#E3FF000008000000
(0946688497.636852) can0 00000002#2EFC0000FDFF0000
(0946688497.637209) can0 00000103#0101010101010101
(0946688497.637641) can0 19B50000#0004000000010060
(0946688497.638210) can0 19B50007#0000002700000000
(0946688497.638790) can0 19B50001#B6BBB78FFE000000
(0946688497.639344) can0 19B50002#7678770000000000
(0946688497.639943) can0 19B50003#0000000000000000
(0946688497.640548) can0 19B50008#787A790000000000
(0946688497.641593) can0 19B50500#0000001A00002664
(0946688497.642710) can0 19B50600#FFFF005199990000
(0946688497.643247) can0 19B50009#B6BBB700008FFE00
(0946688497.646667) can0 00000001#E2FF000008000000
(0946688497.647015) can0 00000002#2FFC0000FDFF0000
(0946688497.647244) can0 00000103#0101010101010101
(0946688497.656742) can0 00000001#E3FF000008000000
(0946688497.657035) can0 00000002#2FFC0000FDFF0000
(0946688497.657303) can0 00000103#0101010101010101
(0946688497.657753) can0 18FF1515#0000000100010000
(0946688497.666828) can0 00000001#E3FF000009000000
(0946688497.667127) can0 00000002#2FFC0000FDFF0000
(0946688497.667427) can0 00000103#0101010101010101
(0946688497.676948) can0 00000001#E5FF000009000000
(0946688497.677215) can0 00000002#2FFC0000FDFF0000
(0946688497.677514) can0 00000103#0101010101010101
(0946688497.686691) can0 00000303#0000
(0946688497.687002) can0 00000001#E5FF000009000000
(0946688497.687325) can0 00000002#2FFC0000FDFF0000
(0946688497.687591) can0 00000103#0101010101010101
(0946688497.697114) can0 00000001#E4FF000009000000
(0946688497.697406) can0 00000002#2FFC0000FCFF0000
(0946688497.697712) can0 00000103#0101010101010101
(0946688497.707185) can0 00000001#E4FF000009000000
(0946688497.707452) can0 00000103#0101010101010101
(0946688497.707756) can0 00000002#2FFC0000FDFF0000
(0946688497.708558) can0 00000007#1F03840094A40000
(0946688497.711710) can0 00000303#0000
(0946688497.717207) can0 00000103#0101010101010101
(0946688497.717493) can0 00000001#E4FF000008000000
(0946688497.717782) can0 00000002#2FFC0000FCFF0000
(0946688497.727207) can0 00000103#0101010101010101
(0946688497.727478) can0 00000001#E3FF000008000000
(0946688497.727772) can0 00000002#2FFC0000FCFF0000
(0946688497.737201) can0 00000103#0101010101010101
(0946688497.737501) can0 00000001#E3FF000008000000
(0946688497.738272) can0 00000002#2EFC0000FCFF0000
(0946688497.747190) can0 00000103#0101010101010101
(0946688497.747545) can0 00000001#E3FF000008000000
(0946688497.748458) can0 00000002#2FFC0000FDFF0000
(0946688497.757200) can0 00000103#0101010101010101
(0946688497.757713) can0 18FF1515#0000000100010000
(0946688497.758291) can0 00000001#E3FF000008000000
(0946688497.758630) can0 00000002#2EFC0000FDFF0000
(0946688497.767216) can0 00000103#0101010101010101
(0946688497.768368) can0 00000001#E3FF000008000000
(0946688497.768694) can0 00000002#2EFC0000FDFF0000
(0946688497.777210) can0 00000103#0101010101010101
(0946688497.778452) can0 00000001#E3FF000009000000
(0946688497.778801) can0 00000002#2FFC0000FDFF0000
(0946688497.787199) can0 00000103#0101010101010101
(0946688497.788532) can0 00000001#E3FF000009000000
(0946688497.788863) can0 00000002#2FFC0000FDFF0000
(0946688497.797208) can0 00000103#0101010101010101
(0946688497.798713) can0 00000001#E3FF000009000000
(0946688497.798985) can0 00000002#2EFC0000FDFF0000
(0946688497.806585) can0 00000014#1FFF
(0946688497.807106) can0 00000015#1F00787878787878
(0946688497.807365) can0 00000103#0101010101010101
(0946688497.808794) can0 00000001#E3FF000009000000
(0946688497.809042) can0 00000002#2EFC0000FDFF0000
(0946688497.817188) can0 00000103#0101010101010101
(0946688497.817577) can0 00000303#0000
(0946688497.818861) can0 00000001#E3FF000009000000
(0946688497.819133) can0 00000002#2FFC0000FDFF0000
(0946688497.824134) can0 00000014#1FFF
(0946688497.824661) can0 00000015#1F06787878787878
(0946688497.827189) can0 00000103#0101010101010101
(0946688497.828993) can0 00000001#E4FF000009000000
(0946688497.829260) can0 00000002#2FFC0000FDFF0000
(0946688497.831618) can0 19B50000#0004000000010060
(0946688497.832267) can0 19B50007#0000002700000000
(0946688497.832827) can0 19B50001#B6BBB78FFE000000
(0946688497.833393) can0 19B50002#7678770000000000
(0946688497.833965) can0 19B50003#0000000000000000
(0946688497.834564) can0 19B50008#787A790000000000
(0946688497.835487) can0 19B50500#0000001A00002664
(0946688497.836564) can0 19B50600#FFFF005199990000
(0946688497.837166) can0 19B50009#B6BBB700008FFE00
(0946688497.837408) can0 00000103#0101010101010101
(0946688497.839029) can0 00000001#E4FF000009000000
(0946688497.839324) can0 00000002#2FFC0000FDFF0000
(0946688497.842587) can0 00000303#0000
(0946688497.844257) can0 00000014#1FFF
(0946688497.844690) can0 00000015#1F0C78787878
(0946688497.847176) can0 00000103#0101010101010101
(0946688497.849116) can0 00000001#E4FF000009000000
(0946688497.849411) can0 00000002#2FFC0000FDFF0000
(0946688497.850375) can0 00000018#1FFF
(0946688497.851212) can0 00000019#1F00767676767676
(0946688497.855759) can0 00000018#1FFF
(0946688497.856210) can0 00000019#1F06767676767676
(0946688497.857194) can0 00000103#0101010101010101
(0946688497.857672) can0 18FF1515#0000000100010000
(0946688497.859253) can0 00000001#E4FF000009000000
(0946688497.859533) can0 00000002#2FFC0000FCFF0000
(0946688497.860526) can0 00000018#1FFF
(0946688497.861260) can0 00000019#1F0C76767676
(0946688497.866526) can0 0000001C#1FFF
(0946688497.867017) can0 0000001D#1F00787878787878
(0946688497.867284) can0 00000103#0101010101010101
(0946688497.869305) can0 00000001#E4FF000009000000
(0946688497.869610) can0 00000002#2EFC0000FCFF0000
(0946688497.870792) can0 0000001C#1FFF
(0946688497.871215) can0 0000001D#1F06787878787878
(0946688497.877210) can0 00000103#0101010101010101
(0946688497.879384) can0 00000001#E4FF000009000000
(0946688497.879694) can0 00000002#2FFC0000FCFF0000
(0946688497.887199) can0 00000103#0101010101010101
(0946688497.888286) can0 0000001C#1FFF
(0946688497.888738) can0 0000001D#1F0C78787878
(0946688497.889505) can0 00000001#E4FF000009000000
(0946688497.889811) can0 00000002#2FFC0000FCFF0000
(0946688497.897199) can0 00000103#0101010101010101
(0946688497.899591) can0 00000001#E4FF000009000000
(0946688497.899869) can0 00000002#2FFC0000FCFF0000
(0946688497.907201) can0 00000103#0101010101010101
(0946688497.909703) can0 00000001#E4FF000009000000
(0946688497.909971) can0 00000002#2FFC0000FCFF0000
(0946688497.917203) can0 00000103#0101010101010101
(0946688497.919795) can0 00000001#E4FF000009000000
(0946688497.920085) can0 00000002#2FFC0000FCFF0000
(0946688497.927222) can0 00000103#0101010101010101
(0946688497.929860) can0 00000001#E4FF000009000000
(0946688497.930178) can0 00000002#2FFC0000FCFF0000
(0946688497.937207) can0 00000103#0101010101010101
(0946688497.939996) can0 00000001#E4FF000009000000
(0946688497.940819) can0 00000002#2FFC0000FCFF0000
(0946688497.942468) can0 00000303#0000
(0946688497.947176) can0 00000103#0101010101010101
(0946688497.950887) can0 00000001#E4FF000009000000
(0946688497.951185) can0 00000002#2FFC0000FCFF0000
(0946688497.957194) can0 00000103#0101010101010101
(0946688497.957689) can0 18FF1515#0000000100010000
(0946688497.961009) can0 00000001#E3FF000009000000
(0946688497.961267) can0 00000002#2FFC0000FCFF0000
(0946688497.967181) can0 00000103#0101010101010101
(0946688497.971132) can0 00000001#E3FF000009000000
(0946688497.971416) can0 00000002#2FFC0000FCFF0000
(0946688497.973396) can0 00000303#0000
(0946688497.976958) can0 19B5020B#7878787878787878
(0946688497.977213) can0 00000103#0101010101010101
(0946688497.981176) can0 00000001#E3FF000009000000
(0946688497.981524) can0 00000002#2FFC0000FCFF0000
(0946688497.987205) can0 00000103#0101010101010101
(0946688497.991286) can0 00000001#E3FF000008000000
(0946688497.991596) can0 00000002#2FFC0000FCFF0000
(0946688497.997199) can0 00000103#0101010101010101
(0946688498.001409) can0 00000001#E3FF000009000000
(0946688498.001680) can0 00000002#2FFC0000FCFF0000
(0946688498.007232) can0 00000103#0101010101010101
(0946688498.011449) can0 00000001#E3FF000009000000
(0946688498.011747) can0 00000002#2FFC0000FCFF0000
(0946688498.017200) can0 00000103#0101010101010101
(0946688498.021556) can0 00000001#E3FF000009000000
(0946688498.021833) can0 00000002#2FFC0000FCFF0000
(0946688498.027215) can0 00000103#0101010101010101
(0946688498.031679) can0 00000001#E4FF000009000000
(0946688498.031989) can0 00000002#2FFC0000FCFF0000
(0946688498.037207) can0 00000103#0101010101010101
(0946688498.041747) can0 00000001#E4FF000009000000
(0946688498.042089) can0 00000002#2FFC0000FCFF0000
(0946688498.044731) can0 19B50000#0004000000010060
(0946688498.045396) can0 19B50007#0000002700000000
(0946688498.045862) can0 19B50001#B6BBB78FFE000000
(0946688498.046462) can0 19B50002#7678770000000000
(0946688498.047159) can0 19B50003#0000000000000000
(0946688498.047333) can0 00000103#0101010101010101
(0946688498.047633) can0 19B50008#787A790000000000
(0946688498.048544) can0 19B50500#0000001A00002664
(0946688498.049626) can0 19B50600#FFFF005199990000
(0946688498.050161) can0 19B50009#B6BBB700008FFE00
(0946688498.051851) can0 00000001#E5FF000009000000
(0946688498.052144) can0 00000002#2FFC0000FCFF0000
(0946688498.057200) can0 00000103#0101010101010101
(0946688498.057707) can0 18FF1515#0000000100010000
(0946688498.061979) can0 00000001#E4FF000009000000
(0946688498.062241) can0 00000002#2FFC0000FCFF0000
(0946688498.067185) can0 00000103#0101010101010101
(0946688498.072043) can0 00000001#E4FF000009000000
(0946688498.072329) can0 00000002#2FFC0000FCFF0000
(0946688498.074271) can0 00000303#0000
(0946688498.077181) can0 00000103#0101010101010101
(0946688498.082147) can0 00000001#E4FF000009000000
(0946688498.082434) can0 00000002#2EFC0000FCFF0000
(0946688498.087225) can0 00000103#0101010101010101
(0946688498.092240) can0 00000001#E3FF000008000000
(0946688498.092531) can0 00000002#2EFC0000FCFF0000
(0946688498.097172) can0 00000103#0101010101010101
(0946688498.099247) can0 00000303#0000
(0946688498.102376) can0 00000001#E3FF000008000000
(0946688498.102669) can0 00000002#2EFC0000FCFF0000
(0946688498.107211) can0 00000103#0101010101010101
(0946688498.112453) can0 00000001#E3FF000009000000
(0946688498.113328) can0 00000002#2FFC0000FCFF0000
(0946688498.117172) can0 00000103#0101010101010101
(0946688498.123240) can0 00000001#E2FF000008000000
(0946688498.123533) can0 00000002#2EFC0000FCFF0000
(0946688498.127215) can0 00000103#0101010101010101
(0946688498.133375) can0 00000001#E2FF000008000000
(0946688498.133668) can0 00000002#2FFC0000FCFF0000
(0946688498.137211) can0 00000103#0101010101010101
(0946688498.143476) can0 00000001#E2FF000008000000
(0946688498.143742) can0 00000002#2EFC0000FCFF0000
(0946688498.147200) can0 00000103#0101010101010101
(0946688498.153586) can0 00000001#E3FF000008000000
(0946688498.153858) can0 00000002#2FFC0000FCFF0000
(0946688498.157196) can0 00000103#0101010101010101
(0946688498.157682) can0 18FF1515#0000000100010000
(0946688498.163662) can0 00000001#E3FF000008000000
(0946688498.164006) can0 00000002#2FFC0000FCFF0000
(0946688498.167172) can0 00000103#0101010101010101
(0946688498.173786) can0 00000001#E3FF000008000000
(0946688498.174091) can0 00000002#2FFC0000FCFF0000
(0946688498.177214) can0 00000103#0101010101010101
(0946688498.179838) can0 00000007#2003830093A30000
(0946688498.183891) can0 00000001#E4FF000009000000
(0946688498.184181) can0 00000002#2FFC0000FCFF0000
(0946688498.187225) can0 00000103#0101010101010101
(0946688498.193983) can0 00000001#E4FF000009000000
(0946688498.194285) can0 00000002#2FFC0000FCFF0000
(0946688498.197201) can0 00000103#0101010101010101
(0946688498.201162) can0 00000303#0000
(0946688498.204119) can0 00000001#E4FF000009000000
(0946688498.204395) can0 00000002#2FFC0000FCFF0000
(0946688498.207176) can0 00000103#0101010101010101
(0946688498.214178) can0 00000001#E3FF000008000000
(0946688498.214464) can0 00000002#2FFC0000FCFF0000
(0946688498.217189) can0 00000103#0101010101010101
(0946688498.224267) can0 00000001#E3FF000008000000
(0946688498.224572) can0 00000002#2FFC0000FCFF0000
(0946688498.227037) can0 19B50000#0004000000020060
(0946688498.227233) can0 00000103#0101010101010101
(0946688498.227621) can0 19B50007#0000002700000000
(0946688498.228351) can0 19B50001#B6BBB78FFE000000
(0946688498.228970) can0 19B50002#7678770000000000
(0946688498.229656) can0 19B50003#0000000000000000
(0946688498.230275) can0 19B50008#787A790000000000
(0946688498.231415) can0 19B50500#0000001A00002664
(0946688498.232123) can0 00000303#0000
(0946688498.232476) can0 19B50600#FFFF005199990000
(0946688498.233084) can0 19B50009#B6BBB700008FFE00
(0946688498.234369) can0 00000001#E3FF000008000000
(0946688498.234651) can0 00000002#2FFC0000FCFF0000
(0946688498.237226) can0 00000103#0101010101010101
(0946688498.244476) can0 00000001#E3FF000008000000
(0946688498.244741) can0 00000002#2EFC0000FCFF0000
(0946688498.247199) can0 00000103#0101010101010101
(0946688498.254547) can0 00000001#E3FF000008000000
(0946688498.254848) can0 00000002#2EFC0000FCFF0000
(0946688498.257236) can0 00000103#0101010101010101
(0946688498.257677) can0 18FF1515#0000000100010000
(0946688498.264657) can0 00000001#E3FF000008000000
(0946688498.264966) can0 00000002#2EFC0000FCFF0000
(0946688498.267233) can0 00000103#0101010101010101
(0946688498.274766) can0 00000001#E3FF000009000000
(0946688498.275048) can0 00000002#2EFC0000FCFF0000
(0946688498.276708) can0 00000008#20FF
(0946688498.277205) can0 00000009#2000000000000000
(0946688498.277477) can0 00000103#0101010101010101
(0946688498.280530) can0 00000008#20FF
(0946688498.281012) can0 00000009#2006000000000000
(0946688498.284869) can0 00000001#E3FF000009000000
(0946688498.285168) can0 00000002#2EFC0000FCFF0000
(0946688498.285954) can0 00000008#20FF
(0946688498.286440) can0 00000009#200C00000000
(0946688498.287214) can0 00000103#0101010101010101
(0946688498.290406) can0 0000000C#20FF
(0946688498.290920) can0 0000000D#2000000000000000
(0946688498.294926) can0 00000001#E3FF000009000000
(0946688498.295247) can0 00000002#2FFC0000FCFF0000
(0946688498.295872) can0 0000000C#20FF
(0946688498.296606) can0 0000000D#2006000000000000
(0946688498.297206) can0 00000103#0101010101010101
(0946688498.300438) can0 0000000C#20FF
(0946688498.300901) can0 0000000D#200C00000000
(0946688498.305018) can0 00000001#E4FF000009000000
(0946688498.305989) can0 00000002#2FFC0000FCFF0000
(0946688498.307198) can0 00000103#0101010101010101
(0946688498.315150) can0 00000001#E4FF000009000000
(0946688498.315430) can0 00000002#2FFC0000FCFF0000
(0946688498.317194) can0 00000103#0101010101010101
(0946688498.317413) can0 00000010#20FF
(0946688498.317977) can0 00000011#2000000000000000
(0946688498.324014) can0 00000010#20FF
(0946688498.324567) can0 00000011#2006000000000000
(0946688498.326049) can0 00000001#E4FF000009000000
(0946688498.326325) can0 00000002#2FFC0000FCFF0000
(0946688498.327222) can0 00000103#0101010101010101
(0946688498.328585) can0 00000010#20FF
(0946688498.329053) can0 00000011#200C00000000
(0946688498.333974) can0 00000014#20FF
(0946688498.334445) can0 00000015#2000000000000000
(0946688498.336108) can0 00000001#E4FF000009000000
(0946688498.336406) can0 00000002#2FFC0000FCFF0000
(0946688498.337175) can0 00000103#0101010101010101
(0946688498.338604) can0 00000014#20FF
(0946688498.339095) can0 00000015#2006000000000000
(0946688498.343996) can0 00000014#20FF
(0946688498.344472) can0 00000015#200C00000000
(0946688498.346226) can0 00000001#E4FF000009000000
(0946688498.346528) can0 00000002#30FC0000FCFF0000
(0946688498.347214) can0 00000103#0101010101010101
(0946688498.348684) can0 00000018#20FF
(0946688498.349141) can0 00000019#2000000000000000
(0946688498.354076) can0 00000018#20FF
(0946688498.354564) can0 00000019#2006000000000000
(0946688498.356342) can0 00000001#E4FF000009000000
(0946688498.356634) can0 00000002#2FFC0000FCFF0000
(0946688498.357182) can0 00000103#0101010101010101
(0946688498.357691) can0 18FF1515#0000000100010000
(0946688498.358919) can0 00000018#20FF
(0946688498.359186) can0 00000303#0000
(0946688498.359376) can0 00000019#200C00000000
(0946688498.366450) can0 00000001#E4FF000009000000
(0946688498.366774) can0 00000002#2FFC0000FCFF0000
(0946688498.367246) can0 00000103#0101010101010101
(0946688498.376524) can0 00000001#E4FF000009000000
(0946688498.376834) can0 00000002#2FFC0000FCFF0000
(0946688498.377064) can0 0000001C#20FF
(0946688498.377323) can0 00000103#0101010101010101
(0946688498.377629) can0 0000001D#2000000000000000
(0946688498.385421) can0 0000001C#20FF
(0946688498.385929) can0 0000001D#2006000000000000
(0946688498.386650) can0 00000001#E4FF000009000000
(0946688498.386954) can0 00000002#2FFC0000FCFF0000
(0946688498.387209) can0 00000103#0101010101010101
(0946688498.390497) can0 0000001C#20FF
(0946688498.390961) can0 0000001D#200C00000000
(0946688498.396731) can0 00000001#E4FF000009000000
(0946688498.397036) can0 00000002#2FFC0000FBFF0100
(0946688498.397295) can0 00000103#0101010101010101
(0946688498.406815) can0 00000001#E4FF000009000000
(0946688498.407153) can0 00000002#2FFC0000FBFF0100
(0946688498.407396) can0 00000103#0101010101010101
(0946688498.416921) can0 00000001#E4FF000009000000
(0946688498.417233) can0 00000002#2FFC0000FBFF0100
(0946688498.417493) can0 00000103#0101010101010101
(0946688498.426983) can0 00000001#E4FF000009000000
(0946688498.427279) can0 00000002#2FFC0000FBFF0100
(0946688498.427581) can0 00000103#0101010101010101
(0946688498.429056) can0 19B50000#0004000000020060
(0946688498.429628) can0 19B50007#0000002700000000
(0946688498.430370) can0 19B50001#B6BBB78FFE000000
(0946688498.430978) can0 19B50002#7678770000000000
(0946688498.431576) can0 19B50003#0000000000000000
(0946688498.432138) can0 19B50008#787A790000000000
(0946688498.433047) can0 19B50500#0000001A00002664
(0946688498.434140) can0 19B50600#FFFF005199990000
(0946688498.434719) can0 19B50009#B6BBB700008FFE00
(0946688498.437108) can0 00000001#E4FF000009000000
(0946688498.437405) can0 00000002#2FFC0000FBFF0100
(0946688498.437706) can0 00000103#0101010101010101
(0946688498.447211) can0 00000001#E4FF000009000000
(0946688498.447511) can0 00000103#0101010101010101
(0946688498.447781) can0 00000002#2FFC0000FBFF0100
(0946688498.457216) can0 00000103#0101010101010101
(0946688498.457543) can0 00000001#E3FF000009000000
(0946688498.457790) can0 00000002#2FFC0000FBFF0100
(0946688498.458115) can0 18FF1515#0000000100010000
(0946688498.463202) can0 19B50300#00
(0946688498.463767) can0 19B50300#0000000000000000
(0946688498.465814) can0 00000303#0000
(0946688498.467180) can0 00000103#0101010101010101
(0946688498.467494) can0 00000001#E3FF000009000000
(0946688498.467805) can0 00000002#2FFC0000FBFF0100
(0946688498.477200) can0 00000103#0101010101010101
(0946688498.478254) can0 00000001#E3FF000009000000
(0946688498.478558) can0 00000002#2FFC0000FBFF0100
(0946688498.480248) can0 19B50301#0000000000000000
(0946688498.487223) can0 00000103#0101010101010101
(0946688498.488371) can0 00000001#E3FF000008000000
(0946688498.488648) can0 00000002#2FFC0000FBFF0100
(0946688498.490823) can0 00000303#0000
(0946688498.496016) can0 19B50302#0000000000000000
(0946688498.497184) can0 00000103#0101010101010101
(0946688498.498447) can0 00000001#E3FF000008000000
(0946688498.498726) can0 00000002#2FFC0000FBFF0100
(0946688498.507200) can0 00000103#0101010101010101
(0946688498.508533) can0 00000001#E3FF000009000000
(0946688498.508819) can0 00000002#2EFC0000FBFF0100
(0946688498.512029) can0 19B50303#0000000000000000
(0946688498.517237) can0 00000103#0101010101010101
(0946688498.518625) can0 00000001#E3FF000009000000
(0946688498.518919) can0 00000002#2FFC0000FBFF0100
(0946688498.525928) can0 19B50304#0000000000000000
(0946688498.527236) can0 00000103#0101010101010101
(0946688498.528701) can0 00000001#E3FF000008000000
(0946688498.529041) can0 00000002#2FFC0000FBFF0100
(0946688498.537229) can0 00000103#0101010101010101
(0946688498.538794) can0 00000001#E4FF000009000000
(0946688498.539089) can0 00000002#2FFC0000FBFF0100
(0946688498.547214) can0 00000103#0101010101010101
(0946688498.548879) can0 00000001#E4FF000008000000
(0946688498.549211) can0 00000002#2FFC0000FBFF0100
(0946688498.553462) can0 19B50305#0000000000000000
(0946688498.557204) can0 00000103#0101010101010101
(0946688498.557688) can0 18FF1515#0000000100010000
(0946688498.559022) can0 00000001#E4FF000009000000
(0946688498.559286) can0 00000002#2FFC0000FBFF0100
(0946688498.567201) can0 00000103#0101010101010101
(0946688498.569086) can0 00000001#E4FF000009000000
(0946688498.569384) can0 00000002#2FFC0000FBFF0100
(0946688498.569722) can0 19B50306#0000000000000000
(0946688498.577195) can0 00000103#0101010101010101
(0946688498.579237) can0 00000001#E4FF000009000000
(0946688498.579526) can0 00000002#2EFC0000FBFF0100
(0946688498.584349) can0 19B50307#0000000000000000
(0946688498.587216) can0 00000103#0101010101010101
(0946688498.589280) can0 00000001#E3FF000008000000
(0946688498.589586) can0 00000002#2EFC0000FBFF0100
(0946688498.597211) can0 00000103#0101010101010101
(0946688498.597651) can0 00000303#0000
(0946688498.599367) can0 00000001#E3FF000008000000
(0946688498.599684) can0 00000002#2EFC0000FBFF0100
(0946688498.602003) can0 19B50308#0000000000000000
(0946688498.607199) can0 00000103#0101010101010101
(0946688498.609516) can0 00000001#E3FF000008000000
(0946688498.609814) can0 00000002#2FFC0000FBFF0100
(0946688498.616242) can0 19B50309#0000000000000000
(0946688498.617232) can0 00000103#0101010101010101
(0946688498.619585) can0 00000001#E2FF000008000000
(0946688498.619883) can0 00000002#2EFC0000FBFF0100
(0946688498.622626) can0 00000303#0000
(0946688498.627199) can0 00000103#0101010101010101
(0946688498.627807) can0 19B50000#0004000000020060
(0946688498.628410) can0 19B50007#0000002700000000
(0946688498.628975) can0 19B50001#B6BBB78FFE000000
(0946688498.629540) can0 19B50002#7678770000000000
(0946688498.629832) can0 00000001#E3FF000008000000
(0946688498.630116) can0 00000002#2FFC0000FBFF0100
(0946688498.630666) can0 19B50003#0000000000000000
(0946688498.631269) can0 19B50008#787A790000000000
(0946688498.632101) can0 19B50500#0000001A00002664
(0946688498.633190) can0 19B50600#FFFF005199990000
(0946688498.633765) can0 19B50009#B6BBB700008FFE00
(0946688498.637218) can0 00000103#0101010101010101
(0946688498.639795) can0 00000001#E3FF000008000000
(0946688498.640118) can0 00000002#2FFC0000FBFF0100
(0946688498.647214) can0 00000103#0101010101010101
(0946688498.649855) can0 00000001#E3FF000009000000
(0946688498.650182) can0 00000002#2EFC0000FBFF0100
(0946688498.656172) can0 19B5030A#0000000000000000
(0946688498.657203) can0 00000103#0101010101010101
(0946688498.657651) can0 18FF1515#0000000100010000
(0946688498.659995) can0 00000001#E3FF000008000000
(0946688498.660279) can0 00000002#2FFC0000FBFF0100
(0946688498.667202) can0 00000103#0101010101010101
(0946688498.667771) can0 00000007#2103830093A30000
(0946688498.670842) can0 00000001#E4FF000009000000
(0946688498.671126) can0 00000002#2FFC0000FBFF0100
(0946688498.677199) can0 00000103#0101010101010101
(0946688498.680916) can0 00000001#E4FF000009000000
(0946688498.681240) can0 00000002#2FFC0000FBFF0100
(0946688498.687196) can0 00000103#0101010101010101
(0946688498.691041) can0 00000001#E4FF000009000000
(0946688498.691331) can0 00000002#2FFC0000FBFF0100
(0946688498.697214) can0 00000103#0101010101010101
(0946688498.701123) can0 00000001#E4FF000009000000
(0946688498.701401) can0 00000002#2FFC0000FBFF0100
(0946688498.707187) can0 00000103#0101010101010101
(0946688498.711202) can0 00000001#E4FF000009000000
(0946688498.711502) can0 00000002#2FFC0000FBFF0100
(0946688498.717209) can0 00000103#0101010101010101
(0946688498.721298) can0 00000001#E4FF00000A000000
(0946688498.721636) can0 00000002#2FFC0000FBFF0100
(0946688498.725504) can0 00000303#0000
(0946688498.727202) can0 00000103#0101010101010101
(0946688498.731404) can0 00000001#E4FF000009000000
(0946688498.731700) can0 00000002#2FFC0000FBFF0100
(0946688498.737222) can0 00000103#0101010101010101
(0946688498.741481) can0 00000001#E4FF000009000000
(0946688498.741780) can0 00000002#2EFC0000FBFF0100
(0946688498.747237) can0 00000103#0101010101010101
(0946688498.751582) can0 00000001#E3FF000009000000
(0946688498.751920) can0 00000002#2EFC0000FBFF0100
(0946688498.756472) can0 00000303#0000
(0946688498.757204) can0 00000103#0101010101010101
(0946688498.757649) can0 18FF1515#0000000100010000
(0946688498.761729) can0 00000001#E3FF000009000000
(0946688498.761988) can0 00000002#2EFC0000FBFF0100
(0946688498.763555) can0 00000008#21FF
(0946688498.764035) can0 00000009#2100000000000000
(0946688498.767178) can0 00000103#0101010101010101
(0946688498.771770) can0 00000001#E3FF000009000000
(0946688498.772067) can0 00000002#2EFC0000FBFF0100
(0946688498.777163) can0 00000103#0101010101010101
(0946688498.777377) can0 00000008#21FF
(0946688498.777861) can0 00000009#2106000000000000
(0946688498.781857) can0 00000001#E3FF000009000000
(0946688498.782188) can0 00000002#2EFC0000FBFF0100
(0946688498.783470) can0 00000008#21FF
(0946688498.783928) can0 00000009#210C00000000
(0946688498.787170) can0 00000103#0101010101010101
(0946688498.788058) can0 0000000C#21FF
(0946688498.788556) can0 0000000D#2100000000000000
(0946688498.791966) can0 00000001#E3FF000009000000
(0946688498.792249) can0 00000002#2FFC0000FBFF0100
(0946688498.793262) can0 0000000C#21FF
(0946688498.793762) can0 0000000D#2106000000000000
(0946688498.797216) can0 00000103#0101010101010101
(0946688498.800264) can0 0000000C#21FF
(0946688498.800703) can0 0000000D#210C00000000
(0946688498.802080) can0 00000001#E4FF000009000000
(0946688498.802369) can0 00000002#2FFC0000FBFF0100
(0946688498.805627) can0 00000010#21FF
(0946688498.806214) can0 00000011#2100000000000000
(0946688498.807207) can0 00000103#0101010101010101
(0946688498.810160) can0 00000010#21FF
(0946688498.810686) can0 00000011#2106000000000000
(0946688498.812156) can0 00000001#E4FF000009000000
(0946688498.812465) can0 00000002#2FFC0000FBFF0100
(0946688498.815640) can0 00000010#21FF
(0946688498.816108) can0 00000011#210C00000000
(0946688498.817200) can0 00000103#0101010101010101
(0946688498.820322) can0 00000014#21FF
(0946688498.820822) can0 00000015#2100000000000000
(0946688498.822243) can0 00000001#E3FF000009000000
(0946688498.822540) can0 00000002#2FFC0000FBFF0100
(0946688498.826199) can0 19B50000#0004000000020060
(0946688498.826794) can0 19B50007#0000002700000000
(0946688498.827261) can0 00000103#0101010101010101
(0946688498.827551) can0 19B50001#B6BBB78FFE000000
(0946688498.828120) can0 19B50002#7678770000000000
(0946688498.828720) can0 19B50003#0000000000000000
(0946688498.829279) can0 19B50008#787A790000000000
(0946688498.830361) can0 19B50500#0000001A00002664
(0946688498.831387) can0 19B50600#FFFF005199990000
(0946688498.831977) can0 19B50009#B6BBB700008FFE00
(0946688498.832336) can0 00000001#E4FF000009000000
(0946688498.832666) can0 00000002#2FFC0000FBFF0100
(0946688498.837190) can0 00000103#0101010101010101
(0946688498.842433) can0 00000001#E4FF000009000000
(0946688498.842779) can0 00000002#2FFC0000FBFF0100
(0946688498.847213) can0 00000103#0101010101010101
(0946688498.849461) can0 00000014#21FF
(0946688498.849956) can0 00000015#2106000000000000
(0946688498.852398) can0 00000303#0000
(0946688498.852620) can0 00000001#E4FF000009000000
(0946688498.852947) can0 00000002#2FFC0000FBFF0100
(0946688498.857041) can0 00000014#21FF
(0946688498.857322) can0 00000103#0101010101010101
(0946688498.857594) can0 00000015#210C00000000
(0946688498.857905) can0 18FF1515#0000000100010000
(0946688498.863049) can0 00000018#21FF
(0946688498.863381) can0 00000001#E4FF000009000000
(0946688498.863682) can0 00000002#2FFC0000FBFF0100
(0946688498.867201) can0 00000103#0101010101010101
(0946688498.873497) can0 00000001#E4FF000009000000
(0946688498.873767) can0 00000002#2FFC0000FBFF0100
(0946688498.877193) can0 00000103#0101010101010101
(0946688498.883291) can0 00000303#0000
(0946688498.883586) can0 00000001#E3FF000009000000
(0946688498.883887) can0 00000002#2FFC0000FAFF0100
(0946688498.887187) can0 00000103#0101010101010101
(0946688498.893665) can0 00000001#E4FF000009000000
(0946688498.893962) can0 00000002#2FFC0000FAFF0100
(0946688498.897185) can0 00000103#0101010101010101
(0946688498.903753) can0 00000001#E4FF000009000000
(0946688498.904045) can0 00000002#2FFC0000FBFF0100
(0946688498.907208) can0 00000103#0101010101010101
(0946688498.913859) can0 00000001#E4FF000009000000
(0946688498.914157) can0 00000002#2FFC0000FAFF0100
(0946688498.917211) can0 00000103#0101010101010101
(0946688498.923981) can0 00000001#E4FF000008000000
(0946688498.924248) can0 00000002#2FFC0000FAFF0100
(0946688498.927204) can0 00000103#0101010101010101
(0946688498.934046) can0 00000001#E4FF000009000000
(0946688498.934329) can0 00000002#2FFC0000FAFF0100
(0946688498.937198) can0 00000103#0101010101010101
(0946688498.944135) can0 00000001#E4FF000008000000
(0946688498.944429) can0 00000002#2FFC0000FAFF0100
(0946688498.947197) can0 00000103#0101010101010101
(0946688498.954267) can0 00000001#E4FF000009000000
(0946688498.954547) can0 00000002#2FFC0000FAFF0100
(0946688498.957222) can0 00000103#0101010101010101
(0946688498.957648) can0 18FF1515#0000000100010000
(0946688498.964372) can0 00000001#E4FF000008000000
(0946688498.964669) can0 00000002#2FFC0000FAFF0100
(0946688498.967248) can0 00000103#0101010101010101
(0946688498.974544) can0 00000001#E3FF000008000000
(0946688498.974817) can0 00000002#2FFC0000FAFF0100
(0946688498.977195) can0 00000103#0101010101010101
(0946688498.984643) can0 00000001#E3FF000009000000
(0946688498.984937) can0 00000002#2FFC0000FAFF0100
(0946688498.985207) can0 00000303#0000
(0946688498.987200) can0 00000103#0101010101010101
(0946688498.994710) can0 00000001#E3FF000009000000
(0946688498.994990) can0 00000002#2FFC0000FAFF0100
(0946688498.997186) can0 00000103#0101010101010101
(0946688499.004827) can0 00000001#E3FF000009000000
(0946688499.005113) can0 00000002#2FFC0000FAFF0100
(0946688499.007287) can0 00000103#0101010101010101
(0946688499.010173) can0 00000303#0000
(0946688499.014947) can0 00000001#E4FF000008000000
(0946688499.015214) can0 00000002#2FFC0000FAFF0100
(0946688499.017204) can0 00000103#0101010101010101
(0946688499.025793) can0 00000001#E4FF000009000000
(0946688499.026071) can0 00000002#2FFC0000FAFF0100
(0946688499.027205) can0 00000103#0101010101010101
(0946688499.035201) can0 19B50000#0004000000020060
(0946688499.035756) can0 19B50007#0000002700000000
(0946688499.036047) can0 00000001#E4FF000009000000
(0946688499.036344) can0 00000002#2FFC0000FAFF0100
(0946688499.036641) can0 19B50001#B6BBB78FFE000000
(0946688499.036986) can0 19B50002#7678770000000000
(0946688499.037252) can0 00000103#0101010101010101
(0946688499.037589) can0 19B50003#0000000000000000
(0946688499.038153) can0 19B50008#787A790000000000
(0946688499.039018) can0 19B50500#0000001A00002664
(0946688499.040251) can0 19B50600#FFFF005199990000
(0946688499.040848) can0 19B50009#B6BBB700008FFE00
(0946688499.046372) can0 00000001#E4FF000009000000
(0946688499.046638) can0 00000002#2FFC0000FAFF0100
(0946688499.047181) can0 00000103#0101010101010101
(0946688499.056439) can0 00000001#E4FF000009000000
(0946688499.056721) can0 00000002#2FFC0000FAFF0100
(0946688499.057211) can0 00000103#0101010101010101
(0946688499.057659) can0 18FF1515#0000000100010000
(0946688499.066557) can0 00000001#E4FF000009000000
(0946688499.066828) can0 00000002#2FFC0000FAFF0100
(0946688499.067207) can0 00000103#0101010101010101
(0946688499.076629) can0 00000001#E4FF000009000000
(0946688499.076919) can0 00000002#2FFC0000FAFF0100
(0946688499.077244) can0 00000103#0101010101010101
(0946688499.086775) can0 00000001#E4FF000009000000
(0946688499.087028) can0 00000002#2FFC0000FAFF0100
(0946688499.087298) can0 00000103#0101010101010101
(0946688499.096848) can0 00000001#E3FF000008000000
(0946688499.097131) can0 00000002#2FFC0000FAFF0100
(0946688499.097403) can0 00000103#0101010101010101
(0946688499.106921) can0 00000001#E3FF000008000000
(0946688499.107243) can0 00000002#2FFC0000FAFF0100
(0946688499.107499) can0 00000103#0101010101010101
(0946688499.110046) can0 00000303#0000
(0946688499.117034) can0 00000001#E2FF000008000000
(0946688499.117304) can0 00000002#2FFC0000FAFF0100
(0946688499.117611) can0 00000103#0101010101010101
(0946688499.127153) can0 00000001#E3FF000008000000
(0946688499.127461) can0 00000002#2FFC0000FAFF0100
(0946688499.127760) can0 00000103#0101010101010101
(0946688499.137199) can0 00000103#0101010101010101
(0946688499.137491) can0 00000001#E3FF000008000000
(0946688499.137813) can0 00000002#2FFC0000FAFF0100
(0946688499.141014) can0 00000303#0000
(0946688499.147221) can0 00000103#0101010101010101
(0946688499.147493) can0 00000001#E3FF000008000000
(0946688499.147789) can0 00000002#2EFC0000FAFF0100
(0946688499.157212) can0 00000103#0101010101010101
(0946688499.157546) can0 00000001#E4FF000008000000
(0946688499.157803) can0 00000002#2EFC0000FAFF0100
(0946688499.158125) can0 18FF1515#0000000100010000
(0946688499.167183) can0 00000103#0101010101010101
(0946688499.167509) can0 00000001#E4FF000009000000
(0946688499.167781) can0 00000002#2EFC0000FAFF0100
(0946688499.177200) can0 00000103#0101010101010101
(0946688499.178368) can0 00000001#E4FF000009000000
(0946688499.178659) can0 00000002#2FFC0000FAFF0100
(0946688499.187195) can0 00000103#0101010101010101
(0946688499.188453) can0 00000001#E4FF000009000000
(0946688499.188731) can0 00000002#2FFC0000FAFF0100
(0946688499.197196) can0 00000103#0101010101010101
(0946688499.198530) can0 00000001#E4FF000009000000
(0946688499.198833) can0 00000002#2FFC0000FAFF0100
(0946688499.207214) can0 00000103#0101010101010101
(0946688499.208649) can0 00000001#E4FF000009000000
(0946688499.208930) can0 00000002#2FFC0000FAFF0100
(0946688499.217186) can0 00000103#0101010101010101
(0946688499.218729) can0 00000001#E4FF000009000000
(0946688499.219007) can0 00000002#2FFC0000FAFF0100
(0946688499.224341) can0 19B50000#0004000000020060
(0946688499.224904) can0 19B50007#0000002700000000
(0946688499.225477) can0 19B50001#B6BBB78FFE000000
(0946688499.226076) can0 19B50002#7678770000000000
(0946688499.226698) can0 19B50003#0000000000000000
(0946688499.227178) can0 00000103#0101010101010101
(0946688499.227511) can0 19B50008#787A790000000000
(0946688499.228286) can0 19B50500#0000001A00002664
(0946688499.228826) can0 00000001#E4FF000009000000
(0946688499.229113) can0 00000002#2FFC0000FAFF0100
(0946688499.229922) can0 19B50600#FFFF005199990000
(0946688499.230466) can0 19B50009#B6BBB700008FFE00
(0946688499.237200) can0 00000103#0101010101010101
(0946688499.238972) can0 00000001#E4FF000009000000
(0946688499.239255) can0 00000002#2FFC0000FAFF0100
(0946688499.240850) can0 00000303#0000
(0946688499.247196) can0 00000103#0101010101010101
(0946688499.249005) can0 00000001#E4FF000009000000
(0946688499.249287) can0 00000002#2FFC0000FAFF0100
(0946688499.257191) can0 00000103#0101010101010101
(0946688499.257632) can0 18FF1515#0000000100010000
(0946688499.259168) can0 00000001#E5FF000009000000
(0946688499.259457) can0 00000002#2FFC0000FAFF0100
(0946688499.265873) can0 00000303#0000
(0946688499.267211) can0 00000103#0101010101010101
(0946688499.269209) can0 00000001#E4FF000009000000
(0946688499.269478) can0 00000002#2FFC0000FAFF0100
(0946688499.277201) can0 00000103#0101010101010101
(0946688499.279274) can0 00000001#E4FF000009000000
(0946688499.279568) can0 00000002#2FFC0000FAFF0100
(0946688499.287194) can0 00000103#0101010101010101
(0946688499.289408) can0 00000001#E4FF000009000000
(0946688499.289675) can0 00000002#2FFC0000FAFF0100
(0946688499.297187) can0 00000103#0101010101010101
(0946688499.299497) can0 00000001#E4FF000009000000
(0946688499.299791) can0 00000002#2FFC0000FAFF0100
(0946688499.307183) can0 00000103#0101010101010101
(0946688499.309576) can0 00000001#E4FF000009000000
(0946688499.309866) can0 00000002#2FFC0000FAFF0100
(0946688499.317209) can0 00000103#0101010101010101
(0946688499.319687) can0 00000001#E4FF000009000000
(0946688499.319953) can0 00000002#2FFC0000FAFF0100
(0946688499.323606) can0 00000007#2203830093A30000
(0946688499.327166) can0 00000103#0101010101010101
(0946688499.329724) can0 00000001#E4FF000009000000
(0946688499.330020) can0 00000002#2FFC0000FAFF0100
(0946688499.337190) can0 00000103#0101010101010101
(0946688499.339846) can0 00000001#E4FF000008000000
(0946688499.340112) can0 00000002#2FFC0000FAFF0100
(0946688499.347186) can0 00000103#0101010101010101
(0946688499.349920) can0 00000001#E4FF000008000000
(0946688499.350243) can0 00000002#2FFC0000FAFF0100
(0946688499.357221) can0 00000103#0101010101010101
(0946688499.357661) can0 18FF1515#0000000100010000
(0946688499.360024) can0 00000001#E4FF000009000000
(0946688499.360955) can0 00000002#2FFC0000FAFF0100
(0946688499.367208) can0 00000103#0101010101010101
(0946688499.370901) can0 00000001#E4FF000009000000
(0946688499.371210) can0 00000002#2FFC0000FAFF0100
(0946688499.372699) can0 00000303#0000
(0946688499.377198) can0 00000103#0101010101010101
(0946688499.380985) can0 00000001#E4FF000009000000
(0946688499.381272) can0 00000002#2FFC0000FAFF0100
(0946688499.387192) can0 00000103#0101010101010101
(0946688499.391127) can0 00000001#E4FF000009000000
(0946688499.391388) can0 00000002#2FFC0000FAFF0100
(0946688499.397167) can0 00000103#0101010101010101
(0946688499.397725) can0 00000303#0000
(0946688499.401145) can0 00000001#E4FF000009000000
(0946688499.401426) can0 00000002#2FFC0000FAFF0100
(0946688499.407181) can0 00000103#0101010101010101
(0946688499.411217) can0 00000001#E4FF000009000000
(0946688499.411521) can0 00000002#2FFC0000FAFF0100
(0946688499.417209) can0 00000103#0101010101010101
(0946688499.421338) can0 00000001#E4FF000009000000
(0946688499.421621) can0 00000002#2FFC0000FAFF0100
(0946688499.427204) can0 00000103#0101010101010101
(0946688499.428296) can0 19B50000#0004000000020060
(0946688499.429091) can0 19B50007#0000002700000000
(0946688499.429692) can0 19B50001#B6BBB78FFE000000
(0946688499.430242) can0 19B50002#7678770000000000
(0946688499.430895) can0 19B50003#0000000000000000
(0946688499.431463) can0 00000001#E4FF000009000000
(0946688499.431736) can0 00000002#2FFC0000FAFF0100
(0946688499.432038) can0 19B50008#787A790000000000
(0946688499.432692) can0 19B50500#0000001A00002664
(0946688499.433775) can0 19B50600#FFFF005199990000
(0946688499.434341) can0 19B50009#B6BBB700008FFE00
(0946688499.436251) can0 00000018#22FF
(0946688499.436769) can0 00000019#2200000000000000
(0946688499.437237) can0 00000103#0101010101010101
(0946688499.441591) can0 00000001#E4FF000009000000
(0946688499.441799) can0 00000002#2FFC0000FAFF0100
(0946688499.447204) can0 00000103#0101010101010101
(0946688499.451630) can0 00000001#E4FF000009000000
(0946688499.451927) can0 00000002#2FFC0000FAFF0100
(0946688499.455250) can0 00000018#22FF
(0946688499.455840) can0 00000019#2206000000000000
(0946688499.457202) can0 00000103#0101010101010101
(0946688499.457664) can0 18FF1515#0000000100010000
(0946688499.461682) can0 00000001#E4FF000009000000
(0946688499.461980) can0 00000002#2FFC0000FAFF0100
(0946688499.462614) can0 00000018#22FF
(0946688499.463086) can0 00000019#220C00000000
(0946688499.467216) can0 00000103#0101010101010101
(0946688499.467830) can0 0000001C#22FF
(0946688499.468352) can0 0000001D#2200000000000000
(0946688499.471816) can0 00000001#E3FF000008000000
(0946688499.472106) can0 00000002#2FFC0000FAFF0100
(0946688499.473078) can0 0000001C#22FF
(0946688499.473570) can0 0000001D#2206000000000000
(0946688499.477206) can0 00000103#0101010101010101
(0946688499.477884) can0 0000001C#22FF
(0946688499.478346) can0 0000001D#220C00000000
(0946688499.481894) can0 00000001#E3FF000008000000
(0946688499.482177) can0 00000002#2FFC0000FAFF0100
(0946688499.487198) can0 00000103#0101010101010101
(0946688499.491973) can0 00000001#E3FF000009000000
(0946688499.492257) can0 00000002#2FFC0000FAFF0100
(0946688499.497208) can0 00000103#0101010101010101
(0946688499.502066) can0 00000001#E3FF000008000000
(0946688499.502369) can0 00000002#2FFC0000FAFF0100
(0946688499.503554) can0 00000303#0000
(0946688499.507201) can0 00000103#0101010101010101
(0946688499.512197) can0 00000001#E4FF000008000000
(0946688499.512498) can0 00000002#2FFC0000FAFF0100
(0946688499.517216) can0 00000103#0101010101010101
(0946688499.522282) can0 00000001#E3FF000009000000
(0946688499.522609) can0 00000002#2FFC0000FAFF0100
(0946688499.527204) can0 00000103#0101010101010101
(0946688499.528566) can0 00000303#0000
(0946688499.532378) can0 00000001#E4FF000009000000
(0946688499.532664) can0 00000002#2FFC0000FAFF0100
(0946688499.537197) can0 00000103#0101010101010101
(0946688499.539174) can0 19B5030B#0000000000000000
(0946688499.542433) can0 00000001#E4FF000009000000
(0946688499.542777) can0 00000002#2FFC0000FAFF0100
(0946688499.547205) can0 00000103#0101010101010101
(0946688499.552578) can0 00000001#E4FF000009000000
(0946688499.553378) can0 00000002#2FFC0000FAFF0100
(0946688499.557192) can0 00000103#0101010101010101
(0946688499.557706) can0 18FF1515#0000000100010000
(0946688499.562646) can0 00000001#E4FF000009000000
(0946688499.562959) can0 00000002#2FFC0000FAFF0100
(0946688499.567217) can0 00000103#0101010101010101
(0946688499.572739) can0 00000001#E4FF000009000000
(0946688499.573020) can0 00000002#2FFC0000FAFF0100
(0946688499.577208) can0 00000103#0101010101010101
(0946688499.583378) can0 00000001#E4FF000009000000
(0946688499.583655) can0 00000002#2FFC0000FAFF0100
(0946688499.587197) can0 00000103#0101010101010101
(0946688499.593458) can0 00000001#E4FF000009000000
(0946688499.593755) can0 00000002#2FFC0000FAFF0100
(0946688499.597198) can0 00000103#0101010101010101
(0946688499.603510) can0 00000001#E4FF000009000000
(0946688499.603833) can0 00000002#2FFC0000FAFF0100
(0946688499.607200) can0 00000103#0101010101010101
(0946688499.613742) can0 00000001#E4FF000009000000
(0946688499.614041) can0 00000002#2FFC0000FAFF0100
(0946688499.617182) can0 00000103#0101010101010101
(0946688499.624250) can0 00000001#E4FF000009000000
(0946688499.624540) can0 00000002#2FFC0000FAFF0100
(0946688499.627208) can0 00000103#0101010101010101
(0946688499.634370) can0 00000001#E3FF000009000000
(0946688499.634641) can0 00000002#2FFC0000FAFF0100
(0946688499.635418) can0 00000303#0000
(0946688499.637030) can0 19B50000#0004000000020060
(0946688499.637292) can0 00000103#0101010101010101
(0946688499.637601) can0 19B50007#0000002700000000
(0946688499.638381) can0 19B50001#B6BBB78FFE000000
(0946688499.638951) can0 19B50002#7678770000000000
(0946688499.639549) can0 19B50003#0000000000000000
(0946688499.640150) can0 19B50008#787A790000000000
(0946688499.641025) can0 19B50500#0000001A00002664
(0946688499.642118) can0 19B50600#FFFF005199990000
(0946688499.642680) can0 19B50009#B6BBB700008FFE00
(0946688499.644454) can0 00000001#E3FF000009000000
(0946688499.644734) can0 00000002#2FFC0000FAFF0100
(0946688499.647177) can0 00000103#0101010101010101
(0946688499.654509) can0 00000001#E4FF000008000000
(0946688499.654830) can0 00000002#2FFC0000FAFF0100
(0946688499.657193) can0 00000103#0101010101010101
(0946688499.657639) can0 18FF1515#0000000100010000
(0946688499.660404) can0 00000303#0000
(0946688499.664633) can0 00000001#E4FF000009000000
(0946688499.664916) can0 00000002#2FFC0000FAFF0100
(0946688499.667170) can0 00000103#0101010101010101
(0946688499.674687) can0 00000001#E4FF000009000000
(0946688499.674994) can0 00000002#2FFC0000FAFF0100
(0946688499.677208) can0 00000103#0101010101010101
(0946688499.684798) can0 00000001#E4FF000009000000
(0946688499.685116) can0 00000002#2FFC0000FAFF0100
(0946688499.687168) can0 00000103#0101010101010101
(0946688499.694896) can0 00000001#E4FF000009000000
(0946688499.695170) can0 00000002#2FFC0000FAFF0100
(0946688499.697193) can0 00000103#0101010101010101
(0946688499.705010) can0 00000001#E4FF000009000000
(0946688499.705878) can0 00000002#2FFC0000FAFF0100
(0946688499.707192) can0 00000103#0101010101010101
(0946688499.715131) can0 00000001#E4FF000009000000
(0946688499.715439) can0 00000002#2FFC0000FAFF0100
(0946688499.717190) can0 00000103#0101010101010101
(0946688499.725164) can0 00000001#E4FF000009000000
(0946688499.725474) can0 00000002#2FFC0000FAFF0100
(0946688499.727207) can0 00000103#0101010101010101
(0946688499.735283) can0 00000001#E4FF000009000000
(0946688499.735565) can0 00000002#2FFC0000FAFF0100
(0946688499.735893) can0 00000007#2303860096A60000
(0946688499.737199) can0 00000103#0101010101010101
(0946688499.745891) can0 00000001#E4FF000009000000
(0946688499.746168) can0 00000002#2FFC0000FAFF0100
(0946688499.747270) can0 00000103#0101010101010101
(0946688499.756062) can0 00000001#E4FF000009000000
(0946688499.756339) can0 00000002#2FFC0000FAFF0100
(0946688499.757198) can0 00000103#0101010101010101
(0946688499.757669) can0 18FF1515#0000000100010000
(0946688499.766134) can0 00000001#E4FF000009000000
(0946688499.766449) can0 00000002#2FFC0000FAFF0100
(0946688499.767217) can0 00000103#0101010101010101
(0946688499.767403) can0 00000303#0000
(0946688499.776237) can0 00000001#E4FF000009000000
(0946688499.776518) can0 00000002#2FFC0000FAFF0100
(0946688499.777188) can0 00000103#0101010101010101
(0946688499.786287) can0 00000001#E4FF000009000000
(0946688499.786592) can0 00000002#2FFC0000FAFF0100
(0946688499.787203) can0 00000103#0101010101010101
(0946688499.792251) can0 00000303#0000
(0946688499.796376) can0 00000001#E4FF000009000000
(0946688499.796659) can0 00000002#2FFC0000FAFF0100
(0946688499.797178) can0 00000103#0101010101010101
(0946688499.806494) can0 00000001#E4FF000009000000
(0946688499.806820) can0 00000002#2FFC0000FAFF0100
(0946688499.807202) can0 00000103#0101010101010101
(0946688499.816558) can0 00000001#E4FF000009000000
(0946688499.816850) can0 00000002#2FFC0000FAFF0100
(0946688499.817196) can0 00000103#0101010101010101
(0946688499.826669) can0 00000001#E4FF000008000000
(0946688499.826963) can0 00000002#2FFC0000FAFF0100
(0946688499.827263) can0 00000103#0101010101010101
(0946688499.832219) can0 19B50000#0004000000020060
(0946688499.832787) can0 19B50007#0000002700000000
(0946688499.833389) can0 19B50001#B6BBB78FFE000000
(0946688499.834009) can0 19B50002#7678770000000000
(0946688499.834600) can0 19B50003#0000000000000000
(0946688499.835173) can0 19B50008#787A790000000000
(0946688499.836072) can0 19B50500#0000001A00002664
(0946688499.836749) can0 00000001#E4FF000009000000
(0946688499.837056) can0 00000002#2FFC0000FAFF0100
(0946688499.837388) can0 00000103#0101010101010101
(0946688499.837645) can0 19B50600#FFFF005199990000
(0946688499.837921) can0 19B50009#B6BBB700008FFE00
(0946688499.842167) can0 00000008#23FF
(0946688499.842630) can0 00000009#23007979797978FF
(0946688499.845127) can0 00000008#23FF
(0946688499.845602) can0 00000009#2306FFFFFFFFFFFF
(0946688499.846847) can0 00000001#E4FF000009000000
(0946688499.847132) can0 00000002#2FFC0000FAFF0100
(0946688499.847460) can0 00000103#0101010101010101
(0946688499.850295) can0 00000008#23FF
(0946688499.850792) can0 00000009#230CFFFFFFFF
(0946688499.855170) can0 0000000C#23FF
(0946688499.855582) can0 0000000D#23007979797A79FF
(0946688499.856972) can0 00000001#E4FF000008000000
(0946688499.857289) can0 00000002#2FFC0000FAFF0100
(0946688499.857536) can0 00000103#0101010101010101
(0946688499.857850) can0 18FF1515#0000000100010000
(0946688499.860395) can0 0000000C#23FF
(0946688499.860884) can0 0000000D#2306FFFFFFFFFFFF
(0946688499.865354) can0 0000000C#23FF
(0946688499.865812) can0 0000000D#230CFFFFFFFF
(0946688499.867103) can0 00000001#E4FF000009000000
(0946688499.867411) can0 00000002#2FFC0000FAFF0100
(0946688499.867696) can0 00000103#0101010101010101
(0946688499.870455) can0 00000010#23FF
(0946688499.870935) can0 00000011#23007A7A7A7A7AFF
(0946688499.877169) can0 00000001#E4FF000009000000
(0946688499.877444) can0 00000002#2FFC0000FAFF0100
(0946688499.877647) can0 00000010#23FF
(0946688499.877911) can0 00000103#0101010101010101
(0946688499.878216) can0 00000011#2306FFFFFFFFFFFF
(0946688499.887189) can0 00000103#0101010101010101
(0946688499.887508) can0 00000001#E4FF000009000000
(0946688499.887777) can0 00000002#2FFC0000FAFF0100
(0946688499.895215) can0 00000010#23FF
(0946688499.895688) can0 00000011#230CFFFFFFFF
(0946688499.897196) can0 00000103#0101010101010101
(0946688499.897488) can0 00000001#E4FF000009000000
(0946688499.897760) can0 00000002#2FFC0000FAFF0100
(0946688499.898117) can0 00000303#0000
(0946688499.901250) can0 00000014#23FF
(0946688499.901730) can0 00000015#23007A7A7A7A7AFF
(0946688499.906121) can0 00000014#23FF
(0946688499.906666) can0 00000015#2306FFFFFFFFFFFF
(0946688499.907199) can0 00000103#0101010101010101
(0946688499.907494) can0 00000001#E4FF000009000000
(0946688499.907788) can0 00000002#2FFC0000FAFF0100
(0946688499.911327) can0 00000014#23FF
(0946688499.911803) can0 00000015#230CFFFFFFFF
(0946688499.916141) can0 00000018#23FF
(0946688499.916633) can0 00000019#23007979797979FF
(0946688499.917199) can0 00000103#0101010101010101
(0946688499.917574) can0 00000001#E4FF000009000000
(0946688499.917875) can0 00000002#2EFC0000FAFF0100
(0946688499.921450) can0 00000018#23FF
(0946688499.921968) can0 00000019#2306FFFFFFFFFFFF
(0946688499.923095) can0 00000303#0000
(0946688499.926192) can0 00000018#23FF
(0946688499.926663) can0 00000019#230CFFFFFFFF
(0946688499.927216) can0 00000103#0101010101010101
(0946688499.927696) can0 00000001#E4FF000009000000
(0946688499.927960) can0 00000002#2FFC0000FAFF0100
(0946688499.931530) can0 0000001C#23FF
(0946688499.932010) can0 0000001D#23007979797979FF
(0946688499.936387) can0 0000001C#23FF
(0946688499.936952) can0 0000001D#2306FFFFFFFFFFFF
(0946688499.937207) can0 00000103#0101010101010101
(0946688499.937774) can0 00000001#E4FF000009000000
(0946688499.938074) can0 00000002#2FFC0000FAFF0100
(0946688499.941652) can0 0000001C#23FF
(0946688499.942129) can0 0000001D#230CFFFFFFFF
(0946688499.947198) can0 00000103#0101010101010101
(0946688499.948537) can0 00000001#E4FF000009000000
(0946688499.948860) can0 00000002#2EFC0000FAFF0100
(0946688499.957234) can0 00000103#0101010101010101
(0946688499.957678) can0 18FF1515#0000000100010000
(0946688499.958635) can0 00000001#E4FF000009000000
(0946688499.958930) can0 00000002#2FFC0000FAFF0100
(0946688499.967246) can0 00000103#0101010101010101
(0946688499.968723) can0 00000001#E4FF000009000000
(0946688499.969054) can0 00000002#2FFC0000FAFF0100
(0946688499.977227) can0 00000103#0101010101010101
(0946688499.978825) can0 00000001#E4FF000009000000
(0946688499.979124) can0 00000002#2FFC0000FAFF0100
(0946688499.987188) can0 00000103#0101010101010101
(0946688499.988901) can0 00000001#E3FF000008000000
(0946688499.989203) can0 00000002#2FFC0000FAFF0100
(0946688499.997199) can0 00000103#0101010101010101
(0946688499.998991) can0 00000001#E4FF000008000000
(0946688499.999274) can0 00000002#2FFC0000FBFF0100
(0946688500.007232) can0 00000103#0101010101010101
(0946688500.009051) can0 00000001#E4FF000009000000
(0946688500.009473) can0 00000002#2FFC0000FBFF0100
(0946688500.017238) can0 00000103#0101010101010101
(0946688500.019192) can0 00000001#E4FF000009000000
(0946688500.019486) can0 00000002#2FFC0000FBFF0100
(0946688500.024792) can0 19B50800#00
(0946688500.025362) can0 19B50800#7979797978FFFFFF
(0946688500.027216) can0 00000103#0101010101010101
(0946688500.029255) can0 00000001#E4FF000009000000
(0946688500.029554) can0 00000002#2FFC0000FAFF0100
(0946688500.030964) can0 00000303#0000
(0946688500.037186) can0 00000103#0101010101010101
(0946688500.038481) can0 19B50000#0004000000020060
(0946688500.039071) can0 19B50007#0000002700000000
(0946688500.039342) can0 00000001#E4FF000009000000
(0946688500.039622) can0 00000002#2FFC0000FBFF0100
(0946688500.039959) can0 19B50001#B6BBB78FFE000000
(0946688500.040259) can0 19B50002#7678770000000000
(0946688500.040831) can0 19B50003#0000000000000000
(0946688500.041414) can0 19B50008#787A790000000000
(0946688500.042289) can0 19B50500#0000001A00002664
(0946688500.043394) can0 19B50600#FFFF005199990000
(0946688500.043992) can0 19B50009#B6BBB700008FFE00
(0946688500.047241) can0 00000103#0101010101010101
(0946688500.049461) can0 00000001#E4FF000009000000
(0946688500.049767) can0 00000002#2FFC0000FBFF0100
(0946688500.054067) can0 19B50801#FFFFFFFFFFFFFFFF
(0946688500.055981) can0 00000303#0000
(0946688500.057233) can0 00000103#0101010101010101
(0946688500.057632) can0 18FF1515#0000000100010000
(0946688500.059538) can0 00000001#E4FF000009000000
(0946688500.059841) can0 00000002#2FFC0000FAFF0100
(0946688500.067196) can0 00000103#0101010101010101
(0946688500.069662) can0 00000001#E4FF000009000000
(0946688500.069965) can0 00000002#2FFC0000FBFF0100
(0946688500.071329) can0 19B50802#7979797A79FFFFFF
(0946688500.077213) can0 00000103#0101010101010101
(0946688500.079745) can0 00000001#E4FF000009000000
(0946688500.080009) can0 00000002#2FFC0000FAFF0100
(0946688500.087219) can0 00000103#0101010101010101
(0946688500.088303) can0 19B50803#FFFFFFFFFFFFFFFF
(0946688500.089823) can0 00000001#E4FF000009000000
(0946688500.090119) can0 00000002#2FFC0000FAFF0100
(0946688500.097199) can0 00000103#0101010101010101
(0946688500.099924) can0 00000001#E4FF000009000000
(0946688500.100207) can0 00000002#2FFC0000FAFF0100
(0946688500.102955) can0 19B50804#7A7A7A7A7AFFFFFF
(0946688500.107233) can0 00000103#0101010101010101
(0946688500.109972) can0 00000001#E4FF000009000000
(0946688500.110264) can0 00000002#2FFC0000FAFF0100
(0946688500.117189) can0 00000103#0101010101010101
(0946688500.120096) can0 00000001#E4FF000009000000
(0946688500.120376) can0 00000002#2FFC0000FAFF0100
(0946688500.127217) can0 00000103#0101010101010101
(0946688500.130181) can0 00000001#E4FF000009000000
(0946688500.130475) can0 00000002#2FFC0000FAFF0100
(0946688500.137209) can0 00000103#0101010101010101
(0946688500.140999) can0 00000001#E4FF000009000000
(0946688500.141277) can0 00000002#2FFC0000FAFF0100
(0946688500.147201) can0 00000103#0101010101010101
(0946688500.151160) can0 00000001#E4FF000009000000
(0946688500.151455) can0 00000002#2FFC0000FAFF0100
(0946688500.157240) can0 00000103#0101010101010101
(0946688500.157553) can0 19B50805#FFFFFFFFFFFFFFFF
(0946688500.157858) can0 18FF1515#0000000100010000
(0946688500.161243) can0 00000001#E5FF000009000000
(0946688500.161545) can0 00000002#2FFC0000FAFF0100
(0946688500.163807) can0 00000303#0000
(0946688500.167201) can0 00000103#0101010101010101
(0946688500.171330) can0 00000001#E4FF000009000000
(0946688500.171625) can0 00000002#2FFC0000FBFF0100
(0946688500.175931) can0 19B50806#7A7A7A7A7AFFFFFF
(0946688500.177201) can0 00000103#0101010101010101
(0946688500.181412) can0 00000001#E4FF000009000000
(0946688500.181699) can0 00000002#2FFC0000FBFF0100
(0946688500.187214) can0 00000103#0101010101010101
(0946688500.188792) can0 00000303#0000
(0946688500.190135) can0 19B50807#FFFFFFFFFFFFFFFF
(0946688500.191540) can0 00000001#E4FF000009000000
(0946688500.191865) can0 00000002#2FFC0000FBFF0100
(0946688500.197197) can0 00000103#0101010101010101
(0946688500.201642) can0 00000001#E4FF000009000000
(0946688500.201924) can0 00000002#2FFC0000FBFF0100
(0946688500.207246) can0 00000103#0101010101010101
(0946688500.208279) can0 19B50808#7979797979FFFFFF
(0946688500.211803) can0 00000001#E4FF000009000000
(0946688500.212095) can0 00000002#2FFC0000FBFF0100
(0946688500.217219) can0 00000103#0101010101010101
(0946688500.221832) can0 00000001#E4FF000009000000
(0946688500.222117) can0 00000002#2FFC0000FBFF0100
(0946688500.222978) can0 19B50809#FFFFFFFFFFFFFFFF
(0946688500.227221) can0 00000103#0101010101010101
(0946688500.231961) can0 00000001#E4FF000009000000
(0946688500.232228) can0 00000002#2FFC0000FBFF0100
(0946688500.235174) can0 19B50000#0004000000020060
(0946688500.235677) can0 19B50007#0000002700000000
(0946688500.236277) can0 19B50001#B6BBB78FFE000000
(0946688500.236842) can0 19B50002#7678770000000000
(0946688500.237212) can0 00000103#0101010101010101
(0946688500.237806) can0 19B50003#0000000000000000
(0946688500.238429) can0 19B50008#787A790000000000
(0946688500.239268) can0 19B50500#0000001A00002664
(0946688500.240399) can0 19B50600#FFFF005199990000
(0946688500.240957) can0 19B50009#B6BBB700008FFE00
(0946688500.242033) can0 00000001#E4FF000009000000
(0946688500.242290) can0 00000002#2FFC0000FBFF0100
(0946688500.244643) can0 00000007#2403860096A60000
(0946688500.247214) can0 00000103#0101010101010101
(0946688500.252115) can0 00000001#E4FF000009000000
(0946688500.252397) can0 00000002#2FFC0000FBFF0100
(0946688500.257215) can0 00000103#0101010101010101
(0946688500.257645) can0 18FF1515#0000000100010000
(0946688500.262247) can0 00000001#E5FF000009000000
(0946688500.262545) can0 00000002#2FFC0000FBFF0100
(0946688500.267200) can0 00000103#0101010101010101
(0946688500.272268) can0 00000001#E5FF000009000000
(0946688500.272576) can0 00000002#2FFC0000FBFF0100
(0946688500.277193) can0 00000103#0101010101010101
(0946688500.282397) can0 00000001#E4FF000009000000
(0946688500.282679) can0 00000002#2FFC0000FBFF0100
(0946688500.287215) can0 00000103#0101010101010101
(0946688500.288705) can0 00000303#0000
(0946688500.292471) can0 00000001#E4FF000009000000
(0946688500.292749) can0 00000002#2FFC0000FBFF0100
(0946688500.297251) can0 00000103#0101010101010101
(0946688500.302562) can0 00000001#E4FF000008000000
(0946688500.302853) can0 00000002#2FFC0000FBFF0100
(0946688500.307197) can0 00000103#0101010101010101
(0946688500.313383) can0 00000001#E4FF000008000000
(0946688500.313679) can0 00000002#2FFC0000FBFF0100
(0946688500.317208) can0 00000103#0101010101010101
(0946688500.319670) can0 00000303#0000
(0946688500.323435) can0 00000001#E3FF000008000000
(0946688500.323731) can0 00000002#2FFC0000FBFF0100
(0946688500.327196) can0 00000103#0101010101010101
(0946688500.333529) can0 00000001#E3FF000009000000
(0946688500.333826) can0 00000002#2FFC0000FBFF0100
(0946688500.337217) can0 00000103#0101010101010101
(0946688500.340746) can0 00000008#24FF
(0946688500.341268) can0 00000009#24007979797978FF
(0946688500.342699) can0 00000008#24FF
(0946688500.343178) can0 00000009#2406FFFFFFFFFFFF
(0946688500.343611) can0 00000001#E4FF000009000000
(0946688500.343909) can0 00000002#2FFC0000FBFF0100
(0946688500.346576) can0 00000008#24FF
(0946688500.347046) can0 00000009#240CFFFFFFFF
(0946688500.347295) can0 00000103#0101010101010101
(0946688500.352170) can0 0000000C#24FF
(0946688500.352617) can0 0000000D#24007979797A79FF
(0946688500.353726) can0 00000001#E4FF000008000000
(0946688500.354030) can0 00000002#2FFC0000FBFF0100
(0946688500.356344) can0 0000000C#24FF
(0946688500.356860) can0 0000000D#2406FFFFFFFFFFFF
(0946688500.357204) can0 00000103#0101010101010101
(0946688500.357649) can0 18FF1515#0000000100010000
(0946688500.362207) can0 0000000C#24FF
(0946688500.362680) can0 0000000D#240CFFFFFFFF
(0946688500.363821) can0 00000001#E4FF000009000000
(0946688500.364133) can0 00000002#2FFC0000FBFF0100
(0946688500.366646) can0 00000010#24FF
(0946688500.367163) can0 00000011#24007A7A7A7A7AFF
(0946688500.367409) can0 00000103#0101010101010101
(0946688500.373893) can0 00000001#E4FF000009000000
(0946688500.374171) can0 00000002#2FFC0000FBFF0100
(0946688500.377197) can0 00000103#0101010101010101
(0946688500.384003) can0 00000001#E4FF000009000000
(0946688500.384261) can0 00000002#2FFC0000FBFF0100
(0946688500.384465) can0 00000010#24FF
(0946688500.384968) can0 00000011#2406FFFFFFFFFFFF
(0946688500.387216) can0 00000103#0101010101010101
(0946688500.390572) can0 00000010#24FF
(0946688500.391040) can0 00000011#240CFFFFFFFF
(0946688500.394062) can0 00000001#E3FF000009000000
(0946688500.394365) can0 00000002#2FFC0000FBFF0100
(0946688500.397210) can0 00000103#0101010101010101
(0946688500.397654) can0 00000014#24FF
(0946688500.398127) can0 00000015#24007A7A7A7A7AFF
(0946688500.403208) can0 00000014#24FF
(0946688500.403703) can0 00000015#2406FFFFFFFFFFFF
(0946688500.404197) can0 00000001#E3FF000009000000
(0946688500.404489) can0 00000002#2FFC0000FAFF0100
(0946688500.407202) can0 00000103#0101010101010101
(0946688500.407632) can0 00000014#24FF
(0946688500.408282) can0 00000015#240CFFFFFFFF
(0946688500.413130) can0 00000018#24FF
(0946688500.413597) can0 00000019#24007979797979FF
(0946688500.414263) can0 00000001#E4FF000009000000
(0946688500.414565) can0 00000002#2FFC0000FAFF0100
(0946688500.417194) can0 00000103#0101010101010101
(0946688500.417886) can0 00000018#24FF
(0946688500.418380) can0 00000019#2406FFFFFFFFFFFF
(0946688500.419501) can0 00000303#0000
(0946688500.423634) can0 19B50000#0004000000020060
(0946688500.424222) can0 19B50007#0000002700000000
(0946688500.424493) can0 00000001#E3FF000009000000
(0946688500.424835) can0 00000002#2FFC0000FBFF0100
(0946688500.425108) can0 19B50001#B6BBB78FFE000000
(0946688500.425463) can0 19B50002#7678770000000000
(0946688500.426035) can0 19B50003#0000000000000000
(0946688500.426617) can0 19B50008#787A790000000000
(0946688500.427221) can0 00000103#0101010101010101
(0946688500.427629) can0 19B50500#0000001A00002664
(0946688500.428719) can0 19B50600#FFFF005199990000
(0946688500.429289) can0 19B50009#B6BBB700008FFE00
(0946688500.434420) can0 00000001#E3FF000009000000
(0946688500.434739) can0 00000002#2FFC0000FBFF0100
(0946688500.435522) can0 00000018#24FF
(0946688500.435965) can0 00000019#240CFFFFFFFF
(0946688500.437190) can0 00000103#0101010101010101
(0946688500.441528) can0 0000001C#24FF
(0946688500.441982) can0 0000001D#24007979797979FF
(0946688500.444518) can0 00000001#E4FF000009000000
(0946688500.444822) can0 00000002#2FFC0000FAFF0100
(0946688500.447221) can0 00000103#0101010101010101
(0946688500.454639) can0 00000001#E4FF000009000000
(0946688500.454913) can0 00000002#2FFC0000FAFF0100
(0946688500.457207) can0 00000103#0101010101010101
(0946688500.457645) can0 18FF1515#0000000100010000
(0946688500.458344) can0 0000001C#24FF
(0946688500.458831) can0 0000001D#2406FFFFFFFFFFFF
(0946688500.464722) can0 00000001#E4FF000009000000
(0946688500.464997) can0 00000002#2FFC0000FAFF0100
(0946688500.465206) can0 0000001C#24FF
(0946688500.465645) can0 0000001D#240CFFFFFFFF
(0946688500.467180) can0 00000103#0101010101010101
(0946688500.474792) can0 00000001#E4FF000009000000
(0946688500.475101) can0 00000002#2FFC0000FAFF0100
(0946688500.477201) can0 00000103#0101010101010101
(0946688500.484872) can0 00000001#E4FF000009000000
(0946688500.485189) can0 00000002#2FFC0000FAFF0100
(0946688500.487258) can0 00000103#0101010101010101
(0946688500.494951) can0 00000001#E4FF000009000000
(0946688500.495258) can0 00000002#2FFC0000FAFF0100
(0946688500.497189) can0 00000103#0101010101010101
(0946688500.505008) can0 00000001#E4FF000008000000
(0946688500.505322) can0 00000002#2FFC0000FAFF0100
(0946688500.507200) can0 00000103#0101010101010101
(0946688500.515865) can0 00000001#E4FF000009000000
(0946688500.516197) can0 00000002#2FFC0000FAFF0100
(0946688500.517201) can0 00000103#0101010101010101
(0946688500.525973) can0 00000001#E3FF000009000000
(0946688500.526258) can0 00000002#2FFC0000FAFF0100
(0946688500.527190) can0 00000103#0101010101010101
(0946688500.528690) can0 19B5080A#7979797979FFFFFF
(0946688500.536024) can0 00000001#E3FF000009000000
(0946688500.536353) can0 00000002#2FFC0000FAFF0100
(0946688500.537226) can0 00000103#0101010101010101
(0946688500.542307) can0 19B5080B#FFFFFFFFFFFFFFFF
(0946688500.544425) can0 00000303#0000
(0946688500.546167) can0 00000001#E3FF000009000000
(0946688500.546437) can0 00000002#2FFC0000FAFF0100
(0946688500.547225) can0 00000103#0101010101010101
(0946688500.556284) can0 00000001#E3FF000009000000
(0946688500.556560) can0 00000002#2FFC0000FAFF0100
(0946688500.557188) can0 00000103#0101010101010101
(0946688500.557652) can0 18FF1515#0000000100010000
(0946688500.566368) can0 00000001#E4FF000008000000
(0946688500.566660) can0 00000002#2FFC0000FAFF0100
(0946688500.567206) can0 00000103#0101010101010101
(0946688500.575404) can0 00000303#0000
(0946688500.576452) can0 00000001#E4FF000009000000
(0946688500.576765) can0 00000002#2FFC0000FAFF0100
(0946688500.577180) can0 00000103#0101010101010101
(0946688500.586559) can0 00000001#E4FF000009000000
(0946688500.586855) can0 00000002#2FFC0000FAFF0100
(0946688500.587195) can0 00000103#0101010101010101
(0946688500.596629) can0 00000001#E4FF000009000000
(0946688500.596953) can0 00000002#2FFC0000FAFF0100
(0946688500.597216) can0 00000103#0101010101010101
(0946688500.606776) can0 00000001#E4FF000009000000
(0946688500.607033) can0 00000002#2FFC0000FAFF0100
(0946688500.607323) can0 00000103#0101010101010101
(0946688500.616848) can0 00000001#E4FF000009000000
(0946688500.617122) can0 00000002#2FFC0000FAFF0100
(0946688500.617398) can0 00000103#0101010101010101
(0946688500.626931) can0 00000001#E4FF000009000000
(0946688500.627234) can0 00000002#2FFC0000FAFF0100
(0946688500.627536) can0 00000103#0101010101010101
(0946688500.627816) can0 19B50000#0004000000020060
(0946688500.628240) can0 19B50007#0000002700000000
(0946688500.628849) can0 19B50001#B6BBB78FFE000000
(0946688500.629412) can0 19B50002#7678770000000000
(0946688500.629980) can0 19B50003#0000000000000000
(0946688500.630625) can0 19B50008#787A790000000000
(0946688500.631510) can0 19B50500#0000001A00002664
(0946688500.632581) can0 19B50600#FFFF005199990000
(0946688500.633151) can0 19B50009#B6BBB700008FFE00
(0946688500.637054) can0 00000001#E4FF000009000000
(0946688500.637334) can0 00000002#2FFC0000FAFF0100
(0946688500.637662) can0 00000103#0101010101010101
(0946688500.647183) can0 00000001#E4FF000009000000
(0946688500.647504) can0 00000103#0101010101010101
(0946688500.647753) can0 00000002#2FFC0000FAFF0100
(0946688500.657190) can0 00000103#0101010101010101
(0946688500.657510) can0 00000001#E4FF000009000000
(0946688500.657805) can0 00000002#2FFC0000FAFF0100
(0946688500.658168) can0 18FF1515#0000000100010000
(0946688500.667198) can0 00000103#0101010101010101
(0946688500.667501) can0 00000001#E4FF000009000000
(0946688500.667811) can0 00000002#2FFC0000FAFF0100
(0946688500.669274) can0 00000303#0000
(0946688500.677235) can0 00000103#0101010101010101
(0946688500.677548) can0 00000001#E4FF000009000000
(0946688500.678263) can0 00000002#2EFC0000FAFF0100
(0946688500.687238) can0 00000103#0101010101010101
(0946688500.688303) can0 00000001#E3FF000009000000
(0946688500.688620) can0 00000002#2FFC0000FAFF0100
(0946688500.697233) can0 00000103#0101010101010101
(0946688500.698420) can0 00000001#E4FF000009000000
(0946688500.698703) can0 00000002#2FFC0000FAFF0100
(0946688500.700233) can0 00000303#0000
(0946688500.707205) can0 00000103#0101010101010101
(0946688500.708530) can0 00000001#E4FF000009000000
(0946688500.708795) can0 00000002#2FFC0000FAFF0100
(0946688500.717201) can0 00000103#0101010101010101
(0946688500.718605) can0 00000001#E4FF000009000000
(0946688500.718928) can0 00000002#2FFC0000FAFF0100
(0946688500.724506) can0 00000007#2503810091A10000
